(1467827514.658585) can0 440#40008011010F0F0F
(1467827514.670071) can0 442#42008000010F0F0F
(1467827514.758508) can0 440#4001801101000000
(1467827514.758748) can0 620#1080FFFF80580080
(1467827514.769022) can0 442#4201800001000000
(1467827514.852437) can0 440#4212001101000000
(1467827514.948939) can0 442#4002000001000000
(1467827514.982373) can0 621#1100000000000000
(1467827514.990910) can0 610#2000006480FFFD60
(1467827514.991410) can0 622#1200000000000000
(1467827515.000357) can0 623#1900000000000000
(1467827515.002982) can0 611#2100002000006227
(1467827515.009403) can0 624#1A00414949400000
(1467827515.018361) can0 626#1C00300000000000
(1467827515.027334) can0 638#1300180100000000
(1467827515.036331) can0 63C#98005A5245172060
(1467827515.045301) can0 63D#9900444558534B00
(1467827515.047298) can0 440#4212001101000000
(1467827515.054322) can0 680#D800010000000000
(1467827515.063292) can0 620#1000FFFF80580080
(1467827515.149824) can0 442#4002000001000000
(1467827515.252157) can0 440#4212001101000000
(1467827515.347736) can0 442#4002000001000000
(1467827515.358095) can0 620#1000FFFF80580080
(1467827515.447028) can0 440#4212001101000000
(1467827515.488703) can0 610#2000006480FFFD60
(1467827515.548625) can0 442#4002000001000000
(1467827515.646877) can0 440#4212001101000000
(1467827515.657894) can0 620#1000FFFF80580080
(1467827515.749504) can0 442#4002000001000000
(1467827515.797838) can0 620#1080FFFF90580080
(1467827515.818509) can0 618#2200007880000000
(1467827515.825968) can0 443#4300802F060F0F0F
(1467827515.830465) can0 619#230000000C010A80
(1467827515.842484) can0 61A#2400000000015060
(1467827515.851754) can0 440#4202001101000000
(1467827515.854478) can0 61C#260000000000000F
(1467827515.924918) can0 443#4301802F06000000
(1467827515.947405) can0 442#4302000001000000
(1467827515.981673) can0 621#1100000000000000
(1467827515.989390) can0 610#2000006480FFFD60
(1467827515.990657) can0 622#1200000000000000
(1467827515.999655) can0 623#1900000000000000
(1467827516.001457) can0 611#2100002000006227
(1467827516.008703) can0 624#1A00414949400000
(1467827516.017702) can0 626#1C00300000000000
(1467827516.026648) can0 638#1300180100000000
(1467827516.035612) can0 63C#98005A5245172060
(1467827516.044608) can0 63D#9900444558534B00
(1467827516.044854) can0 443#4202002F06000000
(1467827516.051629) can0 440#4201001101000000
(1467827516.053688) can0 680#D800010000000000
(1467827516.067401) can0 610#2080006480FFFD60
(1467827516.079396) can0 611#2180002000006227
(1467827516.097593) can0 620#1000FFFF90580080
(1467827516.139312) can0 442#4302000001000000
(1467827516.239771) can0 443#4002002F06000000
(1467827516.264773) can0 389#0000000000000000
(1467827516.324743) can0 38F#0100000000000000
(1467827516.341414) can0 440#4202001101000000
(1467827516.397380) can0 620#1000FFFF90580080
(1467827516.414749) can0 434#3F00000000000000
(1467827516.439170) can0 442#4302000001000000
(1467827516.444652) can0 435#0F0505FFE00FE003
(1467827516.474636) can0 436#0000000000000000
(1467827516.504621) can0 437#FCFFFFFFFFFFFFFF
(1467827516.539604) can0 443#4002002F06000000
(1467827516.568104) can0 610#2000006480FFFD60
(1467827516.641204) can0 440#4202001101000000
(1467827516.697176) can0 620#1000FFFF90580080
(1467827516.739005) can0 442#4302000001000000
(1467827516.839468) can0 443#4002002F06000000
(1467827516.941059) can0 440#4202001101000000
(1467827516.980978) can0 621#1100000000000000
(1467827516.989978) can0 622#1200000000000000
(1467827516.999007) can0 623#1900000000000000
(1467827517.008000) can0 620#1000FFFF90580080
(1467827517.016997) can0 624#1A00414949400000
(1467827517.025950) can0 626#1C00300000000000
(1467827517.034931) can0 638#1300180100000000
(1467827517.038828) can0 442#4302000001000000
(1467827517.043902) can0 63C#98005A5245172060
(1467827517.052897) can0 63D#9900444558534B00
(1467827517.061918) can0 680#D800010000000000
(1467827517.065816) can0 610#2000006480FFFD60
(1467827517.080807) can0 611#2100002000006227
(1467827517.139305) can0 443#4002002F06000000
(1467827517.240779) can0 440#4202001101000000
(1467827517.264241) can0 389#0000000000000000
(1467827517.296750) can0 620#1000FFFF90580080
(1467827517.324222) can0 38F#0100000000000000
(1467827517.338679) can0 442#4302000001000000
(1467827517.414176) can0 434#3F00000000000000
(1467827517.439155) can0 443#4002002F06000000
(1467827517.444151) can0 435#0F0505FFE00FE003
(1467827517.474137) can0 436#0000000000000000
(1467827517.504121) can0 437#FCFFFFFFFFFFFFFF
(1467827517.540559) can0 440#4202001101000000
(1467827517.566566) can0 610#2000006480FFFD60
(1467827517.596550) can0 620#1000FFFF90580080
(1467827517.638541) can0 442#4302000001000000
(1467827517.739008) can0 443#4002002F06000000
(1467827517.840364) can0 440#4202001101000000
(1467827517.896326) can0 620#1000FFFF90580080
(1467827517.938354) can0 442#4302000001000000
(1467827517.980330) can0 621#1100000000000000
(1467827517.989285) can0 622#1200000000000000
(1467827517.998281) can0 623#1900000000000000
(1467827518.007309) can0 624#1A00414949400000
(1467827518.016303) can0 626#1C00300000000000
(1467827518.025256) can0 638#1300180100000000
(1467827518.034263) can0 63C#98005A5245172060
(1467827518.038891) can0 443#4002002F06000000
(1467827518.043267) can0 63D#9900444558534B00
(1467827518.052237) can0 680#D800010000000000
(1467827518.067296) can0 610#2000006480FFFD60
(1467827518.079290) can0 611#2100002000006227
(1467827518.140161) can0 440#4202001101000000
(1467827518.196152) can0 620#1000FFFF90580080
(1467827518.238205) can0 442#4302000001000000
(1467827518.263742) can0 389#0000000000000000
(1467827518.316220) can0 618#2280007880000000
(1467827518.323769) can0 38F#0100000000000000
(1467827518.328162) can0 619#238000000C010A80
(1467827518.338679) can0 443#4002002F06000000
(1467827518.340156) can0 61A#2480000000015060
(1467827518.352147) can0 61C#268000000000000F
(1467827518.413667) can0 434#3F00000000000000
(1467827518.439964) can0 440#4202001101000000
(1467827518.443734) can0 435#0F0505FFE00FE003
(1467827518.473695) can0 436#0000000000000000
(1467827518.495928) can0 620#1000FFFF90580080
(1467827518.503621) can0 437#FCFFFFFFFFFFFFFF
(1467827518.538054) can0 442#4302000001000000
(1467827518.565057) can0 610#2000006480FFFD60
(1467827518.638530) can0 443#4002002F06000000
(1467827518.739735) can0 440#4202001101000000
(1467827518.795696) can0 620#1000FFFF90580080
(1467827518.837893) can0 442#4302000001000000
(1467827518.938436) can0 443#4002002F06000000
(1467827518.979605) can0 621#1100000000000000
(1467827518.988578) can0 622#1200000000000000
(1467827518.997573) can0 623#1900000000000000
(1467827519.006570) can0 624#1A00414949400000
(1467827519.015623) can0 626#1C00300000000000
(1467827519.024614) can0 638#1300180100000000
(1467827519.033570) can0 63C#98005A5245172060
(1467827519.039528) can0 440#4202001101000000
(1467827519.042525) can0 63D#9900444558534B00
(1467827519.051545) can0 680#D800010000000000
(1467827519.065765) can0 610#2000006480FFFD60
(1467827519.077759) can0 611#2100002000006227
(1467827519.095500) can0 620#1000FFFF90580080
(1467827519.137730) can0 442#4302000001000000
(1467827519.238231) can0 443#4002002F06000000
(1467827519.263241) can0 389#0000000000000000
(1467827519.323227) can0 38F#0100000000000000
(1467827519.339378) can0 440#4202001101000000
(1467827519.395410) can0 620#1000FFFF90580080
(1467827519.413175) can0 434#3F00000000000000
(1467827519.437579) can0 442#4302000001000000
(1467827519.443151) can0 435#0F0505FFE00FE003
(1467827519.473137) can0 436#0000000000000000
(1467827519.503121) can0 437#FCFFFFFFFFFFFFFF
(1467827519.538080) can0 443#4002002F06000000
(1467827519.566514) can0 610#2000006480FFFD60
(1467827519.639129) can0 440#4202001101000000
(1467827519.695088) can0 620#1000FFFF90580080
(1467827519.737430) can0 442#4302000001000000
(1467827519.837949) can0 443#4002002F06000000
(1467827519.938910) can0 440#4202001101000000
(1467827519.978891) can0 621#1100000000000000
(1467827519.987890) can0 622#1200000000000000
(1467827519.996931) can0 623#1900000000000000
(1467827520.005930) can0 620#1000FFFF90580080
(1467827520.014912) can0 624#1A00414949400000
(1467827520.023911) can0 626#1C00300000000000
(1467827520.032867) can0 638#1300180100000000
(1467827520.037251) can0 442#4302000001000000
(1467827520.041825) can0 63C#98005A5245172060
(1467827520.050874) can0 63D#9900444558534B00
(1467827520.059893) can0 680#D800010000000000
(1467827520.064295) can0 610#2000006480FFFD60
(1467827520.079283) can0 611#2100002000006227
(1467827520.137788) can0 443#4002002F06000000
(1467827520.238698) can0 440#4202001101000000
(1467827520.262728) can0 389#0000000000000000
(1467827520.294662) can0 620#1000FFFF90580080
(1467827520.322709) can0 38F#0100000000000000
(1467827520.337092) can0 442#4302000001000000
(1467827520.412655) can0 434#3F00000000000000
(1467827520.437616) can0 443#4002002F06000000
(1467827520.442691) can0 435#0F0505FFE00FE003
(1467827520.472635) can0 436#0000000000000000
(1467827520.502609) can0 437#FCFFFFFFFFFFFFFF
(1467827520.538466) can0 440#4202001101000000
(1467827520.564979) can0 610#2000006480FFFD60
(1467827520.594438) can0 620#1000FFFF90580080
(1467827520.636963) can0 442#4302000001000000
(1467827520.737480) can0 443#4002002F06000000
(1467827520.838293) can0 440#4202001101000000
(1467827520.894277) can0 620#1000FFFF90580080
(1467827520.936885) can0 442#4302000001000000
(1467827520.978205) can0 621#1100000000000000
(1467827520.987210) can0 622#1200000000000000
(1467827520.996204) can0 623#1900000000000000
(1467827521.005231) can0 624#1A00414949400000
(1467827521.014229) can0 626#1C00300000000000
(1467827521.023182) can0 638#1300180100000000
(1467827521.032163) can0 63C#98005A5245172060
(1467827521.037390) can0 443#4002002F06000000
(1467827521.041188) can0 63D#9900444558534B00
(1467827521.050157) can0 680#D800010000000000
(1467827521.065722) can0 610#2000006480FFFD60
(1467827521.077716) can0 611#2100002000006227
(1467827521.138088) can0 440#4202001101000000
(1467827521.194058) can0 620#1000FFFF90580080
(1467827521.236643) can0 442#4302000001000000
(1467827521.262223) can0 389#0000000000000000
(1467827521.322202) can0 38F#0100000000000000
(1467827521.337179) can0 443#4002002F06000000
(1467827521.412143) can0 434#3F00000000000000
(1467827521.437853) can0 440#4202001101000000
(1467827521.442124) can0 435#0F0505FFE00FE003
(1467827521.472112) can0 436#0000000000000000
(1467827521.493826) can0 620#1000FFFF90580080
(1467827521.502097) can0 437#FCFFFFFFFFFFFFFF
(1467827521.536480) can0 442#4302000001000000
(1467827521.563466) can0 610#2000006480FFFD60
(1467827521.637030) can0 443#4002002F06000000
(1467827521.737666) can0 440#4202001101000000
(1467827521.793625) can0 620#1000FFFF90580080
(1467827521.836313) can0 442#4302000001000000
(1467827521.936882) can0 443#4002002F06000000
(1467827521.977509) can0 621#1100000000000000
(1467827521.986510) can0 622#1200000000000000
(1467827521.995499) can0 623#1900000000000000
(1467827522.004470) can0 624#1A00414949400000
(1467827522.013491) can0 626#1C00300000000000
(1467827522.022462) can0 638#1300180100000000
(1467827522.031456) can0 63C#98005A5245172060
(1467827522.037513) can0 440#4202001101000000
(1467827522.040483) can0 63D#9900444558534B00
(1467827522.049452) can0 680#D800010000000000
(1467827522.064190) can0 610#2000006480FFFD60
(1467827522.076184) can0 611#2100002000006227
(1467827522.093426) can0 620#1000FFFF90580080
(1467827522.136155) can0 442#4302000001000000
(1467827522.236731) can0 443#4002002F06000000
(1467827522.261717) can0 389#0000000000000000
(1467827522.321741) can0 38F#0100000000000000
(1467827522.337265) can0 440#4202001101000000
(1467827522.393202) can0 620#1000FFFF90580080
(1467827522.411641) can0 434#3F00000000000000
(1467827522.436005) can0 442#4302000001000000
(1467827522.441627) can0 435#0F0505FFE00FE003
(1467827522.471627) can0 436#0000000000000000
(1467827522.501597) can0 437#FCFFFFFFFFFFFFFF
(1467827522.536555) can0 443#4002002F06000000
(1467827522.564940) can0 610#2000006480FFFD60
(1467827522.637030) can0 440#4202001101000000
(1467827522.693001) can0 620#1000FFFF90580080
(1467827522.735853) can0 442#4302000001000000
(1467827522.836404) can0 443#4002002F06000000
(1467827522.936889) can0 440#4202001101000000
(1467827522.976826) can0 621#1100000000000000
(1467827522.985804) can0 622#1200000000000000
(1467827522.994800) can0 623#1900000000000000
(1467827523.003796) can0 620#1000FFFF90580080
(1467827523.012853) can0 624#1A00414949400000
(1467827523.021806) can0 626#1C00300000000000
(1467827523.030782) can0 638#1300180100000000
(1467827523.035737) can0 442#4302000001000000
(1467827523.039811) can0 63C#98005A5245172060
(1467827523.048750) can0 63D#9900444558534B00
(1467827523.057798) can0 680#D800010000000000
(1467827523.062666) can0 610#2000006480FFFD60
(1467827523.077659) can0 611#2100002000006227
(1467827523.136255) can0 443#4002002F06000000
(1467827523.236630) can0 440#4202001101000000
(1467827523.261217) can0 389#0000000000000000
(1467827523.292576) can0 620#1000FFFF90580080
(1467827523.321203) can0 38F#0100000000000000
(1467827523.335529) can0 442#4302000001000000
(1467827523.411143) can0 434#3F00000000000000
(1467827523.436104) can0 443#4002002F06000000
(1467827523.441127) can0 435#0F0505FFE00FE003
(1467827523.471128) can0 436#0000000000000000
(1467827523.501097) can0 437#FCFFFFFFFFFFFFFF
(1467827523.536405) can0 440#4202001101000000
(1467827523.563416) can0 610#2000006480FFFD60
(1467827523.592401) can0 620#1000FFFF90580080
(1467827523.635380) can0 442#4302000001000000
(1467827523.735968) can0 443#4002002F06000000
(1467827523.836244) can0 440#4202001101000000
(1467827523.892176) can0 620#1000FFFF90580080
(1467827523.935205) can0 442#4302000001000000
(1467827523.976109) can0 621#1100000000000000
(1467827523.985112) can0 622#1200000000000000
(1467827523.994099) can0 623#1900000000000000
(1467827524.003096) can0 624#1A00414949400000
(1467827524.012089) can0 626#1C00300000000000
(1467827524.021086) can0 638#1300180100000000
(1467827524.030056) can0 63C#98005A5245172060
(1467827524.035860) can0 443#4002002F06000000
(1467827524.039109) can0 63D#9900444558534B00
(1467827524.048076) can0 680#D800010000000000
(1467827524.064139) can0 610#2000006480FFFD60
(1467827524.076190) can0 611#2100002000006227
(1467827524.136021) can0 440#4202001101000000
(1467827524.191977) can0 620#1000FFFF90580080
(1467827524.235055) can0 442#4302000001000000
(1467827524.260717) can0 389#0000000000000000
(1467827524.320687) can0 38F#0100000000000000
(1467827524.335655) can0 443#4002002F06000000
(1467827524.410643) can0 434#3F00000000000000
(1467827524.435828) can0 440#4202001101000000
(1467827524.440602) can0 435#0F0505FFE00FE003
(1467827524.470628) can0 436#0000000000000000
(1467827524.491801) can0 620#1000FFFF90580080
(1467827524.500597) can0 437#FCFFFFFFFFFFFFFF
(1467827524.534905) can0 442#4302000001000000
(1467827524.561891) can0 610#2000006480FFFD60
(1467827524.635506) can0 443#4002002F06000000
(1467827524.735582) can0 440#4202001101000000
(1467827524.791607) can0 620#1000FFFF90580080
(1467827524.834764) can0 442#4302000001000000
(1467827524.935355) can0 443#4002002F06000000
(1467827524.975434) can0 621#1100000000000000
(1467827524.984429) can0 622#1200000000000000
(1467827524.993466) can0 623#1900000000000000
(1467827525.002455) can0 624#1A00414949400000
(1467827525.011447) can0 626#1C00300000000000
(1467827525.020444) can0 638#1300180100000000
(1467827525.029401) can0 63C#98005A5245172060
(1467827525.035386) can0 440#4202001101000000
(1467827525.038357) can0 63D#9900444558534B00
(1467827525.047380) can0 680#D800010000000000
(1467827525.062623) can0 610#2000006480FFFD60
(1467827525.074617) can0 611#2100002000006227
(1467827525.091358) can0 620#1000FFFF90580080
(1467827525.134587) can0 442#4302000001000000
(1467827525.235210) can0 443#4002002F06000000
(1467827525.260224) can0 389#0000000000000000
(1467827525.320163) can0 38F#0100000000000000
(1467827525.335154) can0 440#4202001101000000
(1467827525.391128) can0 620#1000FFFF90580080
(1467827525.410143) can0 434#3F00000000000000
(1467827525.434430) can0 442#4302000001000000
(1467827525.440103) can0 435#0F0505FFE00FE003
(1467827525.470087) can0 436#0000000000000000
(1467827525.500077) can0 437#FCFFFFFFFFFFFFFF
(1467827525.535062) can0 443#4002002F06000000
(1467827525.563371) can0 610#2000006480FFFD60
(1467827525.634929) can0 440#4202001101000000
(1467827525.690936) can0 620#1000FFFF90580080
(1467827525.734278) can0 442#4302000001000000
(1467827525.834902) can0 443#4002002F06000000
(1467827525.934754) can0 440#4202001101000000
(1467827525.974734) can0 621#1100000000000000
(1467827525.983727) can0 622#1200000000000000
(1467827525.992723) can0 623#1900000000000000
(1467827526.001720) can0 620#1000FFFF90580080
(1467827526.010700) can0 624#1A00414949400000
(1467827526.019684) can0 626#1C00300000000000
(1467827526.028680) can0 638#1300180100000000
(1467827526.034155) can0 442#4302000001000000
(1467827526.037726) can0 63C#98005A5245172060
(1467827526.046651) can0 63D#9900444558534B00
(1467827526.055667) can0 680#D800010000000000
(1467827526.061089) can0 610#2000006480FFFD60
(1467827526.076082) can0 611#2100002000006227
(1467827526.134754) can0 443#4002002F06000000
(1467827526.234529) can0 440#4202001101000000
(1467827526.259689) can0 389#0000000000000000
(1467827526.290524) can0 620#1000FFFF90580080
(1467827526.319708) can0 38F#0100000000000000
(1467827526.333963) can0 442#4302000001000000
(1467827526.409616) can0 434#3F00000000000000
(1467827526.434603) can0 443#4002002F06000000
(1467827526.439615) can0 435#0F0505FFE00FE003
(1467827526.469588) can0 436#0000000000000000
(1467827526.499572) can0 437#FCFFFFFFFFFFFFFF
(1467827526.534355) can0 440#4202001101000000
(1467827526.561839) can0 610#2000006480FFFD60
(1467827526.590302) can0 620#1000FFFF90580080
(1467827526.633806) can0 442#4302000001000000
(1467827526.734455) can0 443#4012002F06000000
(1467827526.750197) can0 620#1080FFFF80580080
(1467827526.834131) can0 440#4212001101000000
(1467827526.933646) can0 442#4312000001000000
(1467827526.974035) can0 621#1100000000000000
(1467827526.983031) can0 622#1200000000000000
(1467827526.992056) can0 623#1900000000000000
(1467827527.001021) can0 624#1A00414949400000
(1467827527.010033) can0 626#1C00300000000000
(1467827527.019012) can0 638#1300180100000000
(1467827527.027982) can0 63C#98005A5245172060
(1467827527.034370) can0 443#4032002F06000000
(1467827527.037032) can0 63D#9900444558534B00
(1467827527.046027) can0 680#D800010000000000
(1467827527.709503) can0 440#40008011010F0F0F
(1467827527.714939) can0 443#4300802F060F0F0F
(1467827527.722210) can0 442#42008000010F0F0F
(1467827527.809441) can0 440#4001801101000000
(1467827527.809688) can0 620#1080FFFF80180080
(1467827527.814915) can0 443#4301802F06000000
(1467827527.824161) can0 442#4201800001000000
(1467827527.903375) can0 440#4212001101000000
(1467827528.001071) can0 442#4302000001000000
(1467827528.033321) can0 621#1100000000000000
(1467827528.042314) can0 622#1200000000000000
(1467827528.043072) can0 610#2000006480FFFD60
(1467827528.051295) can0 623#1900000000000000
(1467827528.055043) can0 611#2100002000006227
(1467827528.060266) can0 624#1A00414949400000
(1467827528.069344) can0 626#1C00300000000000
(1467827528.078339) can0 638#1300180100000000
(1467827528.087307) can0 63C#98005A5245172060
(1467827528.096261) can0 63D#9900444558534B00
(1467827528.098747) can0 443#4012002F06000000
(1467827528.105268) can0 680#D800010000000000
(1467827528.114239) can0 620#1000FFFF80180080
(1467827528.198174) can0 440#4212001101000000
(1467827528.291926) can0 442#4302000001000000
(1467827528.388615) can0 443#4012002F06000000
(1467827528.409042) can0 620#1000FFFF80180080
(1467827528.488975) can0 440#4212001101000000
(1467827528.540802) can0 610#2000006480FFFD60
(1467827528.591776) can0 442#4302000001000000
(1467827528.688453) can0 443#4012002F06000000
(1467827528.708842) can0 620#1000FFFF80180080
(1467827528.788765) can0 440#4212001101000000
(1467827528.891621) can0 442#4302000001000000
(1467827528.988316) can0 443#4012002F06000000
(1467827529.008655) can0 620#1000FFFF80180080
(1467827529.032605) can0 621#1100000000000000
(1467827529.041552) can0 610#2000006480FFFD60
(1467827529.041797) can0 622#1200000000000000
(1467827529.050596) can0 623#1900000000000000
(1467827529.053542) can0 611#2100002000006227
(1467827529.059592) can0 624#1A00414949400000
(1467827529.068587) can0 626#1C00300000000000
(1467827529.077582) can0 638#1300180100000000
(1467827529.086558) can0 63C#98005A5245172060
(1467827529.088574) can0 440#4212001101000000
(1467827529.095549) can0 63D#9900444558534B00
(1467827529.104569) can0 680#D800010000000000
(1467827529.191451) can0 442#4302000001000000
(1467827529.288154) can0 443#4012002F06000000
(1467827529.308415) can0 620#1000FFFF80180080
(1467827529.388351) can0 440#4212001101000000
(1467827529.491301) can0 442#4302000001000000
(1467827529.542275) can0 610#2000006480FFFD60
(1467827529.588003) can0 443#4012002F06000000
(1467827529.608242) can0 620#1000FFFF80180080
(1467827529.688128) can0 440#4212001101000000
(1467827529.791149) can0 442#4302000001000000
(1467827529.887864) can0 443#4012002F06000000
(1467827529.907993) can0 620#1000FFFF80180080
(1467827529.987928) can0 440#4212001101000000
(1467827530.031907) can0 621#1100000000000000
(1467827530.040086) can0 610#2000006480FFFD60
(1467827530.040979) can0 622#1200000000000000
(1467827530.049915) can0 623#1900000000000000
(1467827530.052019) can0 611#2100002000006227
(1467827530.058892) can0 624#1A00414949400000
(1467827530.067887) can0 626#1C00300000000000
(1467827530.076883) can0 638#1300180100000000
(1467827530.082005) can0 442#4302000001000000
(1467827530.085853) can0 63C#98005A5245172060
(1467827530.094855) can0 63D#9900444558534B00
(1467827530.103870) can0 680#D800010000000000
(1467827530.182706) can0 443#4012002F06000000
(1467827530.207817) can0 620#1000FFFF80180080
(1467827530.281732) can0 440#4212001101000000
(1467827530.381874) can0 442#4302000001000000
(1467827530.482555) can0 443#4012002F06000000
(1467827530.507593) can0 620#1000FFFF80180080
(1467827530.540776) can0 610#2000006480FFFD60
(1467827530.581556) can0 440#4212001101000000
(1467827530.681720) can0 442#4302000001000000
(1467827530.782411) can0 443#4012002F06000000
(1467827530.807368) can0 620#1000FFFF80180080
(1467827530.881307) can0 440#4212001101000000
(1467827530.981555) can0 442#4302000001000000
(1467827531.031231) can0 621#1100000000000000
(1467827531.040226) can0 622#1200000000000000
(1467827531.041523) can0 610#2000006480FFFD60
(1467827531.049197) can0 623#1900000000000000
(1467827531.053525) can0 611#2100002000006227
(1467827531.058191) can0 624#1A00414949400000
(1467827531.067187) can0 626#1C00300000000000
(1467827531.076182) can0 638#1300180100000000
(1467827531.082255) can0 443#4012002F06000000
(1467827531.085203) can0 63C#98005A5245172060
(1467827531.094150) can0 63D#9900444558534B00
(1467827531.103169) can0 680#D800010000000000
(1467827531.112166) can0 620#1000FFFF80180080
(1467827531.181106) can0 440#4212001101000000
(1467827531.281406) can0 442#4302000001000000
(1467827531.382119) can0 443#4012002F06000000
(1467827531.406968) can0 620#1000FFFF80180080
(1467827531.480906) can0 440#4212001101000000
(1467827531.539277) can0 610#2000006480FFFD60
(1467827531.581261) can0 442#4302000001000000
(1467827531.681956) can0 443#4012002F06000000
(1467827531.706768) can0 620#1000FFFF80180080
(1467827531.780681) can0 440#4212001101000000
(1467827531.881031) can0 442#4302000001000000
(1467827531.981787) can0 443#4012002F06000000
(1467827532.006543) can0 620#1000FFFF80180080
(1467827532.030571) can0 621#1100000000000000
(1467827532.039525) can0 622#1200000000000000
(1467827532.040080) can0 610#2000006480FFFD60
(1467827532.048523) can0 623#1900000000000000
(1467827532.051935) can0 611#2100002000006227
(1467827532.057577) can0 624#1A00414949400000
(1467827532.066538) can0 626#1C00300000000000
(1467827532.075545) can0 638#1300180100000000
(1467827532.080542) can0 440#4212001101000000
(1467827532.084564) can0 63C#98005A5245172060
(1467827532.093472) can0 63D#9900444558534B00
(1467827532.102502) can0 680#D800010000000000
(1467827532.180888) can0 442#4302000001000000
(1467827532.281638) can0 443#4012002F06000000
(1467827532.306365) can0 620#1000FFFF80180080
(1467827532.380304) can0 440#4212001101000000
(1467827532.480731) can0 442#4302000001000000
(1467827532.540701) can0 610#2000006480FFFD60
(1467827532.581497) can0 443#4012002F06000000
(1467827532.606119) can0 620#1000FFFF80180080
(1467827532.680062) can0 440#4212001101000000
