(1469304372.621816) can0 440#40008011010F0F0F
(1469304372.628986) can0 442#42008000010F0F0F
(1469304372.721733) can0 440#4001801101000000
(1469304372.721954) can0 620#1080FFFF80500080
(1469304372.727879) can0 442#4201800001000000
(1469304372.815798) can0 440#4212001101000000
(1469304372.817984) can0 442#4002000001000000
(1469304372.915791) can0 440#4212001101000000
(1469304372.945750) can0 621#1100000000000000
(1469304372.949990) can0 610#2000006480FFFD60
(1469304372.954792) can0 622#1200481000000000
(1469304372.961990) can0 611#21000020000062D4
(1469304372.963795) can0 623#1900000000000000
(1469304372.972792) can0 624#1A00414949400000
(1469304372.981762) can0 626#1C00300000000000
(1469304372.990792) can0 638#1300180100000000
(1469304372.999790) can0 63C#98005A5245172060
(1469304373.008767) can0 63D#9900444558534B00
(1469304373.017794) can0 680#D800010000000000
(1469304373.018991) can0 442#4002000001000000
(1469304373.026767) can0 620#1000FFFF80500080
(1469304373.121743) can0 440#4202001101000000
(1469304373.121948) can0 620#1080FFFF90500080
(1469304373.136001) can0 618#2200000080000000
(1469304373.145413) can0 443#4300802F060F0F0F
(1469304373.150991) can0 619#230000000C003A80
(1469304373.162991) can0 61A#2400000000014F60
(1469304373.174990) can0 61C#2600000000000000
(1469304373.190741) can0 6E1#A100030000F00000
(1469304373.190825) can0 020#0000072B
(1469304373.198992) can0 640#A800000001320000
(1469304373.199721) can0 6E2#A200CCFEFEFEFEFE
(1469304373.202860) can0 020#0000072B
(1469304373.203066) can0 0B4#0000000002008745
(1469304373.203310) can0 223#0008000000000035
(1469304373.203565) can0 420#0000000000008AB6
(1469304373.214911) can0 020#0000072B
(1469304373.214994) can0 0BA#06008044
(1469304373.215355) can0 224#0000000000000048
(1469304373.215558) can0 4C3#0300000100000000
(1469304373.216976) can0 442#4002000001000000
(1469304373.221181) can0 0AA#1A6F1A6F1A6F1A6F
(1469304373.221358) can0 1AA#0000000000B1
(1469304373.226948) can0 020#0000072B
(1469304373.227228) can0 0B4#00000000020000BE
(1469304373.227529) can0 223#0008000000000035
(1469304373.233208) can0 0AA#1A6F1A6F1A6F1A6F
(1469304373.239126) can0 020#0000072B
(1469304373.239233) can0 0BA#06008044
(1469304373.239514) can0 224#0000000000000048
(1469304373.245215) can0 0AA#1A6F1A6F1A6F1A6F
(1469304373.245399) can0 443#4301802F06000000
(1469304373.251160) can0 020#0000072B
(1469304373.251383) can0 0B4#00000000020000BE
(1469304373.251666) can0 223#0008000000000035
(1469304373.257238) can0 0AA#1A6F1A6F1A6F1A6F
(1469304373.258739) can0 263#0000000001006D
(1469304373.259815) can0 1C4#0000000000003E0B
(1469304373.263182) can0 020#0000072B
(1469304373.263295) can0 0BA#06008044
(1469304373.263641) can0 224#0000000000000048
(1469304373.267855) can0 354#00
(1469304373.268856) can0 1C8#00
(1469304373.269279) can0 0AA#1A6F1A6F1A6F1A6F
(1469304373.269525) can0 1AA#0000000000B1
(1469304373.275235) can0 020#0000072B
(1469304373.275475) can0 0B4#00000000020000BE
(1469304373.275700) can0 223#0008000000000035
(1469304373.277213) can0 1D0#00000100000000DA
(1469304373.278214) can0 2C1#08FFD412A1BE0017
(1469304373.278512) can0 3F9#5198260100000014
(1469304373.281340) can0 0AA#1A6F1A6F1A6F1A6F
(1469304373.283362) can0 263#00000000AF001B
(1469304373.284429) can0 1C4#000029000000FFF5
(1469304373.285252) can0 1C8#00
(1469304373.287274) can0 020#0000072B
(1469304373.287386) can0 0BA#06008044
(1469304373.287662) can0 224#0000000000000048
(1469304373.288527) can0 4C1#0100000500000000
(1469304373.290704) can0 620#1080FFFFA0500080
(1469304373.293405) can0 0AA#1A6F1A6F1A6F1A6F
(1469304373.293620) can0 361#00A0000700000000
(1469304373.295670) can0 3BC#0020000000000000
(1469304373.296624) can0 3BB#8000AF00
(1469304373.297725) can0 399#00000000000000
(1469304373.298592) can0 3D0#00
(1469304373.299338) can0 020#0000072B
(1469304373.299621) can0 0B4#00000000020000BE
(1469304373.299817) can0 223#0008000000000035
(1469304373.301693) can0 1C8#00
(1469304373.302777) can0 38A#1C04000000
(1469304373.305456) can0 0AA#1A6F1A6F1A6F1A6F
(1469304373.307979) can0 263#00000000AF001B
(1469304373.309059) can0 1C4#000029000000FFF5
(1469304373.310053) can0 1D0#0000010000AC0086
(1469304373.311028) can0 2C1#08FFD412A1BE0017
(1469304373.311396) can0 020#0000072B
(1469304373.311468) can0 0BA#06008044
(1469304373.311831) can0 224#0000000000000048
(1469304373.315706) can0 440#4202001101000000
(1469304373.317528) can0 0AA#1A6F1A6F1A6F1A6F
(1469304373.317640) can0 1AA#0000000000B1
(1469304373.318090) can0 1C8#00
(1469304373.323427) can0 020#0000072B
(1469304373.323655) can0 0B4#00000000020000BE
(1469304373.323933) can0 223#0008000000000035
(1469304373.329531) can0 0AA#1A6F1A6F1A6F1A6F
(1469304373.332580) can0 263#00000000AF001B
(1469304373.333652) can0 1C4#000029000000FFF5
(1469304373.334519) can0 1C8#00
(1469304373.335437) can0 020#0000072B
(1469304373.335603) can0 0BA#06008044
(1469304373.335828) can0 224#0000000000000048
(1469304373.340932) can0 260#0E00000000000078
(1469304373.341554) can0 0AA#1A6F1A6F1A6F1A6F
(1469304373.342877) can0 1D0#0000010000AC0086
(1469304373.343861) can0 2C1#08FFDD12A1BE0020
(1469304373.345772) can0 351#00000000
(1469304373.347525) can0 020#0000072B
(1469304373.347744) can0 0B4#00000000020000BE
(1469304373.348026) can0 223#0008000000000035
(1469304373.348326) can0 025#000000027000009F
(1469304373.350877) can0 262#000000016A
(1469304373.350890) can0 1C8#00
(1469304373.353634) can0 0AA#1A6F1A6F1A6F1A6F
(1469304373.355831) can0 4C8#0900000000000000
(1469304373.357202) can0 263#00000000AF001B
(1469304373.358255) can0 1C4#000029000000FFF5
(1469304373.359281) can0 361#00A0000700000000
(1469304373.359563) can0 020#0000072B
(1469304373.359684) can0 0BA#06008044
(1469304373.359982) can0 224#0000000000000048
(1469304373.360296) can0 025#000000027000009F
(1469304373.360957) can0 260#0E00000000000078
(1469304373.363540) can0 4C6#0700030000000000
(1469304373.365634) can0 0AA#1A6F1A6F1A6F1A6F
(1469304373.365804) can0 1AA#0000000000B1
(1469304373.365889) can0 394#4300
(1469304373.367323) can0 1C8#00
(1469304373.368301) can0 423#00
(1469304373.371608) can0 020#0000072B
(1469304373.371805) can0 0B4#00000000020000BE
(1469304373.372059) can0 223#0008000000000035
(1469304373.372315) can0 025#000000027000009F
(1469304373.375695) can0 1D0#0000010000AC0086
(1469304373.376648) can0 2C1#08FFDD12A1BE0020
(1469304373.377712) can0 0AA#1A6F1A6F1A6F1A6F
(1469304373.380936) can0 260#0E00000000000078
(1469304373.381833) can0 263#00000000AF001B
(1469304373.382883) can0 1C4#000029000000FFF5
(1469304373.383631) can0 020#0000072B
(1469304373.383725) can0 0BA#06008044
(1469304373.383800) can0 1C8#00
(1469304373.384175) can0 224#0000000000000048
(1469304373.384357) can0 025#000000027000009F
(1469304373.389711) can0 0AA#1A6F1A6F1A6F1A6F
(1469304373.390806) can0 262#000000016A
(1469304373.395657) can0 020#0000072B
(1469304373.395888) can0 0B4#00000000020000BE
(1469304373.396135) can0 223#0008000000000035
(1469304373.396432) can0 025#000000027000009F
(1469304373.400152) can0 1C8#00
(1469304373.400935) can0 260#0E00000000000078
(1469304373.401784) can0 0AA#1A6F1A6F1A6F1A6F
(1469304373.405731) can0 351#00000000
(1469304373.406382) can0 263#00000000AF001B
(1469304373.407496) can0 1C4#000029000000FFF5
(1469304373.407683) can0 020#0000072B
(1469304373.407844) can0 0BA#06008044
(1469304373.408099) can0 224#0000000000000048
(1469304373.408375) can0 025#000000027000009F
(1469304373.408584) can0 1D0#0000010000AC0086
(1469304373.409535) can0 2C1#08FFDD12A1BE0020
(1469304373.413814) can0 0AA#1A6F1A6F1A6F1A6F
(1469304373.413980) can0 1AA#0000000000B1
(1469304373.414211) can0 3B7#583B000000000008
(1469304373.416507) can0 1C8#00
(1469304373.417957) can0 442#4302000001000000
(1469304373.419759) can0 020#0000072B
(1469304373.419990) can0 0B4#00000000020000BE
(1469304373.420293) can0 025#000000027000009F
(1469304373.420483) can0 223#0008000000000035
(1469304373.420930) can0 260#0E00000000000078
(1469304373.424912) can0 361#00A0000700000000
(1469304373.425815) can0 0AA#1A6F1A6F1A6F1A6F
(1469304373.430782) can0 262#000000016A
(1469304373.431014) can0 263#00000000AF001B
(1469304373.431806) can0 020#0000072B
(1469304373.431899) can0 0BA#06008044
(1469304373.432243) can0 025#000000027000009F
(1469304373.432486) can0 1C4#000029000000FFF5
(1469304373.432676) can0 224#0000000000000048
(1469304373.432922) can0 1C8#00
(1469304373.437852) can0 0AA#1A6F1A6F1A6F1A6F
(1469304373.440863) can0 260#0E00000000000078
(1469304373.441334) can0 1D0#0000010000AC0086
(1469304373.442336) can0 2C1#08FFDD12A1BE0020
(1469304373.443855) can0 020#0000072B
(1469304373.444084) can0 0B4#00000000020000BE
(1469304373.444385) can0 025#000000027000009F
(1469304373.444557) can0 223#0008000000000035
(1469304373.449333) can0 1C8#00
(1469304373.449984) can0 0AA#1A6F1A6F1A6F1A6F
(1469304373.450959) can0 610#2080006480FFFD60
(1469304373.455669) can0 263#00000000AF001B
(1469304373.455855) can0 020#0000072B
(1469304373.456047) can0 0BA#06008044
(1469304373.456304) can0 025#000000027000009F
(1469304373.456533) can0 224#0000000000000048
(1469304373.456787) can0 1C4#000029000000FFF5
(1469304373.460865) can0 260#0E00000000000078
(1469304373.462099) can0 0AA#1A6F1A6F1A6F1A6F
(1469304373.462275) can0 1AA#0000000000B1
(1469304373.462898) can0 611#21800020000062D4
(1469304373.465680) can0 351#00000000
(1469304373.465709) can0 1C8#00
(1469304373.468076) can0 020#0000072B
(1469304373.468381) can0 0B4#00000000020000BE
(1469304373.468523) can0 223#0008000000000035
(1469304373.469235) can0 025#000000027000009F
(1469304373.470829) can0 262#000000016A
(1469304373.472978) can0 354#07
(1469304373.474160) can0 1D0#0000010000AC0086
(1469304373.474300) can0 0AA#1A6F1A6F1A6F1A6F
(1469304373.474983) can0 618#2280000080000000
(1469304373.475165) can0 2C1#08FFDD12A1BE0020
(1469304373.480131) can0 020#0000072B
(1469304373.480215) can0 0BA#06008044
(1469304373.480563) can0 224#0000000000000048
(1469304373.480765) can0 260#0E00000000000078
(1469304373.481043) can0 263#00000000AF001B
(1469304373.481245) can0 025#000000027000009F
(1469304373.481534) can0 1C4#000029000000FFF5
(1469304373.482198) can0 1C8#00
(1469304373.486194) can0 0AA#1A6F1A6F1A6F1A6F
(1469304373.486959) can0 619#238000000C003A80
(1469304373.490586) can0 361#00A0000700000000
(1469304373.492209) can0 020#0000072B
(1469304373.492417) can0 0B4#00000000020000BE
(1469304373.492709) can0 223#0008000000000035
(1469304373.493208) can0 025#000000027000009F
(1469304373.498285) can0 0AA#1A6F1A6F1A6F1A6F
(1469304373.498588) can0 1C8#00
(1469304373.498972) can0 61A#2480000000014F60
(1469304373.500836) can0 260#0E00000000000078
(1469304373.504210) can0 020#0000072B
(1469304373.504293) can0 0BA#06008044
(1469304373.504613) can0 224#0000000000000048
(1469304373.504857) can0 263#00000000AF001B
(1469304373.505080) can0 025#000000027000009F
(1469304373.505881) can0 1C4#00CD29000000FFC2
(1469304373.506983) can0 1D0#0000010000AC0086
(1469304373.507958) can0 2C1#08FFDD12A1BE0020
(1469304373.510308) can0 0AA#1A6F1A6F1A6F1A6F
(1469304373.510450) can0 1AA#0000000000B1
(1469304373.510801) can0 262#000000016A
(1469304373.511010) can0 61C#2680000000000000
(1469304373.515052) can0 1C8#00
(1469304373.515398) can0 443#4002002F06000000
(1469304373.515787) can0 383#0100010000000000
(1469304373.516108) can0 381#0000000080000000
(1469304373.516211) can0 020#0000072B
(1469304373.516537) can0 0B4#00000000020000BE
(1469304373.516707) can0 223#0008000000000035
(1469304373.516962) can0 4DC#1D00000200000000
(1469304373.517216) can0 025#000000027000009F
(1469304373.520862) can0 260#0E00000000000078
(1469304373.522332) can0 0AA#1A6F1A6F1A6F1A6F
(1469304373.525658) can0 351#00000000
(1469304373.528280) can0 020#0000072B
(1469304373.528373) can0 0BA#06008044
(1469304373.528664) can0 224#0000000000000048
(1469304373.529069) can0 025#000000027000009F
(1469304373.529530) can0 263#00000000AF001B
(1469304373.530562) can0 1C4#00F029000000FFE5
(1469304373.531449) can0 1C8#00
(1469304373.534385) can0 0AA#1A6F1A6F1A6F1A6F
(1469304373.534621) can0 3F9#5198260100000014
(1469304373.539811) can0 1D0#0000010000AC0086
(1469304373.540327) can0 020#0000072B
(1469304373.540534) can0 0B4#00000000020000BE
(1469304373.540787) can0 223#0008000000000035
(1469304373.541036) can0 260#0E00000000000078
(1469304373.541336) can0 025#000000027000009F
(1469304373.541508) can0 2C1#08056A12A1EB00E0
(1469304373.546410) can0 0AA#1A6F1A6F1A6F1A6F
(1469304373.547852) can0 1C8#00
(1469304373.550705) can0 262#000000016A
(1469304373.552341) can0 020#0000072B
(1469304373.552483) can0 0BA#06008044
(1469304373.552705) can0 224#0000000000000048
(1469304373.553101) can0 025#000000027000009F
(1469304373.554133) can0 263#00000000AF001B
(1469304373.555159) can0 1C4#015729000000FF4D
(1469304373.555390) can0 387#0000000000003F3F
(1469304373.555461) can0 3D0#00
(1469304373.556226) can0 361#00A0000000000000
(1469304373.558435) can0 0AA#1A6F1A6F1A6F1A6F
(1469304373.558580) can0 1AA#0000000000B1
(1469304373.560786) can0 260#0E00000000000078
(1469304373.564276) can0 1C8#00
(1469304373.564369) can0 020#0000072B
(1469304373.564707) can0 0B4#00000000020000BE
(1469304373.564907) can0 223#0008000000000035
(1469304373.565159) can0 025#000000027000009F
(1469304373.570533) can0 0AA#1A6F1A6F1A6F1A6F
(1469304373.572614) can0 1D0#0000010000AC0086
(1469304373.573582) can0 2C1#08056C12A3EB00E4
(1469304373.575108) can0 4DD#1E00000000000000
(1469304373.576405) can0 020#0000072B
(1469304373.576500) can0 0BA#06008044
(1469304373.576851) can0 224#0000000000000048
(1469304373.577024) can0 025#000000027000009F
(1469304373.578716) can0 263#00000000AF001B
(1469304373.579735) can0 1C4#015329000000FF49
(1469304373.580676) can0 1C8#00
(1469304373.580905) can0 260#0E00000000000078
(1469304373.582533) can0 0AA#1A6F1A6F1A6F1A6F
(1469304373.585420) can0 389#0000000000000000
(1469304373.585559) can0 351#00000000
(1469304373.588529) can0 020#0000072B
(1469304373.588676) can0 0B4#00000000020000BE
(1469304373.588930) can0 223#0008000000000035
(1469304373.589180) can0 025#000000027000009F
(1469304373.590659) can0 620#1000FFFFA0500080
(1469304373.590803) can0 262#000000016A
(1469304373.594563) can0 0AA#1A6F1A6F1A6F1A6F
(1469304373.595111) can0 024#5E0009FF4A088064
(1469304373.597079) can0 1C8#00
(1469304373.600528) can0 020#0000072B
(1469304373.600558) can0 0BA#06008044
(1469304373.600918) can0 224#0000000000000048
(1469304373.601118) can0 025#000000027000009F
(1469304373.601372) can0 260#0E00000000000078
(1469304373.603358) can0 263#00000000AF001B
(1469304373.604410) can0 1C4#014829000000FF3E
(1469304373.605435) can0 1D0#0000010000AC0086
(1469304373.606359) can0 2C1#08056C12A3EB00E4
(1469304373.606559) can0 0AA#1A6F1A6F1A6F1A6F
(1469304373.606781) can0 1AA#0000000000B1
(1469304373.607030) can0 024#5E0009FD4A088062
(1469304373.612531) can0 020#0000072B
(1469304373.612726) can0 0B4#00000000020000BE
(1469304373.612981) can0 223#0008000000000035
(1469304373.613225) can0 025#000000027000009F
(1469304373.613527) can0 1C8#00
(1469304373.615411) can0 38E#2020000000000000
(1469304373.615620) can0 440#4202001101000000
(1469304373.618635) can0 0AA#1A6F1A6F1A6F1A6F
(1469304373.619064) can0 024#5E0009FA4A08805F
(1469304373.620783) can0 260#0E00000000000078
(1469304373.621859) can0 361#00A0000000000000
(1469304373.624557) can0 020#0000072B
(1469304373.624651) can0 0BA#060000C4
(1469304373.624998) can0 224#0000000000000048
(1469304373.625198) can0 025#000000027000009F
(1469304373.627984) can0 263#00000000AF001B
(1469304373.628971) can0 1C4#015229000000FF48
(1469304373.629862) can0 1C8#00
(1469304373.630663) can0 0AA#1A6F1A6F1A6F1A6F
(1469304373.630758) can0 262#000000016A
(1469304373.631068) can0 024#5E0009F84A0A805F
(1469304373.636544) can0 020#0000072B
(1469304373.636841) can0 0B4#00000000020000BE
(1469304373.637031) can0 025#000000027000009F
(1469304373.637287) can0 223#0008000000000035
(1469304373.638259) can0 1D0#0031010000AC00B7
(1469304373.639195) can0 2C1#08056C12A3EB00E4
(1469304373.640808) can0 260#0E00000000000078
(1469304373.642641) can0 0AA#1A6F1A6F1A6F1A6F
(1469304373.643038) can0 024#5E0009FA4A0A8061
(1469304373.645335) can0 38F#0300000000000000
(1469304373.645531) can0 351#00000000
(1469304373.646212) can0 1C8#00
(1469304373.648511) can0 020#0000072B
(1469304373.648666) can0 0BA#060000C4
(1469304373.648939) can0 025#000000027000009F
(1469304373.649215) can0 224#0000000000000048
(1469304373.652528) can0 263#00000000AF001B
(1469304373.653634) can0 1C4#015F29000000FF55
(1469304373.654707) can0 0AA#1A6F1A6F1A6F1A6F
(1469304373.654854) can0 1AA#0000000000B1
(1469304373.655085) can0 024#5E0009FF4A088064
(1469304373.660652) can0 260#0E00000000000078
(1469304373.660794) can0 020#0000072B
(1469304373.661099) can0 0B4#00000000020000BE
(1469304373.661339) can0 223#0008000000000035
(1469304373.662061) can0 025#000000027000009F
(1469304373.662724) can0 1C8#00
(1469304373.665555) can0 394#4300
(1469304373.665785) can0 382#3838380000000000
(1469304373.666734) can0 0AA#1A6F1A6F1A6F1A6F
(1469304373.667109) can0 024#5E000A014A088067
(1469304373.670620) can0 262#000000016A
(1469304373.671059) can0 1D0#014E010000AC00D5
(1469304373.672039) can0 2C1#08056612A4EB00DF
(1469304373.672651) can0 020#0000072B
(1469304373.672741) can0 0BA#060000C4
(1469304373.673099) can0 224#0000000000000048
(1469304373.673240) can0 025#000000027000009F
(1469304373.675410) can0 3A5#0000000000007EFC
(1469304373.677211) can0 263#00000000AF001B
(1469304373.678233) can0 1C4#016129000000FF57
(1469304373.678262) can0 354#07
(1469304373.678759) can0 0AA#1A6F1A6F1A6F1A6F
(1469304373.679135) can0 024#5E000A014A088067
(1469304373.679153) can0 1C8#00
(1469304373.680766) can0 260#0E00000000000078
(1469304373.684679) can0 020#0000072B
(1469304373.684899) can0 0B4#00000000020000BE
(1469304373.685182) can0 025#00010002900000C0
(1469304373.685390) can0 223#0008000000000035
(1469304373.687532) can0 361#00A0000000000000
(1469304373.690783) can0 0AA#1A6F1A6F1A6F1A6F
(1469304373.691073) can0 024#5E0009FF4A0A8066
(1469304373.695531) can0 1C8#00
(1469304373.696729) can0 020#0000072B
(1469304373.696812) can0 0BA#060000C4
(1469304373.697147) can0 025#000000027000009F
(1469304373.697354) can0 224#0000000000000048
(1469304373.700735) can0 260#0E00000000000078
(1469304373.701832) can0 263#00000000AF001B
(1469304373.702810) can0 0AA#1A6F1A6F1A6F1A6F
(1469304373.702920) can0 1AA#0000000000B1
(1469304373.703257) can0 024#5E0009FB4A0A8062
(1469304373.703542) can0 1C4#016529000000FF5B
(1469304373.703888) can0 1D0#018B010000AC0012
(1469304373.704864) can0 2C1#08056612A4EB00DF
(1469304373.705414) can0 413#0101010900000000
(1469304373.705491) can0 351#00000000
(1469304373.708699) can0 020#0000072B
(1469304373.708990) can0 0B4#00000000020000BE
(1469304373.709197) can0 025#00010002900000C0
(1469304373.709539) can0 223#0008000000000035
(1469304373.710659) can0 262#000000016A
(1469304373.711961) can0 1C8#00
(1469304373.714840) can0 0AA#1A6F1A6F1A6F1A6F
(1469304373.715049) can0 3B7#583B000000000008
(1469304373.715327) can0 024#5E0009F84A0A805F
(1469304373.717965) can0 442#4302000001000000
(1469304373.720694) can0 260#0E00000000000078
(1469304373.720784) can0 020#0000072B
(1469304373.720977) can0 0BA#060000C4
(1469304373.721229) can0 224#0000000000000048
(1469304373.721640) can0 6E1#A180000000100000
(1469304373.721962) can0 025#000000027000009F
(1469304373.726440) can0 263#00000000AF001B
(1469304373.726864) can0 0AA#1A6F1A6F1A6F1A6F
(1469304373.727174) can0 024#5E0009F64A0A805D
(1469304373.727439) can0 1C4#016C29000000FF62
(1469304373.728360) can0 1C8#00
(1469304373.732836) can0 020#0000072B
(1469304373.733039) can0 0B4#00000000020000BE
(1469304373.733293) can0 223#0008000000000035
(1469304373.734013) can0 025#000000027000009F
(1469304373.735414) can0 434#3F00000000000000
(1469304373.736740) can0 1D0#01D7010000AC005E
(1469304373.737664) can0 2C1#08056612A4EB00DF
(1469304373.738939) can0 0AA#1A6F1A6F1A6F1A6F
(1469304373.739140) can0 024#5E0009FA4A0A8061
(1469304373.740706) can0 260#0E00000000000078
(1469304373.744756) can0 1C8#00
(1469304373.744888) can0 020#0000072B
(1469304373.745073) can0 0BA#060000C4
(1469304373.745317) can0 224#0000000000000048
(1469304373.745914) can0 025#000000027000009F
(1469304373.750610) can0 262#000000016A
(1469304373.751061) can0 263#00000000AF001B
(1469304373.751263) can0 024#5E0009FF4A0C8068
(1469304373.751492) can0 0AA#1A6F1A6F1A6F1A6F
(1469304373.751670) can0 1AA#0000000000B1
(1469304373.752086) can0 1C4#017E29000000FF74
(1469304373.753114) can0 361#00A0000000000000
(1469304373.757060) can0 020#0000072B
(1469304373.757260) can0 0B4#00000000020000BE
(1469304373.757498) can0 223#0008000000000035
(1469304373.757988) can0 025#000000027000009F
(1469304373.760716) can0 260#0E00000000000078
(1469304373.761178) can0 1C8#00
(1469304373.763165) can0 024#5E000A004A0C806A
(1469304373.763350) can0 0AA#1A6F1A6F1A6F1A6F
(1469304373.765418) can0 435#0F0505FFE00FE003
(1469304373.765484) can0 351#00000000
(1469304373.769114) can0 020#0000072B
(1469304373.769198) can0 0BA#060000C4
(1469304373.769549) can0 224#0000000000000048
(1469304373.769573) can0 3D3#00FD
(1469304373.769905) can0 025#000000027000009F
(1469304373.770107) can0 1D0#0204010000AC008C
(1469304373.770493) can0 2C1#08056412A5EB00DE
(1469304373.771624) can0 6E2#A28000FEFEFEFEFE
(1469304373.775165) can0 024#5E000A014A088067
(1469304373.775366) can0 0AA#1A6F1A6F1A6F1A6F
(1469304373.775597) can0 3B1#00000E0A00080000
(1469304373.775814) can0 263#00000000AF001B
(1469304373.776034) can0 4AC#0802200500000004
(1469304373.776613) can0 1C4#01EC29000000FFE2
(1469304373.777578) can0 1C8#00
(1469304373.780697) can0 260#0E00000000000078
(1469304373.781096) can0 020#0000072B
(1469304373.781387) can0 0B4#00000000020000BE
(1469304373.781590) can0 223#0008000000000035
(1469304373.781916) can0 025#000000027000009F
(1469304373.787120) can0 024#5E000A004A058063
(1469304373.787321) can0 0AA#1A6F1A6F1A6F1A6F
(1469304373.790586) can0 262#000000016A
(1469304373.791009) can0 3F9#5198260100000014
(1469304373.793157) can0 020#0000072B
(1469304373.793243) can0 0BA#060000C4
(1469304373.793588) can0 224#0000000000000048
(1469304373.793899) can0 025#000000027000009F
(1469304373.793915) can0 1C8#80
(1469304373.795415) can0 436#0000000000000000
(1469304373.799164) can0 024#5E0001FD42068050
(1469304373.799365) can0 0AA#1A6F1A6F1A6F1A6F
(1469304373.799551) can0 1AA#0000000000B1
(1469304373.800275) can0 263#00000000AF001B
(1469304373.800654) can0 260#0E00000000000078
(1469304373.801277) can0 1C4#037F29080000FF7F
(1469304373.802304) can0 1D0#0310010000AC0099
(1469304373.803304) can0 2C1#0805670A66EB009A
(1469304373.805176) can0 020#0000072B
(1469304373.805454) can0 0B4#00000000020000BE
(1469304373.805632) can0 223#000000000000002D
(1469304373.805860) can0 025#00010002900000C0
(1469304373.810394) can0 1C8#80
(1469304373.811155) can0 024#5E0001F8420A804F
(1469304373.811332) can0 0AA#1A6F1A6F1A6F1A6F
(1469304373.811455) can0 3D0#00
(1469304373.815381) can0 443#4002002F06000000
(1469304373.817225) can0 020#0000072B
(1469304373.817335) can0 0BA#060000C4
(1469304373.817608) can0 224#0000000000000048
(1469304373.817877) can0 025#000000027000009F
(1469304373.818754) can0 3B0#00B6000000000000
(1469304373.818973) can0 361#0054000000000000
(1469304373.820656) can0 260#0E00000000000078
(1469304373.823155) can0 024#5E0001F3420A804A
(1469304373.823332) can0 0AA#1A6F1A6F1A6F1A6F
(1469304373.824880) can0 263#00000000AF001B
(1469304373.825407) can0 437#FCFFFFFFFFFFFFFF
(1469304373.825474) can0 351#00000000
(1469304373.825906) can0 1C4#042229080000FF23
(1469304373.826794) can0 1C8#80
(1469304373.829215) can0 020#0000072B
(1469304373.829528) can0 0B4#00000000020000BE
(1469304373.829750) can0 223#000000000000002D
(1469304373.829977) can0 025#000000027000009F
(1469304373.830603) can0 262#000000016A
(1469304373.835155) can0 024#5E0001F3420A804A
(1469304373.835331) can0 0AA#1A6F1A6F1A6F1A6F
(1469304373.835587) can0 1D0#0544010000AC00CF
(1469304373.836484) can0 2C1#08050F0A6FE80048
(1469304373.840632) can0 260#0E00000000000078
(1469304373.841273) can0 020#0000072B
(1469304373.841381) can0 0BA#060000C4
(1469304373.841664) can0 224#0000000000000048
(1469304373.841938) can0 025#000000027000009F
(1469304373.843193) can0 1C8#80
(1469304373.847160) can0 024#5E0001FB420A8052
(1469304373.847337) can0 0AA#1A6F1A6F1A6F1A6F
(1469304373.847555) can0 1AA#0000000000B1
(1469304373.849537) can0 263#00000000AF001B
(1469304373.850538) can0 1C4#049529080000FF96
(1469304373.853328) can0 020#0000072B
(1469304373.853537) can0 0B4#00000000020000BE
(1469304373.853788) can0 025#00010002900000C0
(1469304373.854035) can0 223#000000000000002D
(1469304373.855357) can0 384#F0F000000000
(1469304373.859167) can0 024#5E000205420A805D
(1469304373.859434) can0 0AA#1A6F1A6F1A6F1A6F
(1469304373.859612) can0 1C8#80
(1469304373.860611) can0 260#0E00000000000078
(1469304373.865432) can0 020#0000072B
(1469304373.865507) can0 0BA#060000C4
(1469304373.865856) can0 224#0000000000000048
(1469304373.866059) can0 025#00010002900000C0
(1469304373.866765) can0 380#0000000000008000
(1469304373.867993) can0 1D0#0792010000AC001F
(1469304373.868943) can0 2C1#0804740A4EE30086
(1469304373.870560) can0 262#000000016A
(1469304373.871161) can0 024#5E0002084208805E
(1469304373.871547) can0 0AA#1A6F1A6F1A6F1A6F
(1469304373.874109) can0 263#00000000AF001B
(1469304373.875134) can0 1C4#04D729080000FFD8
(1469304373.876026) can0 1C8#80
(1469304373.877453) can0 020#0000072B
(1469304373.877668) can0 0B4#00000000020000BE
(1469304373.877918) can0 025#00010002900000C0
(1469304373.878162) can0 223#000000000000002D
(1469304373.880638) can0 260#0E00000000000078
(1469304373.883162) can0 024#5E00020342068057
(1469304373.883176) can0 354#01
(1469304373.883486) can0 0AA#1A6F1A6F1A6F1A6F
(1469304373.884381) can0 361#0050000000000000
(1469304373.884733) can0 3A0#008F000000000071
(1469304373.885356) can0 386#000000070003
(1469304373.885474) can0 351#00000000
(1469304373.889492) can0 020#0000072B
(1469304373.889580) can0 0BA#060000C4
(1469304373.889923) can0 224#0000000000000048
(1469304373.890133) can0 025#00010002900000C0
(1469304373.890573) can0 620#1000FFFFA0500080
(1469304373.892410) can0 1C8#80
(1469304373.895119) can0 024#5E0001FB42088050
(1469304373.895587) can0 0AA#1A6F1A6F1A6F1A6F
(1469304373.895757) can0 1AA#0000000000B1
(1469304373.898731) can0 263#00000000AF001B
(1469304373.899761) can0 1C4#050129080000FF03
(1469304373.900604) can0 260#0E00000000000078
(1469304373.900816) can0 1D0#0930010000AC00BF
(1469304373.901524) can0 020#0000072B
(1469304373.901720) can0 0B4#00000000020000BE
(1469304373.901959) can0 025#000000027000009F
(1469304373.902189) can0 223#000000000000002D
(1469304373.902461) can0 2C1#08043009FCE100ED
(1469304373.907160) can0 024#560001F4420A8043
(1469304373.907613) can0 0AA#1A6F1A6F1A6F1A6F
(1469304373.908855) can0 1C8#80
(1469304373.910532) can0 262#000000016A
(1469304373.913534) can0 020#0000072B
(1469304373.913629) can0 0BA#060000C4
(1469304373.913918) can0 025#00010002900000C0
(1469304373.914169) can0 224#0000000000000008
(1469304373.915357) can0 3E6#0000000000
(1469304373.915558) can0 440#4202001101000000
(1469304373.919169) can0 024#560001EF4206803A
(1469304373.919679) can0 0AA#1A6F1A6F1A6F1A6F
(1469304373.920588) can0 260#0E00000000000078
(1469304373.923389) can0 263#00000000AF001B
(1469304373.924414) can0 1C4#05B529080000FFB7
(1469304373.925303) can0 1C8#80
(1469304373.925613) can0 020#0000072B
(1469304373.925819) can0 0B4#00000000020000BE
(1469304373.926068) can0 223#000000000000002D
(1469304373.926814) can0 025#000000027000009F
(1469304373.931195) can0 024#560001F44205803E
(1469304373.931694) can0 0AA#1A6F1A6F1A6F1A6F
(1469304373.933664) can0 1D0#0A7F010000AC000F
(1469304373.934614) can0 2C1#08032B0A06D900EA
(1469304373.937613) can0 020#0000072B
(1469304373.937698) can0 0BA#060000C4
(1469304373.938056) can0 224#0000000000000008
(1469304373.938740) can0 025#00010002900000C0
(1469304373.940593) can0 260#0E00000000000078
(1469304373.941674) can0 1C8#80
(1469304373.943189) can0 024#560002004208804E
(1469304373.943742) can0 0AA#1A6F1A6F1A6F1A6F
(1469304373.943874) can0 1AA#0000000000B1
(1469304373.945387) can0 3E7#00000000000000
(1469304373.945470) can0 351#00000000
(1469304373.945807) can0 621#1100000000000000
(1469304373.947989) can0 263#00000000AF001B
(1469304373.948990) can0 610#2000006480FFFD60
(1469304373.949175) can0 1C4#063329080000FF36
(1469304373.949682) can0 020#0000072B
(1469304373.949925) can0 0B4#00000000020000BE
(1469304373.950182) can0 223#000000000000002D
(1469304373.950384) can0 361#004C000000000000
(1469304373.950570) can0 262#000000016A
(1469304373.950820) can0 025#000000027000009F
(1469304373.954547) can0 622#1200481000000000
(1469304373.955173) can0 024#56000208420D805B
(1469304373.955791) can0 0AA#1A6F1A6F1A6F1A6F
(1469304373.958129) can0 1C8#80
(1469304373.960550) can0 260#0E00000000000078
(1469304373.961709) can0 020#0000072B
(1469304373.961795) can0 0BA#060000C4
(1469304373.962150) can0 224#0000000000000008
(1469304373.962714) can0 025#000000027000009F
(1469304373.963623) can0 623#1900000000000000
(1469304373.965331) can0 394#4300
(1469304373.966466) can0 1D0#0C0C010000AC009E
(1469304373.967190) can0 024#56000208420F805D
(1469304373.967394) can0 2C1#08026909ABD300C5
(1469304373.967780) can0 0AA#1A6F1A6F1A6F1A6F
(1469304373.972550) can0 624#1A00414949400000
(1469304373.972767) can0 263#00000000AF001B
(1469304373.973640) can0 1C4#06E229080000FFE5
(1469304373.973707) can0 020#0000072B
(1469304373.973984) can0 0B4#00000000020000BE
(1469304373.974231) can0 223#000000000000002D
(1469304373.974553) can0 3BB#0000AF00
(1469304373.974867) can0 025#00010002900000C0
(1469304373.974883) can0 1C8#80
(1469304373.975428) can0 3E8#0000000000000000
(1469304373.979192) can0 024#56000201420D8054
(1469304373.979798) can0 0AA#1A6F1A6F1A6F1A6F
(1469304373.980494) can0 260#0E00000000000078
(1469304373.981544) can0 626#1C00300000000000
(1469304373.985812) can0 020#0000072B
(1469304373.985900) can0 0BA#060000C4
(1469304373.986228) can0 224#0000000000000008
(1469304373.986541) can0 024#520001FB420A8046
(1469304373.986625) can0 025#000000027000009F
(1469304373.986963) can0 3A0#008F000000000071
(1469304373.990500) can0 262#000000016A
(1469304373.990692) can0 638#1300180100000000
(1469304373.990884) can0 1C8#80
(1469304373.991851) can0 0AA#1A6F1A6F1A6F1A6F
(1469304373.992049) can0 1AA#0000000000B1
(1469304373.997166) can0 263#00000000AF001B
(1469304373.997836) can0 020#0000072B
(1469304373.998064) can0 0B4#00000000020000BE
(1469304373.998319) can0 024#520001F342058039
(1469304373.998545) can0 1C4#076729080000FF6B
(1469304373.998794) can0 025#000000027000009F
(1469304373.999043) can0 223#000000000000002D
(1469304373.999239) can0 1D0#0DC0090000AC005B
(1469304373.999523) can0 63C#98005A5245172060
(1469304374.000182) can0 2C1#0801AB092BCD0080
(1469304374.000502) can0 260#0E00000000000078
(1469304374.004103) can0 0AA#1A6F1A6F1A6F1A6F
(1469304374.005360) can0 3E9#0000000000000000
(1469304374.005508) can0 351#00000000
(1469304374.007283) can0 1C8#80
(1469304374.008577) can0 63D#9900444558534B00
(1469304374.010048) can0 020#0000072B
(1469304374.010130) can0 0BA#060000C4
(1469304374.010527) can0 224#0000000000000008
(1469304374.010688) can0 025#000000027000009F
(1469304374.011204) can0 024#520001EF42038033
(1469304374.015686) can0 361#0046000000000000
(1469304374.016161) can0 0AA#1A6F1A6F1A6F1A6F
(1469304374.016342) can0 3B7#583B000000000008
(1469304374.017603) can0 680#D800010000000000
(1469304374.017952) can0 442#4302000001000000
(1469304374.020530) can0 260#0E00000000000078
(1469304374.021829) can0 263#00000000AF001B
(1469304374.022097) can0 020#0000072B
(1469304374.022359) can0 0B4#00000000020000BE
(1469304374.022569) can0 223#000000000000002D
(1469304374.022775) can0 025#00010002900000C0
(1469304374.023017) can0 1C4#07D129080000FFD5
(1469304374.023264) can0 024#520001F64208803F
(1469304374.023688) can0 1C8#80
(1469304374.026579) can0 620#1080FFFFB0500080
(1469304374.028208) can0 0AA#1A6F1A6F1A6F1A6F
(1469304374.030402) can0 262#000000016A
(1469304374.032111) can0 1D0#0F56090000AC00F3
(1469304374.033054) can0 2C1#08012F088FC90063
(1469304374.034123) can0 020#0000072B
(1469304374.034231) can0 0BA#060000C4
(1469304374.034509) can0 224#0000000000000008
(1469304374.034775) can0 025#000000027000009F
(1469304374.035200) can0 024#52000200420C804E
(1469304374.040230) can0 0AA#1A6F1A6F1A6F1A6F
(1469304374.040406) can0 1AA#0000000000B1
(1469304374.040482) can0 1C8#80
(1469304374.040820) can0 260#0E00000000000078
(1469304374.046175) can0 020#0000072B
(1469304374.046388) can0 0B4#00000000020000BE
(1469304374.046679) can0 025#000000027000009F
(1469304374.046895) can0 223#000000000000002D
(1469304374.047128) can0 263#00000000AF001B
(1469304374.047344) can0 024#52000208420F8059
(1469304374.047601) can0 1C4#083829080000FF3D
(1469304374.047847) can0 3F9#5198260100000014
(1469304374.052218) can0 0AA#1A6F1A6F1A6F1A6F
(1469304374.056530) can0 1C8#80
(1469304374.058155) can0 020#0000072B
(1469304374.058310) can0 0BA#060000C4
(1469304374.058567) can0 025#00010002900000C0
(1469304374.058885) can0 224#0000000000000008
(1469304374.059141) can0 024#52000208420C8056
(1469304374.060494) can0 260#0E00000000000078
(1469304374.064266) can0 0AA#1A6F1A6F1A6F1A6F
(1469304374.064889) can0 1D0#1063090000AC0001
(1469304374.065254) can0 351#00000000
(1469304374.065832) can0 2C1#0800F407BFC70054
(1469304374.067845) can0 3D0#00
(1469304374.068957) can0 610#2080006480FFFD60
(1469304374.070223) can0 020#0000072B
(1469304374.070528) can0 0B4#00000000020000BE
(1469304374.070704) can0 025#000000027000009F
(1469304374.070933) can0 223#000000000000002D
(1469304374.071119) can0 262#000000016A
(1469304374.071376) can0 024#520002014208804B
(1469304374.071585) can0 263#00000000AF001B
(1469304374.072009) can0 1C4#089329080000FF98
(1469304374.072907) can0 1C8#80
(1469304374.076314) can0 0AA#1A6F1A6F1A6F1A6F
(1469304374.080361) can0 260#0E00000000000078
(1469304374.080954) can0 618#2280000080000000
(1469304374.081351) can0 361#003D000000000000
(1469304374.082273) can0 020#0000072B
(1469304374.082359) can0 0BA#060000C4
(1469304374.082702) can0 224#0000000000000008
(1469304374.082961) can0 025#00010002900000C0
(1469304374.083192) can0 024#520001F84206803F
(1469304374.085675) can0 3A0#008F000000000071
(1469304374.088406) can0 0AA#1A6F1A6F1A6F1A6F
(1469304374.088518) can0 1AA#0000000000B1
(1469304374.088629) can0 354#01
(1469304374.089367) can0 1C8#80
(1469304374.092955) can0 619#238000000C003A80
(1469304374.094321) can0 020#0000072B
(1469304374.094603) can0 0B4#00000000020000BE
(1469304374.094824) can0 025#000000027000009F
(1469304374.095052) can0 223#000000000000002D
(1469304374.095335) can0 024#520001F14208803A
(1469304374.095759) can0 263#00000000AF001B
(1469304374.096779) can0 1C4#08D629080000FFDB
(1469304374.097803) can0 1D0#114E090000AC00ED
(1469304374.098778) can0 2C1#0800CF06DDC6004B
(1469304374.100433) can0 0AA#1A6F1A6F1A6F1A6F
(1469304374.100646) can0 260#0E00000000000078
(1469304374.104955) can0 61A#2480000000014F60
(1469304374.105893) can0 1C8#80
(1469304374.106362) can0 020#0000072B
(1469304374.106470) can0 0BA#060000C4
(1469304374.106731) can0 025#00010002900000C0
(1469304374.106982) can0 224#0000000000000008
(1469304374.107289) can0 024#520001F3420A803E
(1469304374.110402) can0 262#000000016A
(1469304374.112530) can0 0AA#1A6F1A6F1A6F1A6F
(1469304374.114379) can0 443#4002002F06000000
(1469304374.116953) can0 61C#2680000000000000
(1469304374.118424) can0 020#0000072B
(1469304374.118652) can0 0B4#00000000020000BE
(1469304374.118934) can0 223#000000000000002D
(1469304374.119220) can0 024#520001FB420C8048
(1469304374.119709) can0 025#00010002900000C0
(1469304374.120376) can0 263#00000000AF001B
(1469304374.120602) can0 260#0E00000000000078
(1469304374.121402) can0 1C4#090C29080000FF12
(1469304374.122293) can0 1C8#80
(1469304374.124530) can0 0AA#1A6F1A6F1A6F1A6F
(1469304374.125271) can0 351#00000000
(1469304374.130429) can0 020#0000072B
(1469304374.130540) can0 0BA#060000C4
(1469304374.130813) can0 1D0#1206090000AC00A6
(1469304374.131117) can0 224#0000000000000008
(1469304374.131313) can0 024#52000205420A8051
(1469304374.131540) can0 025#00010002900000C0
(1469304374.131827) can0 2C1#0800B6060FC50063
(1469304374.136539) can0 0AA#1A6F1A6F1A6F1A6F
(1469304374.136694) can0 1AA#0000000000B1
(1469304374.138769) can0 1C8#80
(1469304374.140407) can0 260#0E00000000000078
(1469304374.142450) can0 020#0000072B
(1469304374.142730) can0 0B4#00000000020000BE
(1469304374.142948) can0 223#000000000000002D
(1469304374.143227) can0 024#5200020842088052
(1469304374.143612) can0 025#00010002900000C0
(1469304374.145127) can0 263#00000000AF001B
(1469304374.146154) can0 1C4#093A29080000FF40
(1469304374.147206) can0 361#0035000000000000
(1469304374.148580) can0 0AA#1A6F1A6F1A6F1A6F
(1469304374.148796) can0 4C3#0300000100000000
(1469304374.150349) can0 262#000000016A
(1469304374.154552) can0 020#0000072B
(1469304374.154617) can0 0BA#060000C4
(1469304374.154934) can0 224#0000000000000008
(1469304374.155185) can0 024#520002034206804B
(1469304374.155265) can0 1C8#80
(1469304374.155532) can0 025#000000027000009F
(1469304374.160415) can0 260#0E00000000000078
(1469304374.160615) can0 0AA#1A6F1A6F1A6F1A6F
(1469304374.163661) can0 1D0#1290090000AC0030
(1469304374.164603) can0 2C1#0800A70553C50097
(1469304374.166572) can0 020#0000072B
(1469304374.166803) can0 0B4#00000000020000BE
(1469304374.167092) can0 223#000000000000002D
(1469304374.167290) can0 024#520001FB42088044
(1469304374.167608) can0 025#00010002900000C0
(1469304374.169777) can0 263#00000000AF001B
(1469304374.170804) can0 1C4#094F29080000FF55
(1469304374.171697) can0 1C8#80
(1469304374.172652) can0 0AA#1A6F1A6F1A6F1A6F
(1469304374.178599) can0 020#0000072B
(1469304374.178708) can0 0BA#060000C4
(1469304374.178996) can0 224#0000000000000008
(1469304374.179306) can0 024#520001F4420A803F
(1469304374.179481) can0 025#00010002900000C0
(1469304374.180454) can0 260#0E00000000000078
(1469304374.184731) can0 0AA#1A6F1A6F1A6F1A6F
(1469304374.184891) can0 1AA#0000000000B1
(1469304374.185175) can0 351#00000000
(1469304374.187706) can0 3A0#008F000000000071
(1469304374.188117) can0 1C8#80
(1469304374.190275) can0 262#000000016A
(1469304374.190647) can0 020#0000072B
(1469304374.190877) can0 0B4#00000000020000BE
(1469304374.191154) can0 223#000000000000002D
(1469304374.191370) can0 024#520001F3420C8040
(1469304374.191648) can0 025#00010002900000C0
(1469304374.194427) can0 263#00000000AF001B
(1469304374.195453) can0 1C4#095729080000FF5D
(1469304374.196530) can0 1D0#12E3090000AC0083
(1469304374.196708) can0 0AA#1A6F1A6F1A6F1A6F
(1469304374.197530) can0 2C1#0800A004AEC500EA
(1469304374.197951) can0 640#A800005701320000
(1469304374.200432) can0 260#0E00000000000078
(1469304374.202649) can0 020#0000072B
(1469304374.202759) can0 0BA#060000C4
(1469304374.203044) can0 224#0000000000000008
(1469304374.203324) can0 024#520001F8420A8043
(1469304374.203553) can0 025#00010002900000C0
(1469304374.204504) can0 1C8#80
(1469304374.208759) can0 0AA#1A6F1A6F1A6F1A6F
(1469304374.208964) can0 420#00000000FB0182AA
(1469304374.212907) can0 361#002D000000000000
(1469304374.214697) can0 020#0000072B
(1469304374.214973) can0 0B4#00000000020000BE
(1469304374.215188) can0 223#000000000000002D
(1469304374.215418) can0 024#520002014208804B
(1469304374.215705) can0 025#00010002900000C0
(1469304374.215922) can0 440#4202001101000000
(1469304374.219030) can0 263#00000000AF001B
(1469304374.220056) can0 1C4#096429080000FF6A
(1469304374.220428) can0 260#0E00000000000078
(1469304374.220803) can0 0AA#1A6F1A6F1A6F1A6F
(1469304374.220866) can0 1C8#80
(1469304374.222076) can0 4C1#0100000500000000
(1469304374.226725) can0 020#0000072B
(1469304374.226833) can0 0BA#060000C4
(1469304374.227119) can0 224#0000000000000008
(1469304374.227391) can0 024#520002054206804D
(1469304374.227616) can0 025#00010002900000C0
(1469304374.229304) can0 1D0#12FF090000AC009F
(1469304374.230282) can0 2C1#08009C0414C4004B
(1469304374.230486) can0 262#000000016A
(1469304374.232831) can0 0AA#1A6F1A6F1A6F1A6F
(1469304374.233007) can0 1AA#0000000000B1
(1469304374.237371) can0 1C8#80
(1469304374.238947) can0 020#0000072B
(1469304374.239227) can0 0B4#00000000020000BE
(1469304374.239537) can0 223#000000000000002D
(1469304374.239648) can0 025#000000027000009F
(1469304374.240208) can0 024#520002034208804D
(1469304374.240528) can0 260#0E00000000000078
(1469304374.243681) can0 263#00000000AF001B
(1469304374.244728) can0 1C4#096829080000FF6E
(1469304374.245078) can0 0AA#1A6F1A6F1A6F1A6F
(1469304374.245144) can0 351#00000000
(1469304374.250999) can0 020#0000072B
(1469304374.251106) can0 0BA#060000C4
(1469304374.251396) can0 224#0000000000000008
(1469304374.251657) can0 025#00010002900000C0
(1469304374.252205) can0 024#520001FD420A8048
(1469304374.253818) can0 1C8#80
(1469304374.257080) can0 0AA#1A6F1A6F1A6F1A6F
(1469304374.260331) can0 260#0E00000000000078
(1469304374.262180) can0 1D0#12F1090000AC0091
(1469304374.262997) can0 020#0000072B
(1469304374.263276) can0 0B4#00000000020000BE
(1469304374.263493) can0 025#000000027000009F
(1469304374.263706) can0 223#000000000000002D
(1469304374.263959) can0 2C1#08009E0389C400C1
(1469304374.264211) can0 024#520001F8420A8043
(1469304374.265220) can0 394#4300
(1469304374.268269) can0 263#00000000AF001B
(1469304374.269107) can0 0AA#1A6F1A6F1A6F1A6F
(1469304374.269317) can0 1C4#095C29080000FF62
(1469304374.270277) can0 262#000000016A
(1469304374.270291) can0 1C8#80
(1469304374.275024) can0 020#0000072B
(1469304374.275132) can0 0BA#060000C4
(1469304374.275533) can0 224#0000000000000008
(1469304374.275644) can0 025#00010002900000C0
(1469304374.275882) can0 4AC#1802400500000304
(1469304374.276242) can0 024#520001F6420C8043
(1469304374.278547) can0 361#0027000000000000
(1469304374.280385) can0 260#0E00000000000078
(1469304374.281128) can0 0AA#1A6F1A6F1A6F1A6F
(1469304374.281288) can0 1AA#0000000000B1
(1469304374.286681) can0 3A0#008F000000000071
(1469304374.286790) can0 38A#0804000000
(1469304374.286909) can0 1C8#80
(1469304374.287118) can0 020#0000072B
(1469304374.287368) can0 0B4#00000000020000BE
(1469304374.287616) can0 025#00010002900000C0
(1469304374.287892) can0 223#000000000000002D
(1469304374.288197) can0 024#520001FA420A8045
(1469304374.292879) can0 263#00000000AF001B
(1469304374.293205) can0 0AA#1A6F1A6F1A6F1A6F
(1469304374.293954) can0 1C4#096229080000FF68
(1469304374.293968) can0 354#01
(1469304374.294871) can0 3D3#0491
(1469304374.295150) can0 1D0#12D8090000AC0078
(1469304374.295915) can0 2C1#08009C030CC40042
(1469304374.299108) can0 020#0000072B
(1469304374.299274) can0 0BA#060000C4
(1469304374.299599) can0 224#0000000000000008
(1469304374.299780) can0 025#000000027000009F
(1469304374.300030) can0 610#2080006480FFFD60
(1469304374.300256) can0 024#520001FD42088046
(1469304374.300506) can0 260#0E00000000000078
(1469304374.301482) can0 620#1000FFFFB0500080
(1469304374.303021) can0 1C8#80
(1469304374.304187) can0 3F9#5198260100000014
(1469304374.305146) can0 351#00000000
(1469304374.305329) can0 0AA#1A6F1A6F1A6F1A6F
(1469304374.310163) can0 262#000000016A
(1469304374.311197) can0 020#0000072B
(1469304374.311427) can0 0B4#00000000020000BE
(1469304374.311709) can0 025#00010002900000C0
(1469304374.311918) can0 223#000000000000002D
(1469304374.312128) can0 611#21800020000062D4
(1469304374.312384) can0 024#520002014208804B
(1469304374.317258) can0 0AA#1A6F1A6F1A6F1A6F
(1469304374.317507) can0 3B7#583B000000000008
(1469304374.317707) can0 263#00000000AF001B
(1469304374.318028) can0 442#4302000001000000
(1469304374.318555) can0 1C4#096729080000FF6D
(1469304374.319527) can0 1C8#80
(1469304374.320327) can0 260#0E00000000000078
(1469304374.322578) can0 4C6#0700030000000000
(1469304374.323247) can0 020#0000072B
(1469304374.323357) can0 0BA#060000C4
(1469304374.323651) can0 224#0000000000000008
(1469304374.324226) can0 024#520002014208804B
(1469304374.324404) can0 025#00010002900000C0
(1469304374.324523) can0 3D0#00
(1469304374.327759) can0 1D0#12CD090000AC006D
(1469304374.328803) can0 2C1#08009B029EC400D2
(1469304374.329328) can0 0AA#1A6F1A6F1A6F1A6F
(1469304374.329488) can0 1AA#0000000000B1
(1469304374.335207) can0 4C8#0900000000000000
(1469304374.335315) can0 020#0000072B
(1469304374.335592) can0 0B4#00000000020000BE
(1469304374.335846) can0 223#000000000000002D
(1469304374.335900) can0 1C8#80
(1469304374.336249) can0 024#520001FF420A804A
(1469304374.336530) can0 025#00010002900000C0
(1469304374.340323) can0 260#0E00000000000078
(1469304374.341353) can0 0AA#1A6F1A6F1A6F1A6F
(1469304374.342155) can0 263#00000000AF001B
(1469304374.343179) can0 1C4#095629080000FF5C
(1469304374.344230) can0 361#0022000000000000
(1469304374.346303) can0 3BC#0020000000000000
(1469304374.347301) can0 020#0000072B
(1469304374.347480) can0 0BA#060000C4
(1469304374.347679) can0 224#0000000000000008
(1469304374.348173) can0 024#520001FB420A8046
(1469304374.348469) can0 025#00010002900000C0
(1469304374.348643) can0 399#00000000000000
(1469304374.350197) can0 262#000000016A
(1469304374.352263) can0 1C8#80
(1469304374.353390) can0 0AA#1A6F1A6F1A6F1A6F
(1469304374.359310) can0 020#0000072B
(1469304374.359507) can0 0B4#00000000020000BE
(1469304374.359771) can0 223#000000000000002D
(1469304374.360211) can0 024#520001FA420A8045
(1469304374.360512) can0 025#000000027000009F
(1469304374.360648) can0 1D0#12B5090000AC0055
(1469304374.360901) can0 260#0E00000000000078
(1469304374.361587) can0 2C1#0800A4023DC5007B
(1469304374.365135) can0 351#00000000
(1469304374.365405) can0 0AA#1A6F1A6F1A6F1A6F
(1469304374.366762) can0 263#00000000AF001B
(1469304374.367795) can0 1C4#094B29080000FF51
(1469304374.368679) can0 1C8#80
(1469304374.371332) can0 020#0000072B
(1469304374.371469) can0 0BA#060000C4
(1469304374.371721) can0 224#0000000000000008
(1469304374.372211) can0 024#520001FA420A8045
(1469304374.372511) can0 025#00010002900000C0
(1469304374.375355) can0 423#00
(1469304374.377439) can0 0AA#1A6F1A6F1A6F1A6F
(1469304374.377599) can0 1AA#0000000000B1
(1469304374.380241) can0 260#0E00000000000078
(1469304374.383360) can0 020#0000072B
(1469304374.383619) can0 0B4#00000000020000BE
(1469304374.383868) can0 223#000000000000002D
(1469304374.384240) can0 024#520001FB42088044
(1469304374.384512) can0 025#00010002900000C0
(1469304374.385103) can0 1C8#80
(1469304374.388667) can0 3A0#008F000000000071
(1469304374.389437) can0 0AA#1A6F1A6F1A6F1A6F
(1469304374.390158) can0 262#000000016A
(1469304374.391512) can0 263#00000000AF001B
(1469304374.392531) can0 1C4#094129080000FF47
(1469304374.393553) can0 1D0#129B090000AC003B
(1469304374.394528) can0 2C1#0800A801E6C50027
(1469304374.395422) can0 020#0000072B
(1469304374.395493) can0 0BA#060000C4
(1469304374.395853) can0 224#0000000000000008
(1469304374.396251) can0 024#520001FD42088046
(1469304374.396530) can0 025#00010002900000C0
(1469304374.400287) can0 260#0E00000000000078
(1469304374.401531) can0 0AA#1A6F1A6F1A6F1A6F
(1469304374.401545) can0 1C8#80
(1469304374.407450) can0 020#0000072B
(1469304374.407679) can0 0B4#00000000020000BE
(1469304374.407957) can0 223#000000000000002D
(1469304374.408251) can0 024#520002004208804A
(1469304374.408536) can0 025#00010002900000C0
(1469304374.409956) can0 361#001E000000000000
(1469304374.413557) can0 0AA#1A6F1A6F1A6F1A6F
(1469304374.415378) can0 443#4002002F06000000
(1469304374.416087) can0 263#00000000AF001B
(1469304374.417127) can0 1C4#093629080000FF3C
(1469304374.417994) can0 1C8#80
(1469304374.419526) can0 020#0000072B
(1469304374.419603) can0 0BA#060000C4
(1469304374.419848) can0 224#0000000000000008
(1469304374.420190) can0 260#0E00000000000078
(1469304374.420498) can0 024#520001FF420A804A
(1469304374.420656) can0 025#00010002900000C0
(1469304374.425086) can0 351#00000000
(1469304374.425564) can0 0AA#1A6F1A6F1A6F1A6F
(1469304374.425727) can0 1AA#0000000000B1
(1469304374.426361) can0 1D0#1280090000AC0020
(1469304374.427338) can0 2C1#0800B0019BC500E4
(1469304374.430165) can0 262#000000016A
(1469304374.431512) can0 020#0000072B
(1469304374.431765) can0 0B4#00000000020000BE
(1469304374.432011) can0 223#000000000000002D
(1469304374.432260) can0 024#520001FD420A8048
(1469304374.432474) can0 025#00010002900000C0
(1469304374.434396) can0 1C8#80
(1469304374.437616) can0 0AA#1A6F1A6F1A6F1A6F
(1469304374.440189) can0 260#0E00000000000078
(1469304374.440689) can0 263#00000000AF001B
(1469304374.441762) can0 1C4#091829080000FF1E
(1469304374.443557) can0 020#0000072B
(1469304374.443694) can0 0BA#060000C4
(1469304374.443965) can0 224#0000000000000008
(1469304374.444249) can0 024#520001FA420A8045
(1469304374.444512) can0 025#000000027000009F
(1469304374.449665) can0 0AA#1A6F1A6F1A6F1A6F
(1469304374.450812) can0 1C8#80
(1469304374.455585) can0 020#0000072B
(1469304374.455835) can0 0B4#00000000020000BE
(1469304374.456086) can0 223#000000000000002D
(1469304374.456336) can0 024#520001FA420A8045
(1469304374.456570) can0 025#00010002900000C0
(1469304374.459217) can0 1D0#124D090000AC00ED
(1469304374.460114) can0 2C1#0800B90155C500A7
(1469304374.460381) can0 260#0E00000000000078
(1469304374.461635) can0 0AA#1A6F1A6F1A6F1A6F
(1469304374.465338) can0 263#00000000AF001B
(1469304374.466364) can0 1C4#090929080000FF0F
(1469304374.467254) can0 1C8#80
(1469304374.467633) can0 020#0000072B
(1469304374.467750) can0 0BA#060000C4
(1469304374.468018) can0 224#0000000000000008
(1469304374.468263) can0 024#520001FA42088043
(1469304374.468482) can0 025#000000027000009F
(1469304374.470128) can0 262#000000016A
(1469304374.473682) can0 0AA#1A6F1A6F1A6F1A6F
(1469304374.473896) can0 1AA#0000000000B1
(1469304374.475642) can0 361#001B000000000000
(1469304374.479663) can0 020#0000072B
(1469304374.479911) can0 0B4#00000000020000BE
(1469304374.480123) can0 223#000000000000002D
(1469304374.480334) can0 024#520001FB42068042
(1469304374.480582) can0 025#00010002900000C0
(1469304374.480850) can0 260#0E00000000000078
(1469304374.483681) can0 1C8#80
(1469304374.485083) can0 351#00000000
(1469304374.485338) can0 3B1#00000D0A00080000
(1469304374.485767) can0 0AA#1A6F1A6F1A6F1A6F
(1469304374.487640) can0 3A0#008F000000000071
(1469304374.489961) can0 263#00000000AF001B
(1469304374.490475) can0 620#1080FFFFB0500040
(1469304374.490975) can0 1C4#08F029080000FFF5
(1469304374.491684) can0 020#0000072B
(1469304374.491820) can0 0BA#060000C4
(1469304374.492057) can0 1D0#121D090000AC00BD
(1469304374.492350) can0 024#520001FF42088048
(1469304374.492592) can0 025#00010002900000C0
(1469304374.492804) can0 224#0000000000000008
(1469304374.493058) can0 2C1#0800C50118C60077
(1469304374.497736) can0 0AA#1A6F1A6F1A6F1A6F
(1469304374.499053) can0 354#01
(1469304374.500126) can0 260#0E00000000001D95
(1469304374.500171) can0 1C8#80
(1469304374.503702) can0 020#0000072B
(1469304374.504010) can0 0B4#00000000020000BE
(1469304374.504260) can0 025#00010002900000C0
(1469304374.504512) can0 024#520001FF42088048
(1469304374.504750) can0 223#000000000000002D
(1469304374.509924) can0 0AA#1A6F1A6F1A6F1A6F
(1469304374.510141) can0 262#000000016A
(1469304374.514524) can0 263#00000000AF001B
(1469304374.515512) can0 440#4202001101000000
(1469304374.515682) can0 1C4#08E029080000FFE5
(1469304374.515926) can0 020#0000072B
(1469304374.516086) can0 0BA#060000C4
(1469304374.516366) can0 024#520001FB420A8046
(1469304374.516591) can0 025#00010002900000C0
(1469304374.516656) can0 1C8#80
(1469304374.516998) can0 224#0000000000000008
(1469304374.517614) can0 4DC#1D00000200000000
(1469304374.520199) can0 260#0E00000000000078
(1469304374.522058) can0 0AA#1A6F1A6F1A6F1A6F
(1469304374.522204) can0 1AA#0000000000B1
(1469304374.524888) can0 1D0#11DE090000AC007D
(1469304374.525864) can0 2C1#0800CD00E6C6004C
(1469304374.528011) can0 020#0000072B
(1469304374.528206) can0 0B4#00000000020000BE
(1469304374.528486) can0 025#00010002900000C0
(1469304374.528716) can0 223#000000000000002D
(1469304374.529235) can0 024#520001FB42088044
(1469304374.532927) can0 1C8#80
(1469304374.534084) can0 0AA#1A6F1A6F1A6F1A6F
(1469304374.539200) can0 263#00000000AF001B
(1469304374.540009) can0 020#0000072B
(1469304374.540102) can0 0BA#060000C4
(1469304374.540380) can0 025#00010002900000C0
(1469304374.540638) can0 1C4#08CB29080000FFD0
(1469304374.540888) can0 224#0000000000000008
(1469304374.541136) can0 260#0E00000000000078
(1469304374.541366) can0 024#520001FA42088043
(1469304374.541671) can0 361#0019000000000000
(1469304374.545058) can0 351#00000000
(1469304374.546109) can0 0AA#1A6F1A6F1A6F1A6F
(1469304374.549351) can0 1C8#80
(1469304374.550105) can0 262#000000016A
(1469304374.552030) can0 020#0000072B
(1469304374.552268) can0 0B4#00000000020000BE
(1469304374.552495) can0 223#000000000000002D
(1469304374.553258) can0 025#00010002900000C0
(1469304374.553498) can0 024#520001FB420A8046
(1469304374.555385) can0 387#0000000000003F3F
(1469304374.557688) can0 1D0#11AF090000AC004E
(1469304374.558134) can0 0AA#1A6F1A6F1A6F1A6F
(1469304374.558658) can0 2C1#0800DA00B9C6002C
(1469304374.560170) can0 260#0800000000000072
(1469304374.560689) can0 3F9#5198260100000014
(1469304374.563839) can0 263#00000000AF001B
(1469304374.564001) can0 020#0000072B
(1469304374.564165) can0 0BA#060000C4
(1469304374.564548) can0 224#0000000000000008
(1469304374.564861) can0 1C4#08AF29080000FFB4
(1469304374.564888) can0 394#4300
(1469304374.565247) can0 025#00010002900000C0
(1469304374.565515) can0 024#520001FB42088044
(1469304374.565698) can0 1C8#80
(1469304374.570162) can0 0AA#1A6F1A6F1A6F1A6F
(1469304374.570274) can0 1AA#0000000000B1
(1469304374.576086) can0 020#0000072B
(1469304374.576317) can0 0B4#00000000020000BE
(1469304374.576621) can0 223#000000000000002D
(1469304374.577234) can0 025#00010002900000C0
(1469304374.577406) can0 024#520001FD42088046
(1469304374.580241) can0 260#0800000000FFE556
(1469304374.581053) can0 3D0#00
(1469304374.582187) can0 0AA#1A6F1A6F1A6F1A6F
(1469304374.582205) can0 1C8#80
(1469304374.585286) can0 4DD#1E00000000000000
(1469304374.585484) can0 389#0000000000000000
(1469304374.586659) can0 3A0#008F000000000071
(1469304374.588106) can0 020#0000072B
(1469304374.588200) can0 0BA#060000C4
(1469304374.588533) can0 224#0000000000000008
(1469304374.588706) can0 263#00000000AF001B
(1469304374.589109) can0 025#000000027000009F
(1469304374.589307) can0 024#520001FF42088048
(1469304374.589559) can0 1C4#089429080000FF99
(1469304374.590057) can0 262#000000016A
(1469304374.590451) can0 1D0#116F090000AC000E
(1469304374.591457) can0 2C1#0800E30097C70014
(1469304374.594158) can0 0AA#1A6F1A6F1A6F1A6F
(1469304374.598579) can0 1C8#80
(1469304374.600111) can0 260#0800000000FFE556
(1469304374.600184) can0 020#0000072B
(1469304374.600490) can0 0B4#00000000020000BE
(1469304374.600681) can0 223#000000000000002D
(1469304374.601131) can0 025#00010002900000C0
(1469304374.601412) can0 024#520001FF42088048
(1469304374.605034) can0 351#00000000
(1469304374.605532) can0 622#1280581000000000
(1469304374.606235) can0 0AA#1A6F1A6F1A6F1A6F
(1469304374.606935) can0 361#0018000000000000
(1469304374.612089) can0 020#0000072B
(1469304374.612276) can0 0BA#060000C4
(1469304374.612536) can0 224#0000000000000008
(1469304374.613055) can0 263#00000000AF001B
(1469304374.613256) can0 025#00010002900000C0
(1469304374.613487) can0 024#520001FD42088046
(1469304374.614086) can0 1C4#087F29080000FF84
(1469304374.614931) can0 1C8#80
(1469304374.615397) can0 38E#2020000000000000
(1469304374.617901) can0 442#4302000001000000
(1469304374.618264) can0 0AA#1A6F1A6F1A6F1A6F
(1469304374.618490) can0 1AA#0000000000B1
(1469304374.618650) can0 3B7#583B000000000008
(1469304374.620042) can0 260#0800000000FFF162
(1469304374.623290) can0 1D0#112E090000AC00CD
(1469304374.624211) can0 020#0000072B
(1469304374.624533) can0 0B4#00000000020000BE
(1469304374.624682) can0 223#000000000000002D
(1469304374.624909) can0 2C1#0800EE0079C70001
(1469304374.625155) can0 025#00010002900000C0
(1469304374.625406) can0 024#520001FA420A8045
(1469304374.630063) can0 262#000000016A
(1469304374.630253) can0 0AA#1A6F1A6F1A6F1A6F
(1469304374.631299) can0 1C8#80
(1469304374.636284) can0 020#0000072B
(1469304374.636373) can0 0BA#060000C4
(1469304374.636664) can0 224#0000000000000008
(1469304374.637070) can0 025#000000027000009F
(1469304374.637336) can0 024#520001FA420A8045
(1469304374.637662) can0 263#00000000AF001B
(1469304374.638736) can0 1C4#086D29080000FF72
(1469304374.640151) can0 260#0800000000FFF162
(1469304374.642329) can0 0AA#1A6F1A6F1A6F1A6F
(1469304374.645330) can0 38F#0300000000000000
(1469304374.647753) can0 1C8#80
(1469304374.648209) can0 020#0000072B
(1469304374.648475) can0 0B4#00000000020000BE
(1469304374.648718) can0 223#000000000000002D
(1469304374.649062) can0 025#00010002900000C0
(1469304374.649311) can0 024#520001FB42088044
(1469304374.654293) can0 0AA#1A6F1A6F1A6F1A6F
(1469304374.656086) can0 1D0#10F2090000AC0090
(1469304374.657053) can0 2C1#0800F40062C700F0
(1469304374.660012) can0 260#0800000000FFF162
(1469304374.660229) can0 020#0000072B
(1469304374.660443) can0 0BA#060000C4
(1469304374.660691) can0 224#0000000000000008
(1469304374.660994) can0 025#00010002900000C0
(1469304374.661253) can0 024#520001FD42088046
(1469304374.662248) can0 263#00000000AF001B
(1469304374.663302) can0 1C4#086129080000FF66
(1469304374.664159) can0 1C8#80
(1469304374.664913) can0 351#00000000
(1469304374.666368) can0 0AA#1A6F1A6F1A6F1A6F
(1469304374.666571) can0 1AA#0000000000B1
(1469304374.670036) can0 262#000000016A
(1469304374.670640) can0 380#C0A0400000004200
(1469304374.670948) can0 3B0#00B6005600180000
(1469304374.672368) can0 020#0000072B
(1469304374.672606) can0 0B4#00000000020000BE
(1469304374.672865) can0 223#000000000000002D
(1469304374.673100) can0 361#0017000000000000
(1469304374.673324) can0 024#520001FD42088046
(1469304374.673628) can0 025#00010002900000C0
(1469304374.675393) can0 3A5#0000000000007EFC
(1469304374.678467) can0 0AA#1A6F1A6F1A6F1A6F
(1469304374.680071) can0 260#0800000000FFF162
(1469304374.680706) can0 1C8#80
(1469304374.684411) can0 020#0000072B
(1469304374.684481) can0 0BA#060000C4
(1469304374.684838) can0 224#0000000000000008
(1469304374.685039) can0 025#00010002900000C0
(1469304374.685266) can0 024#520001FF420A804A
(1469304374.685519) can0 6E1#A180000000100000
(1469304374.686986) can0 263#00000000AF001B
(1469304374.688022) can0 1C4#085529080000FF5A
(1469304374.688639) can0 3A0#008F000007000071
(1469304374.689038) can0 1D0#10CB090000AC0069
(1469304374.689978) can0 2C1#0800FB004FC700E4
(1469304374.690496) can0 0AA#1A6F1A6F1A6F1A6F
(1469304374.696411) can0 020#0000072B
(1469304374.696614) can0 0B4#00000000020000BE
(1469304374.696868) can0 223#000000000000002D
(1469304374.697115) can0 025#00010002900000C0
(1469304374.697364) can0 024#520001FD420A8048
(1469304374.697457) can0 1C8#80
(1469304374.700169) can0 260#0800000000FFF162
(1469304374.702545) can0 0AA#1A6F1A6F1A6F1A6F
(1469304374.704310) can0 354#01
(1469304374.705391) can0 413#0101010900000000
(1469304374.706665) can0 382#2338380000000000
(1469304374.706901) can0 381#0001019080000000
(1469304374.708460) can0 020#0000072B
(1469304374.708542) can0 0BA#060000C4
(1469304374.708909) can0 224#0000000000000008
(1469304374.709100) can0 025#00010002900000C0
(1469304374.709334) can0 024#520001FB420A8046
(1469304374.710009) can0 262#000000016A
(1469304374.711604) can0 263#00000000AF001B
(1469304374.712622) can0 1C4#083E29080000FF43
(1469304374.713557) can0 1C8#80
(1469304374.714588) can0 0AA#1A6F1A6F1A6F1A6F
(1469304374.714723) can0 1AA#0000000000B1
(1469304374.715387) can0 443#4002002F06000000
(1469304374.720022) can0 260#0800000000FFF162
(1469304374.720532) can0 020#0000072B
(1469304374.720732) can0 0B4#00000000020000BE
(1469304374.720972) can0 223#000000000000002D
(1469304374.721217) can0 025#00010002900000C0
(1469304374.721490) can0 024#520001FB420A8046
(1469304374.721871) can0 1D0#10A5090000AC0043
(1469304374.722846) can0 2C1#080104003DC800DD
(1469304374.724986) can0 351#00000000
(1469304374.726614) can0 0AA#1A6F1A6F1A6F1A6F
(1469304374.729956) can0 1C8#80
(1469304374.732534) can0 020#0000072B
(1469304374.732617) can0 0BA#060000C4
(1469304374.732905) can0 224#0000000000000008
(1469304374.733155) can0 025#000000027000009F
(1469304374.733375) can0 024#520001FB42088044
(1469304374.735389) can0 434#3F00000000000000
(1469304374.736248) can0 263#00000000AF001B
(1469304374.737287) can0 1C4#082C29080000FF31
(1469304374.738337) can0 361#0017000000000000
(1469304374.738581) can0 0AA#1A6F1A6F1A6F1A6F
(1469304374.740092) can0 260#08FFFF0000FFF160
(1469304374.744587) can0 020#0000072B
(1469304374.744791) can0 0B4#00000000020000BE
(1469304374.745041) can0 025#00010002900000C0
(1469304374.745259) can0 024#520001FB42088044
(1469304374.745515) can0 223#000000000000002D
(1469304374.746378) can0 1C8#80
(1469304374.750037) can0 262#000000016A
(1469304374.750687) can0 0AA#1A6F1A6F1A6F1A6F
(1469304374.754713) can0 1D0#107B090000AC0019
(1469304374.755693) can0 2C1#0801960034CC006A
(1469304374.756608) can0 020#0000072B
(1469304374.756693) can0 0BA#060000C4
(1469304374.757054) can0 224#0000000000000008
(1469304374.757255) can0 025#00010002900000C0
(1469304374.757494) can0 024#520001FD42088046
(1469304374.760117) can0 260#0800000000FFF162
(1469304374.760863) can0 263#00000000AF001B
(1469304374.761855) can0 1C4#081D29080000FF22
(1469304374.762672) can0 0AA#1A6F1A6F1A6F1A6F
(1469304374.762892) can0 1AA#0000000000B1
(1469304374.762949) can0 1C8#80
(1469304374.765389) can0 435#0F0505FFE00FE003
(1469304374.768660) can0 020#0000072B
(1469304374.768866) can0 0B4#00000000020000BE
(1469304374.769117) can0 025#00010002900000C0
(1469304374.769367) can0 024#520001FF42088048
(1469304374.769617) can0 223#000000000000002D
(1469304374.771463) can0 6E2#A28000FEFEFEFEFE
(1469304374.774939) can0 0AA#1A6F1A6F1A6F1A6F
(1469304374.775339) can0 4AC#2800600100000324
(1469304374.779181) can0 1C8#80
(1469304374.780016) can0 260#0800000000FFF162
(1469304374.780883) can0 020#0000072B
(1469304374.780968) can0 0BA#060000C4
(1469304374.781325) can0 224#0000000000000008
(1469304374.781528) can0 024#520001FF420A804A
(1469304374.781991) can0 025#00010002900000C0
(1469304374.784840) can0 351#00000000
(1469304374.785311) can0 3B1#00000D0900080000
(1469304374.785507) can0 263#00000000AF001B
(1469304374.786538) can0 1C4#080F29080000FF14
(1469304374.786962) can0 0AA#1A6F1A6F1A6F1A6F
(1469304374.787496) can0 1D0#1048090000AC00E6
(1469304374.787747) can0 3A0#008F000007000071
(1469304374.788468) can0 2C1#08019C002BCC0067
(1469304374.789943) can0 262#000000016A
(1469304374.790422) can0 620#1000FFFFB0500040
(1469304374.792873) can0 020#0000072B
(1469304374.793143) can0 0B4#00000000020000BE
(1469304374.793368) can0 024#520001FD420A8048
(1469304374.793619) can0 223#000000000000002D
(1469304374.794043) can0 025#00010002900000C0
(1469304374.795389) can0 436#0000000000000000
(1469304374.795601) can0 1C8#80
(1469304374.799014) can0 0AA#1A6F1A6F1A6F1A6F
(1469304374.799999) can0 260#0800000000FFF162
(1469304374.800939) can0 610#2000006480FFFD60
(1469304374.803991) can0 361#0016000000000000
(1469304374.804926) can0 020#0000072B
(1469304374.805064) can0 0BA#060000C4
(1469304374.805373) can0 024#520001FB420A8046
(1469304374.805575) can0 224#0000000000000008
(1469304374.806012) can0 025#00010002900000C0
(1469304374.810138) can0 263#00000000AF001B
(1469304374.811038) can0 0AA#1A6F1A6F1A6F1A6F
(1469304374.811164) can0 1AA#0000000000B1
(1469304374.811495) can0 1C4#07FD29080000FF01
(1469304374.812007) can0 1C8#80
(1469304374.815391) can0 440#4202001101000000
(1469304374.816942) can0 020#0000072B
(1469304374.817193) can0 0B4#00000000020000BE
(1469304374.817490) can0 024#520001FB42088044
(1469304374.817696) can0 223#000000000000002D
(1469304374.817919) can0 3F9#5198260100000014
(1469304374.818167) can0 025#00010002900000C0
(1469304374.820041) can0 260#0800000000FFF162
(1469304374.820233) can0 3D3#025D
(1469304374.820516) can0 1D0#1020090000AC00BE
(1469304374.821346) can0 2C1#0801AA0028CD0073
(1469304374.823040) can0 0AA#1A6F1A6F1A6F1A6F
(1469304374.825392) can0 437#FCFFFFFFFFFFFFFF
(1469304374.828458) can0 1C8#80
(1469304374.829010) can0 020#0000072B
(1469304374.829083) can0 0BA#060000C4
(1469304374.829424) can0 024#520001FD42088046
(1469304374.829665) can0 224#0000000000000008
(1469304374.829869) can0 262#000000016A
(1469304374.830166) can0 025#000000027000009F
(1469304374.834664) can0 263#00000000AF001B
(1469304374.835112) can0 0AA#1A6F1A6F1A6F1A6F
(1469304374.835797) can0 1C4#07EB29080000FFEF
(1469304374.837628) can0 3D0#00
(1469304374.840018) can0 260#0800000000FFF162
(1469304374.841034) can0 020#0000072B
(1469304374.841316) can0 0B4#00000000020000BE
(1469304374.841526) can0 223#000000000000002D
(1469304374.841990) can0 025#00010002900000C0
(1469304374.842268) can0 024#520001FD42088046
(1469304374.844850) can0 351#00000000
(1469304374.844868) can0 1C8#80
(1469304374.847143) can0 0AA#1A6F1A6F1A6F1A6F
(1469304374.853063) can0 020#0000072B
(1469304374.853154) can0 0BA#060000C4
(1469304374.853497) can0 1D0#0FEE090000AC008B
(1469304374.853702) can0 224#0000000000000008
(1469304374.853954) can0 025#00010002900000C0
(1469304374.854185) can0 2C1#0801C4002CCE0092
(1469304374.854410) can0 024#520001FF42088048
(1469304374.859107) can0 0AA#1A6F1A6F1A6F1A6F
(1469304374.859290) can0 1AA#0000000000B1
(1469304374.859491) can0 263#00000000AF001B
(1469304374.859917) can0 260#0800000000FFF162
(1469304374.860337) can0 1C4#07E029080000FFE4
(1469304374.861227) can0 1C8#80
(1469304374.864756) can0 394#4300
(1469304374.865078) can0 020#0000072B
(1469304374.865325) can0 0B4#00000000020000BE
(1469304374.865592) can0 223#000000000000002D
(1469304374.865972) can0 025#000000027000009F
(1469304374.866338) can0 024#520001FF420A804A
(1469304374.869672) can0 361#0017000000000000
(1469304374.869927) can0 262#000000016A
(1469304374.871215) can0 0AA#1A6F1A6F1A6F1A6F
(1469304374.877139) can0 020#0000072B
(1469304374.877223) can0 0BA#060000C4
(1469304374.877566) can0 224#0000000000000008
(1469304374.877627) can0 1C8#80
(1469304374.877911) can0 025#00010002900000C0
(1469304374.878284) can0 024#520001FD420A8048
(1469304374.880039) can0 260#0800000000FFF162
(1469304374.883205) can0 0AA#1A6F1A6F1A6F1A6F
(1469304374.883979) can0 263#00000000AF001B
(1469304374.884968) can0 1C4#07D029080000FFD4
(1469304374.886031) can0 1D0#0FC6090000AC0063
(1469304374.887004) can0 2C1#0801D00032CE00A4
(1469304374.889174) can0 020#0000072B
(1469304374.889402) can0 0B4#00000000000000BC
(1469304374.889682) can0 223#000000000000002D
(1469304374.889892) can0 3A0#008F000007000071
(1469304374.890167) can0 025#000000027000009F
(1469304374.890363) can0 024#520001FB42088044
(1469304374.894043) can0 1C8#80
(1469304374.895219) can0 0AA#1A6F1A6F1A6F1A6F
(1469304374.899935) can0 260#0800000000FFF162
(1469304374.901194) can0 020#0000072B
(1469304374.901304) can0 0BA#05FB00BE
(1469304374.901587) can0 224#0000000000000008
(1469304374.901818) can0 025#00010002900000C0
(1469304374.902241) can0 024#020001FD420880F6
(1469304374.904775) can0 351#00000000
(1469304374.907278) can0 0AA#1A6F1A6F1A6F1A6F
(1469304374.907492) can0 1AA#0000000000B1
(1469304374.908563) can0 263#00000000AF001B
(1469304374.909617) can0 1C4#07C129080000FFC5
(1469304374.909633) can0 354#01
(1469304374.909922) can0 262#000000016A
(1469304374.910504) can0 1C8#80
(1469304374.913209) can0 020#0000072B
(1469304374.913474) can0 0B4#00000000000000BC
(1469304374.913660) can0 223#000000000000002D
(1469304374.913904) can0 025#00010002900000C0
(1469304374.914249) can0 024#020001FD420880F6
(1469304374.917913) can0 442#4302000001000000
(1469304374.918864) can0 1D0#0FA2090000AC003F
(1469304374.919318) can0 0AA#1A6F1A6F1A6F1A6F
(1469304374.919564) can0 3B7#583B000000000008
(1469304374.919789) can0 2C1#0801DF003BCE00BC
(1469304374.920076) can0 260#08FFFF0000FFF160
(1469304374.925250) can0 020#0000072B
(1469304374.925370) can0 0BA#05FD00C0
(1469304374.925639) can0 224#0000000000000008
(1469304374.925935) can0 025#00010002900000C0
(1469304374.926303) can0 024#020001FD420880F6
(1469304374.926920) can0 1C8#80
(1469304374.931382) can0 0AA#1A6F1A6F1A6F1A6F
(1469304374.933255) can0 263#00000000AF001B
(1469304374.934280) can0 1C4#07B429080000FFB8
(1469304374.935285) can0 361#0017000000000000
(1469304374.937323) can0 020#0000072B
(1469304374.937538) can0 0B4#00000000000000BC
(1469304374.937828) can0 025#00010002900000C0
(1469304374.938038) can0 223#000000000000002D
(1469304374.938327) can0 024#020001FD420A80F8
(1469304374.939981) can0 260#0800000000FFF162
(1469304374.943404) can0 0AA#1A6F1A6F1A6F1A6F
(1469304374.943432) can0 1C8#80
(1469304374.945406) can0 621#1100000000000000
(1469304374.949353) can0 020#0000072B
(1469304374.949481) can0 0BA#05FD00C0
(1469304374.949785) can0 025#00010002900000C0
(1469304374.949988) can0 224#0000000000000008
(1469304374.950209) can0 262#000000016A
(1469304374.950479) can0 024#020001FD420A80F8
(1469304374.951731) can0 1D0#0F80090000AC001D
(1469304374.952679) can0 2C1#0801660046CB004B
(1469304374.955404) can0 623#1900000000000000
(1469304374.955582) can0 0AA#1A6F1A6F1A6F1A6F
(1469304374.955785) can0 1AA#0000000000B1
(1469304374.957851) can0 263#00000000AF001B
(1469304374.958881) can0 1C4#07A729080000FFAB
(1469304374.959888) can0 260#0800000000FFF162
(1469304374.959902) can0 1C8#80
(1469304374.961398) can0 020#0000072B
(1469304374.961613) can0 0B4#00000000000000BC
(1469304374.961902) can0 025#00010002900000C0
(1469304374.962112) can0 223#000000000000002D
(1469304374.962400) can0 024#020001FD420A80F8
(1469304374.964380) can0 624#1A00414949400000
(1469304374.964732) can0 351#00000000
(1469304374.967503) can0 0AA#1A6F1A6F1A6F1A6F
(1469304374.973406) can0 626#1C00300000000000
(1469304374.973535) can0 020#0000072B
(1469304374.973703) can0 0BA#05FD00C0
(1469304374.973994) can0 025#00010002900000C0
(1469304374.974202) can0 224#0000000000000008
(1469304374.974461) can0 024#020001FB420A80F6
(1469304374.976193) can0 1C8#80
(1469304374.979552) can0 0AA#1A6F1A6F1A6F1A6F
(1469304374.979876) can0 260#0800000000FFF162
(1469304374.982381) can0 638#1300180100000000
(1469304374.982563) can0 263#00000000AF001B
(1469304374.983580) can0 1C4#079C29080000FFA0
(1469304374.984604) can0 1D0#0F61090000AC00FE
(1469304374.985456) can0 020#0000072B
(1469304374.985679) can0 0B4#00000000000000BC
(1469304374.985928) can0 025#000000027000009F
(1469304374.986158) can0 223#000000000000002D
(1469304374.986458) can0 024#020001FD420880F6
(1469304374.986665) can0 2C1#080174004CCB005F
(1469304374.988580) can0 3A0#008F000007000071
(1469304374.989876) can0 262#000000016A
(1469304374.991377) can0 63C#98005A5245172060
(1469304374.991619) can0 0AA#1A6F1A6F1A6F1A6F
(1469304374.992646) can0 1C8#80
(1469304374.997499) can0 020#0000072B
(1469304374.997643) can0 0BA#05FD00C0
(1469304374.997939) can0 224#0000000000000008
(1469304374.998188) can0 025#00010002900000C0
(1469304374.998503) can0 024#020001FB420880F4
(1469304374.999929) can0 260#0800000000FFF162
(1469304375.000353) can0 63D#9900444558534B00
(1469304375.001054) can0 361#0017000000000000
(1469304375.003605) can0 0AA#1A6F1A6F1A6F1A6F
(1469304375.003762) can0 1AA#0000000000B1
(1469304375.007167) can0 263#00000000AF001B
(1469304375.008209) can0 1C4#078E29080000FF92
(1469304375.009121) can0 1C8#80
(1469304375.009353) can0 680#D800010000000000
(1469304375.009519) can0 020#0000072B
(1469304375.009767) can0 0B4#00000000000000BC
(1469304375.010050) can0 025#00010002900000C0
(1469304375.010262) can0 223#000000000000002D
(1469304375.010529) can0 024#020001FB420880F4
(1469304375.015356) can0 443#4002002F06000000
(1469304375.015589) can0 0AA#1A6F1A6F1A6F1A6F
(1469304375.017503) can0 1D0#0F3E090000AC00DB
(1469304375.018503) can0 2C1#080183004CCC006F
(1469304375.019879) can0 260#0800000000FFF162
(1469304375.021597) can0 020#0000072B
(1469304375.021725) can0 0BA#05FB00BE
(1469304375.022031) can0 224#0000000000000008
(1469304375.022278) can0 024#020001FD420A80F8
(1469304375.022778) can0 025#00010002900000C0
(1469304375.024688) can0 351#00000000
(1469304375.025501) can0 1C8#80
(1469304375.025694) can0 3BB#0000AF00
(1469304375.027679) can0 0AA#1A6F1A6F1A6F1A6F
(1469304375.029775) can0 262#000000016A
(1469304375.031853) can0 263#00000000AF001B
(1469304375.032879) can0 1C4#078429080000FF88
(1469304375.033623) can0 020#0000072B
(1469304375.033858) can0 0B4#00000000000000BC
(1469304375.034104) can0 223#000000000000002D
(1469304375.034353) can0 024#020001FD420A80F8
(1469304375.034736) can0 025#00010002900000C0
(1469304375.039835) can0 260#0800000000FFF162
(1469304375.040017) can0 0AA#1A6F1A6F1A6F1A6F
(1469304375.041996) can0 1C8#80
(1469304375.045850) can0 020#0000072B
(1469304375.045936) can0 0BA#05FD00C0
(1469304375.046227) can0 224#0000000000000008
(1469304375.046461) can0 024#020001FD420880F6
(1469304375.046703) can0 025#00010002900000C0
(1469304375.050356) can0 1D0#0F19090000AC00B6
(1469304375.051328) can0 2C1#08018B004CCC0077
(1469304375.051954) can0 0AA#1A6F1A6F1A6F1A6F
(1469304375.052110) can0 1AA#0000000000B1
(1469304375.056504) can0 263#00000000AF001B
(1469304375.057532) can0 1C4#077F29080000FF83
(1469304375.057896) can0 020#0000072B
(1469304375.058132) can0 0B4#00000000000000BC
(1469304375.058396) can0 024#020001FD420A80F8
(1469304375.058427) can0 1C8#80
(1469304375.058770) can0 025#00010002900000C0
(1469304375.058977) can0 223#000000000000002D
(1469304375.059929) can0 260#0800000000FFEE5F
(1469304375.063982) can0 0AA#1A6F1A6F1A6F1A6F
(1469304375.066784) can0 361#0017000000000000
(1469304375.069702) can0 262#000000016A
(1469304375.069881) can0 020#0000072B
(1469304375.070049) can0 0BA#05FD00C0
(1469304375.070338) can0 024#020001FD420A80F8
(1469304375.070564) can0 224#0000000000000008
(1469304375.070854) can0 025#000000027000009F
(1469304375.073929) can0 3F9#5198260100000014
(1469304375.074784) can0 1C8#80
(1469304375.075985) can0 0AA#1A6F1A6F1A6F1A6F
(1469304375.079781) can0 260#0800000000FFF162
(1469304375.081105) can0 263#00000000AF001B
(1469304375.081948) can0 020#0000072B
(1469304375.082156) can0 0B4#00000000000000BC
(1469304375.082503) can0 024#020001FD420A80F8
(1469304375.082632) can0 1C4#076929080000FF6D
(1469304375.082936) can0 025#00010002900000C0
(1469304375.083137) can0 223#000000000000002D
(1469304375.083384) can0 1D0#0EFE090000AC009A
(1469304375.083613) can0 4C3#0300000100000000
(1469304375.084111) can0 2C1#08019E004DCC008B
(1469304375.084787) can0 351#00000000
(1469304375.087516) can0 3A0#008F000007000071
(1469304375.088059) can0 0AA#1A6F1A6F1A6F1A6F
(1469304375.090380) can0 620#1000FFFFB0500040
(1469304375.091245) can0 1C8#80
(1469304375.093999) can0 020#0000072B
(1469304375.094127) can0 0BA#05FD00C0
(1469304375.094505) can0 024#020001FB420880F4
(1469304375.094635) can0 025#000000027000009F
(1469304375.094884) can0 224#0000000000000008
(1469304375.094979) can0 3D0#00
(1469304375.099829) can0 260#0800000000FFEE5F
(1469304375.100063) can0 0AA#1A6F1A6F1A6F1A6F
(1469304375.100323) can0 1AA#0000000000B1
(1469304375.105728) can0 263#00000000AF001B
(1469304375.105979) can0 020#0000072B
(1469304375.106252) can0 0B4#00000000000000BC
(1469304375.106534) can0 223#000000000000002D
(1469304375.106736) can0 025#000000027000009F
(1469304375.106976) can0 1C4#075829080000FF5C
(1469304375.107283) can0 024#020001FD420880F6
(1469304375.107596) can0 1C8#80
(1469304375.109751) can0 262#000000016A
(1469304375.112077) can0 0AA#1A6F1A6F1A6F1A6F
(1469304375.114743) can0 354#01
(1469304375.115342) can0 440#4202001101000000
(1469304375.115965) can0 1D0#0EDC090000AC0078
(1469304375.116917) can0 2C1#0801B5004DCD00A3
(1469304375.118074) can0 020#0000072B
(1469304375.118202) can0 0BA#05FD00C0
(1469304375.118512) can0 224#0000000000000008
(1469304375.118713) can0 025#00010002900000C0
(1469304375.119330) can0 024#020001FD420A80F8
(1469304375.119860) can0 260#0800000000FFEE5F
(1469304375.124045) can0 1C8#80
(1469304375.124252) can0 0AA#1A6F1A6F1A6F1A6F
(1469304375.130126) can0 020#0000072B
(1469304375.130337) can0 0B4#00000000000000BC
(1469304375.130630) can0 025#00010002900000C0
(1469304375.130838) can0 223#000000000000002D
(1469304375.131100) can0 263#00000000AF001B
(1469304375.131313) can0 024#020001FD420880F6
(1469304375.131580) can0 1C4#074629080000FF4A
(1469304375.132428) can0 361#0017000000000000
(1469304375.136213) can0 0AA#1A6F1A6F1A6F1A6F
(1469304375.139753) can0 260#0800000000FFF162
(1469304375.140495) can0 1C8#80
(1469304375.142151) can0 020#0000072B
(1469304375.142281) can0 0BA#05FD00C0
(1469304375.142589) can0 224#0000000000000008
(1469304375.142787) can0 025#00010002900000C0
(1469304375.143328) can0 024#020001FD420A80F8
(1469304375.144622) can0 351#00000000
(1469304375.148230) can0 0AA#1A6F1A6F1A6F1A6F
(1469304375.148462) can0 1AA#0000000000B1
(1469304375.148852) can0 1D0#0EB3090000AC004F
(1469304375.149724) can0 262#000000016A
(1469304375.149938) can0 2C1#0801C90051CE00BC
(1469304375.154200) can0 020#0000072B
(1469304375.154519) can0 0B4#00000000000000BC
(1469304375.154668) can0 025#00010002900000C0
(1469304375.154938) can0 223#000000000000002D
(1469304375.155109) can0 263#00000000B0001C
(1469304375.155359) can0 024#020001FB420880F4
(1469304375.155962) can0 1C4#073B29080000FF3F
(1469304375.156487) can0 4C1#0100000500000000
(1469304375.156857) can0 1C8#80
(1469304375.159794) can0 260#0800000000FFF162
(1469304375.160283) can0 0AA#1A6F1A6F1A6F1A6F
(1469304375.164547) can0 394#4300
(1469304375.166222) can0 020#0000072B
(1469304375.166351) can0 0BA#05FB00BE
(1469304375.166611) can0 025#000000027000009F
(1469304375.166860) can0 224#0000000000000008
(1469304375.167328) can0 024#020001FD420880F6
(1469304375.172329) can0 0AA#1A6F1A6F1A6F1A6F
(1469304375.173318) can0 1C8#80
(1469304375.178272) can0 020#0000072B
(1469304375.178518) can0 0B4#00000000000000BC
(1469304375.178804) can0 025#000000027000009F
(1469304375.179012) can0 223#000000000000002D
(1469304375.179327) can0 024#020001FB420880F4
(1469304375.179617) can0 263#00000000B0001C
(1469304375.179838) can0 260#08FFFF0000FFEE5D
(1469304375.180602) can0 1C4#072929080000FF2D
(1469304375.181628) can0 1D0#0E8E090000AC002A
(1469304375.182604) can0 2C1#0801DC0052CE00D0
(1469304375.184361) can0 0AA#1A6F1A6F1A6F1A6F
(1469304375.189553) can0 3A0#008E000007000071
(1469304375.189680) can0 262#000000016A
(1469304375.189793) can0 1C8#80
(1469304375.190332) can0 020#0000072B
(1469304375.190461) can0 0BA#05FB00BE
(1469304375.190767) can0 025#00010002900000C0
(1469304375.190962) can0 224#0000000000000008
(1469304375.191327) can0 024#020001FD420880F6
(1469304375.196405) can0 0AA#1A6F1A6F1A6F1A6F
(1469304375.196585) can0 1AA#0000000000B1
(1469304375.198067) can0 361#0017000000000000
(1469304375.199710) can0 260#0800000000FFEE5F
(1469304375.199918) can0 640#A800005701320000
(1469304375.202352) can0 020#0000072B
(1469304375.202566) can0 0B4#00000000000000BC
(1469304375.202855) can0 025#00010002900000C0
(1469304375.203064) can0 223#000000000000002D
(1469304375.203352) can0 024#020001FD420A80F8
(1469304375.204254) can0 263#00000000AF001B
(1469304375.204625) can0 351#00000000
(1469304375.205252) can0 1C4#071C29080000FF20
(1469304375.206143) can0 1C8#80
(1469304375.208504) can0 0AA#1A6F1A6F1A6F1A6F
(1469304375.214373) can0 020#0000072B
(1469304375.214503) can0 0BA#05FD00C0
(1469304375.214809) can0 1D0#0E5D090000AC00F9
(1469304375.215005) can0 224#0000000000000008
(1469304375.215294) can0 420#00000000FB0180A8
(1469304375.215496) can0 024#020001FD420A80F8
(1469304375.215783) can0 025#000000027000009F
(1469304375.215967) can0 2C1#0801E90055CF00E1
(1469304375.217903) can0 442#4302000001000000
(1469304375.219805) can0 260#08FFFF0000FFEE5D
(1469304375.220503) can0 0AA#1A6F1A6F1A6F1A6F
(1469304375.220689) can0 3B7#583B000000000008
(1469304375.222568) can0 1C8#80
(1469304375.226401) can0 020#0000072B
(1469304375.226614) can0 0B4#00000000000000BC
(1469304375.226903) can0 223#000000000000002D
(1469304375.227353) can0 024#020001FD420880F6
(1469304375.227539) can0 025#00010002900000C0
(1469304375.228851) can0 263#00000000B0001C
(1469304375.229700) can0 262#000000016A
(1469304375.229915) can0 1C4#071029080000FF14
(1469304375.232504) can0 0AA#1A6F1A6F1A6F1A6F
(1469304375.238424) can0 020#0000072B
(1469304375.238536) can0 0BA#05FD00C0
(1469304375.238846) can0 224#0000000000000008
(1469304375.238928) can0 1C8#80
(1469304375.239313) can0 024#020001FB420A80F6
(1469304375.239540) can0 025#000000027000009F
(1469304375.239799) can0 260#0800000000FFEE5F
(1469304375.244495) can0 0AA#1A6F1A6F1A6F1A6F
(1469304375.244686) can0 1AA#0000000000B1
(1469304375.247302) can0 1D0#0E39090000AC00D5
(1469304375.248307) can0 2C1#0801FF005ACF00FC
(1469304375.250495) can0 020#0000072B
(1469304375.250679) can0 0B4#00000000000000BC
(1469304375.250967) can0 223#000000000000002D
(1469304375.251340) can0 024#020001FB420880F4
(1469304375.251540) can0 025#00010002900000C0
(1469304375.253501) can0 263#00000000B0001C
(1469304375.254501) can0 1C4#06FE29080000FF01
(1469304375.255365) can0 1C8#80
(1469304375.256528) can0 0AA#1A6F1A6F1A6F1A6F
(1469304375.259728) can0 260#08FFFF0000FFEE5D
(1469304375.262454) can0 020#0000072B
(1469304375.262620) can0 0BA#05FB00BE
(1469304375.262868) can0 224#0000000000000008
(1469304375.263279) can0 024#020001FB420A80F6
(1469304375.263510) can0 025#00010002900000C0
(1469304375.263783) can0 361#0017000000000000
(1469304375.264495) can0 351#00000000
(1469304375.268601) can0 0AA#1A6F1A6F1A6F1A6F
(1469304375.269623) can0 262#000000016A
(1469304375.271793) can0 1C8#80
(1469304375.274521) can0 020#0000072B
(1469304375.274735) can0 0B4#00000000000000BC
(1469304375.275023) can0 223#000000000000002D
(1469304375.275352) can0 024#020001FB420A80F6
(1469304375.275537) can0 025#00010002900000C0
(1469304375.275826) can0 4AC#4800A00100000324
(1469304375.278125) can0 263#00000000AF001B
(1469304375.279126) can0 1C4#06F429080000FFF7
(1469304375.279761) can0 260#0800000000FFEE5F
(1469304375.280146) can0 1D0#0E11090000AC00AD
(1469304375.280603) can0 0AA#1A6F1A6F1A6F1A6F
(1469304375.281175) can0 2C1#08020B005FD0000F
(1469304375.281674) can0 4C6#0700030000000000
(1469304375.285293) can0 3B1#00000D0500080000
(1469304375.286544) can0 020#0000072B
(1469304375.286675) can0 0BA#05FB00BE
(1469304375.286988) can0 224#0000000000000008
(1469304375.287335) can0 024#020001FD420A80F8
(1469304375.287561) can0 025#000000027000009F
(1469304375.288223) can0 1C8#80
(1469304375.288483) can0 3A0#008E000007000071
(1469304375.292790) can0 0AA#1A6F1A6F1A6F1A6F
(1469304375.293027) can0 1AA#0000000000B1
(1469304375.298797) can0 020#0000072B
(1469304375.299005) can0 0B4#00000000000000BC
(1469304375.299256) can0 223#000000000000002D
(1469304375.299543) can0 024#020001FD420A80F8
(1469304375.299735) can0 025#00010002900000C0
(1469304375.300023) can0 260#0800000000FFEE5F
(1469304375.300232) can0 610#2000006480FFFD60
(1469304375.302706) can0 263#00000000B0001C
(1469304375.303777) can0 1C4#06E729080000FFEA
(1469304375.304666) can0 1C8#80
(1469304375.304875) can0 0AA#1A6F1A6F1A6F1A6F
(1469304375.309540) can0 262#000000016A
(1469304375.310875) can0 611#21000020000062D4
(1469304375.311004) can0 020#0000072B
(1469304375.311177) can0 0BA#05FD00C0
(1469304375.311463) can0 024#020001FD420A80F8
(1469304375.311670) can0 025#000000027000009F
(1469304375.311917) can0 224#0000000000000008
(1469304375.313025) can0 1D0#0DEF090000AC008A
(1469304375.314004) can0 2C1#0802160066D00021
(1469304375.314624) can0 4C8#0900000000000000
(1469304375.315349) can0 443#4002002F06000000
(1469304375.316952) can0 0AA#1A6F1A6F1A6F1A6F
(1469304375.319622) can0 260#08FFFF0000FFEE5D
(1469304375.320041) can0 354#01
(1469304375.321067) can0 1C8#80
(1469304375.322871) can0 020#0000072B
(1469304375.323135) can0 0B4#00000000000000BC
(1469304375.323336) can0 024#020001FB420880F4
(1469304375.323626) can0 025#00010002900000C0
(1469304375.323836) can0 223#000000000000002D
(1469304375.324544) can0 351#00000000
(1469304375.327375) can0 263#00000000B0001C
(1469304375.328385) can0 1C4#06D729080000FFDA
(1469304375.328974) can0 0AA#1A6F1A6F1A6F1A6F
(1469304375.329424) can0 361#0017000000000000
(1469304375.330402) can0 3F9#5198260100000014
(1469304375.334897) can0 020#0000072B
(1469304375.335050) can0 0BA#05FB00BE
(1469304375.335335) can0 224#0000000000000008
(1469304375.335536) can0 024#020001FB420880F4
(1469304375.335840) can0 025#00010002900000C0
(1469304375.337504) can0 1C8#80
(1469304375.339693) can0 260#0800000000FFEE5F
(1469304375.341012) can0 0AA#1A6F1A6F1A6F1A6F
(1469304375.341221) can0 1AA#0000000000B1
(1469304375.345757) can0 3D3#019C
(1469304375.346030) can0 1D0#0DCF090000AC006A
(1469304375.346864) can0 2C1#080229006DD1003C
(1469304375.346950) can0 020#0000072B
(1469304375.347294) can0 0B4#00000000000000BC
(1469304375.347498) can0 024#020001FB420A80F6
(1469304375.347725) can0 025#00010002900000C0
(1469304375.347973) can0 223#000000000000002D
(1469304375.349632) can0 262#000000016A
(1469304375.350828) can0 3D0#00
(1469304375.352039) can0 263#00000000B0001C
(1469304375.353041) can0 0AA#1A6F1A6F1A6F1A6F
(1469304375.353287) can0 1C4#06C929080000FFCC
(1469304375.353929) can0 1C8#80
(1469304375.358988) can0 020#0000072B
(1469304375.359116) can0 0BA#05FB00BE
(1469304375.359355) can0 024#020001FD420A80F8
(1469304375.359591) can0 025#00010002900000C0
(1469304375.359839) can0 224#0000000000000008
(1469304375.360157) can0 260#0800000000FFEE5F
(1469304375.365087) can0 0AA#1A6F1A6F1A6F1A6F
(1469304375.370351) can0 1C8#80
(1469304375.371031) can0 020#0000072B
(1469304375.371280) can0 0B4#00000000000000BC
(1469304375.371542) can0 024#020001FD420A80F8
(1469304375.371785) can0 025#00010002900000C0
(1469304375.372035) can0 223#000000000000002D
(1469304375.376661) can0 263#00000000B0001C
(1469304375.377135) can0 0AA#1A6F1A6F1A6F1A6F
(1469304375.377687) can0 1C4#06C129080000FFC4
(1469304375.378711) can0 1D0#0DA9090000AC0044
(1469304375.379600) can0 260#0800000000FFF162
(1469304375.379884) can0 2C1#0802320075D1004D
(1469304375.382427) can0 423#00
(1469304375.383056) can0 020#0000072B
(1469304375.383187) can0 0BA#05FD00C0
(1469304375.383520) can0 024#020001FD420880F6
(1469304375.383698) can0 025#000000027000009F
(1469304375.383983) can0 224#0000000000000008
(1469304375.384503) can0 351#00000000
(1469304375.386801) can0 1C8#80
(1469304375.387536) can0 3A0#008F000007000070
(1469304375.389159) can0 0AA#1A6F1A6F1A6F1A6F
(1469304375.389314) can0 1AA#0000000000B1
(1469304375.389538) can0 262#000000016A
(1469304375.390271) can0 620#1000FFFFB0500040
(1469304375.395161) can0 361#0017000000000000
(1469304375.395258) can0 020#0000072B
(1469304375.395531) can0 0B4#00000000000000BC
(1469304375.395771) can0 223#000000000000002D
(1469304375.396355) can0 024#020001FD420880F6
(1469304375.396583) can0 025#00010002900000C0
(1469304375.397209) can0 3BC#0020000000000000
(1469304375.399233) can0 399#00000000000000
(1469304375.399660) can0 260#0800000000FFF162
(1469304375.401182) can0 0AA#1A6F1A6F1A6F1A6F
(1469304375.401383) can0 263#00000000B0001C
(1469304375.402310) can0 1C4#06B829080000FFBB
(1469304375.403200) can0 1C8#80
(1469304375.407105) can0 020#0000072B
(1469304375.407231) can0 0BA#05FD00C0
(1469304375.407553) can0 025#000000027000009F
(1469304375.407753) can0 224#0000000000000008
(1469304375.408336) can0 024#020001FB420880F4
(1469304375.411559) can0 1D0#0D86090000AC0021
(1469304375.412534) can0 2C1#08023A007FD1005F
(1469304375.413183) can0 0AA#1A6F1A6F1A6F1A6F
(1469304375.415308) can0 440#4202001101000000
(1469304375.419133) can0 020#0000072B
(1469304375.419404) can0 0B4#00000000000000BC
(1469304375.419644) can0 025#00010002900000C0
(1469304375.419656) can0 1C8#80
(1469304375.419995) can0 223#000000000000002D
(1469304375.420245) can0 260#08FFFF0000FFEE5D
(1469304375.420508) can0 024#020001FB420880F4
(1469304375.425236) can0 0AA#1A6F1A6F1A6F1A6F
(1469304375.425909) can0 263#00000000B0001C
(1469304375.426909) can0 1C4#06A229080000FFA5
(1469304375.429481) can0 262#000000016A
(1469304375.431178) can0 020#0000072B
(1469304375.431313) can0 0BA#05FB00BE
(1469304375.431541) can0 025#00010002900000C0
(1469304375.431868) can0 224#0000000000000008
(1469304375.432381) can0 024#020001FB420880F4
(1469304375.436054) can0 1C8#80
(1469304375.437310) can0 0AA#1A6F1A6F1A6F1A6F
(1469304375.437480) can0 1AA#0000000000B1
(1469304375.439551) can0 260#0800000000FFEE5F
(1469304375.443252) can0 020#0000072B
(1469304375.443506) can0 0B4#00000000000000BC
(1469304375.443736) can0 223#000000000000002D
(1469304375.444386) can0 024#020001FB420880F4
(1469304375.444588) can0 025#00010002900000C0
(1469304375.444817) can0 1D0#0D6D090000AC0008
(1469304375.444951) can0 351#00000000
(1469304375.445378) can0 2C1#08029A0088D400CB
(1469304375.449366) can0 0AA#1A6F1A6F1A6F1A6F
(1469304375.450537) can0 263#00000000B0001C
(1469304375.451564) can0 1C4#069129080000FF94
(1469304375.452449) can0 1C8#80
(1469304375.455277) can0 020#0000072B
(1469304375.455348) can0 0BA#05FB00BE
(1469304375.455719) can0 224#0000000000000008
(1469304375.456337) can0 025#00010002900000C0
(1469304375.456547) can0 024#020001FD420880F6
(1469304375.459637) can0 260#0800000000FFF162
(1469304375.460808) can0 361#0018000000000000
(1469304375.461342) can0 0AA#1A6F1A6F1A6F1A6F
(1469304375.464378) can0 394#4300
(1469304375.467326) can0 020#0000072B
(1469304375.467549) can0 0B4#00000000000000BC
(1469304375.467839) can0 223#000000000000002D
(1469304375.468378) can0 024#020001FD420880F6
(1469304375.468558) can0 025#00010002900000C0
(1469304375.468824) can0 1C8#80
(1469304375.469015) can0 38A#0804000000
(1469304375.469577) can0 262#000000016A
(1469304375.473406) can0 0AA#1A6F1A6F1A6F1A6F
(1469304375.475152) can0 263#00000000B0001C
(1469304375.476182) can0 1C4#068429080000FF87
(1469304375.477202) can0 1D0#0D43090000AC00DE
(1469304375.478179) can0 2C1#0802620092D3009C
(1469304375.479347) can0 020#0000072B
(1469304375.479463) can0 0BA#05FD00C0
(1469304375.479735) can0 224#0000000000000008
(1469304375.479985) can0 260#08FFFF0000FFEE5D
(1469304375.480329) can0 025#000000027000009F
(1469304375.480537) can0 024#020001FD420880F6
(1469304375.485231) can0 1C8#80
(1469304375.485531) can0 0AA#1A6F1A6F1A6F1A6F
(1469304375.485694) can0 1AA#0000000000B1
(1469304375.489532) can0 3A0#008F000007000071
(1469304375.491422) can0 020#0000072B
(1469304375.491643) can0 0B4#00000000000000BC
(1469304375.491928) can0 223#000000000000002D
(1469304375.492380) can0 024#020001FD420880F6
(1469304375.492599) can0 025#00010002900000C0
(1469304375.497530) can0 0AA#1A6F1A6F1A6F1A6F
(1469304375.499554) can0 260#0800000000FFEE5F
(1469304375.499728) can0 263#00000000B0001C
(1469304375.500788) can0 1C4#067829080000FF7B
(1469304375.501671) can0 1C8#80
(1469304375.503435) can0 020#0000072B
(1469304375.503519) can0 0BA#05FD00C0
(1469304375.503865) can0 224#0000000000000008
(1469304375.504312) can0 025#00010002900000C0
(1469304375.504516) can0 024#020001FB420A80F6
(1469304375.504681) can0 351#00000000
(1469304375.509533) can0 0AA#1A6F1A6F1A6F1A6F
(1469304375.509626) can0 262#000000016A
(1469304375.510033) can0 1D0#0D0F090000AC00AA
(1469304375.511010) can0 2C1#08027C009CD300C0
(1469304375.515453) can0 020#0000072B
(1469304375.515706) can0 0B4#00000000000000BC
(1469304375.515952) can0 223#000000000000002D
(1469304375.516383) can0 025#000000027000009F
(1469304375.516558) can0 024#020001FB420A80F6
(1469304375.517934) can0 442#4302000001000000
(1469304375.518026) can0 1C8#80
(1469304375.519545) can0 383#0100010000000000
(1469304375.519758) can0 260#0800000000FFEE5F
(1469304375.519990) can0 4DC#1D00000200000000
(1469304375.521541) can0 0AA#1A6F1A6F1A6F1A6F
(1469304375.521764) can0 3B7#583B000000000008
(1469304375.524385) can0 263#00000000B0001C
(1469304375.525414) can0 1C4#066A29080000FF6D
(1469304375.525440) can0 354#01
(1469304375.526449) can0 361#0018000000000000
(1469304375.527527) can0 020#0000072B
(1469304375.527594) can0 0BA#05FB00BE
(1469304375.527945) can0 224#0000000000000008
(1469304375.528293) can0 025#00010002900000C0
(1469304375.528486) can0 024#020001FB420A80F6
(1469304375.534758) can0 0AA#1A6F1A6F1A6F1A6F
(1469304375.534773) can0 1AA#0000000000B1
(1469304375.534777) can0 1C8#80
(1469304375.539559) can0 260#0800000000FFEE5F
(1469304375.539638) can0 020#0000072B
(1469304375.539969) can0 0B4#00000000000000BC
(1469304375.540191) can0 223#000000000000002D
(1469304375.540530) can0 024#020001FD420A80F8
(1469304375.540643) can0 025#00010002900000C0
(1469304375.542857) can0 1D0#0CF2090000AC008C
(1469304375.543832) can0 2C1#08027E00A8D300CE
(1469304375.545829) can0 0AA#1A6F1A6F1A6F1A6F
(1469304375.549005) can0 263#00000000B0001C
(1469304375.549447) can0 262#000000016A
(1469304375.550027) can0 1C4#065C29080000FF5F
(1469304375.550918) can0 1C8#80
(1469304375.551780) can0 020#0000072B
(1469304375.551889) can0 0BA#05FD00C0
(1469304375.552149) can0 224#0000000000000008
(1469304375.552396) can0 024#020001FD420A80F8
(1469304375.552660) can0 025#00010002900000C0
(1469304375.555316) can0 387#0000000000003F3F
(1469304375.557880) can0 0AA#1A6F1A6F1A6F1A6F
(1469304375.559527) can0 260#0800000000FFEE5F
(1469304375.563830) can0 020#0000072B
(1469304375.564112) can0 0B4#00000000000000BC
(1469304375.564287) can0 025#00010002900000C0
(1469304375.564531) can0 024#020001FD420880F6
(1469304375.564759) can0 223#000000000000002D
(1469304375.564908) can0 351#00000000
(1469304375.567355) can0 1C8#80
(1469304375.569930) can0 0AA#1A6F1A6F1A6F1A6F
(1469304375.573677) can0 263#00000000B0001C
(1469304375.574702) can0 1C4#065529080000FF58
(1469304375.575733) can0 1D0#0CD3090000AC006D
(1469304375.575843) can0 020#0000072B
(1469304375.576033) can0 0BA#05FD00C0
(1469304375.576268) can0 224#0000000000000008
(1469304375.576534) can0 024#020001FD420A80F8
(1469304375.576764) can0 025#00010002900000C0
(1469304375.577053) can0 2C1#08028400B1D400DE
(1469304375.579612) can0 260#0800000000FFEE5F
(1469304375.582009) can0 0AA#1A6F1A6F1A6F1A6F
(1469304375.582155) can0 1AA#0000000000B1
(1469304375.583808) can0 1C8#80
(1469304375.585385) can0 389#0000000000000000
(1469304375.587009) can0 3F9#5198260100000014
(1469304375.587930) can0 020#0000072B
(1469304375.588162) can0 0B4#00000000000000BC
(1469304375.588385) can0 024#020001FB420880F4
(1469304375.588686) can0 025#000000027000009F
(1469304375.588882) can0 223#000000000000002D
(1469304375.589112) can0 3A0#008F000007000071
(1469304375.589453) can0 262#000000016A
(1469304375.592087) can0 361#0018000000000000
(1469304375.594035) can0 0AA#1A6F1A6F1A6F1A6F
(1469304375.595407) can0 4DD#1E00000000000000
(1469304375.598287) can0 263#00000000B0001C
(1469304375.599309) can0 1C4#064A29080000FF4D
(1469304375.599517) can0 260#0800000000FFEE5F
(1469304375.599934) can0 020#0000072B
(1469304375.600072) can0 0BA#05FB00BE
(1469304375.600152) can0 1C8#80
(1469304375.600528) can0 024#020101FB420A80F7
(1469304375.600703) can0 025#000000027000009F
(1469304375.600934) can0 224#0000000000000008
(1469304375.605273) can0 622#1200581000000000
(1469304375.606064) can0 0AA#1A6F1A6F1A6F1A6F
(1469304375.607379) can0 3D0#00
(1469304375.608514) can0 1D0#0CB0090000AC004A
(1469304375.609539) can0 2C1#08028F00BFD400F7
(1469304375.612012) can0 020#0000072B
(1469304375.612244) can0 0B4#00000000000000BC
(1469304375.612549) can0 024#020001FB420A80F6
(1469304375.612735) can0 025#00010002900000C0
(1469304375.612971) can0 223#000000000000002D
(1469304375.615322) can0 443#4002002F06000000
(1469304375.615609) can0 38E#2020000000000000
(1469304375.616597) can0 1C8#80
(1469304375.618108) can0 0AA#1A6F1A6F1A6F1A6F
(1469304375.619536) can0 260#0800000000FFEE5F
(1469304375.622907) can0 263#00000000B0001C
(1469304375.623938) can0 1C4#063F29080000FF42
(1469304375.624001) can0 020#0000072B
(1469304375.624247) can0 0BA#05FB00BE
(1469304375.624543) can0 024#020001FB420A80F6
(1469304375.624732) can0 224#0000000000000008
(1469304375.624885) can0 351#00000000
(1469304375.625208) can0 025#000000027000009F
(1469304375.629491) can0 262#000000016A
(1469304375.630159) can0 0AA#1A6F1A6F1A6F1A6F
(1469304375.630331) can0 1AA#0000000000B1
(1469304375.632981) can0 1C8#80
(1469304375.636109) can0 020#0000072B
(1469304375.636324) can0 0B4#00000000000000BC
(1469304375.636571) can0 024#020001FD420880F6
(1469304375.636858) can0 223#000000000000002D
(1469304375.637305) can0 025#000000027000009F
(1469304375.639533) can0 260#0800000000FFEE5F
(1469304375.641360) can0 1D0#0C93090000AC002D
(1469304375.642211) can0 0AA#1A6F1A6F1A6F1A6F
(1469304375.642425) can0 2C1#08029700CBD4000B
(1469304375.645387) can0 38F#0300000000000000
(1469304375.647479) can0 263#00000000B0001C
(1469304375.648100) can0 020#0000072B
(1469304375.648256) can0 0BA#05FD00C0
(1469304375.648486) can0 1C4#063429080000FF37
(1469304375.648735) can0 224#0000000000000008
(1469304375.649090) can0 025#000000027000009F
(1469304375.649340) can0 024#020001FF420880F8
(1469304375.649456) can0 1C8#80
(1469304375.654233) can0 0AA#1A6F1A6F1A6F1A6F
(1469304375.657760) can0 361#0019000000000000
(1469304375.659482) can0 260#0800000000FFEB5C
(1469304375.660179) can0 020#0000072B
(1469304375.660466) can0 0B4#00000000000000BC
(1469304375.660664) can0 223#000000000000002D
(1469304375.661180) can0 025#000000027000009F
(1469304375.661389) can0 024#020001FD420880F6
(1469304375.665825) can0 1C8#80
(1469304375.666325) can0 0AA#1A6F1A6F1A6F1A6F
(1469304375.669387) can0 262#000000016A
(1469304375.669586) can0 380#C0A0400000004200
(1469304375.669864) can0 3B0#00B6005600180000
(1469304375.672135) can0 263#00000000B0001C
(1469304375.672198) can0 020#0000072B
(1469304375.672444) can0 0BA#05FD00C0
(1469304375.672681) can0 224#0000000000000008
(1469304375.673132) can0 025#000000027000009F
(1469304375.673342) can0 1C4#062429080000FF27
(1469304375.673634) can0 024#020001FD420880F6
(1469304375.674183) can0 1D0#0C7D090000AC0017
(1469304375.675158) can0 2C1#0802A800D8D5002A
(1469304375.675369) can0 3A5#0000000000007EFC
(1469304375.678350) can0 0AA#1A6F1A6F1A6F1A6F
(1469304375.678581) can0 1AA#0000000000B1
(1469304375.679456) can0 260#08FFFF0000FFEE5D
(1469304375.682251) can0 1C8#80
(1469304375.684277) can0 351#00000000
(1469304375.684348) can0 020#0000072B
(1469304375.684712) can0 0B4#00000000000000BC
(1469304375.684922) can0 223#000000000000002D
(1469304375.685167) can0 025#00010002900000C0
(1469304375.685423) can0 024#020001FB420A80F6
(1469304375.685647) can0 6E1#A180000000100000
(1469304375.687533) can0 3A0#008F000007000071
(1469304375.690436) can0 0AA#1A6F1A6F1A6F1A6F
(1469304375.694283) can0 620#1000FFFFB0500040
(1469304375.696362) can0 020#0000072B
(1469304375.696440) can0 0BA#05FB00BE
(1469304375.696804) can0 224#0000000000000008
(1469304375.696995) can0 263#00000000B0001C
(1469304375.697228) can0 025#00010002900000C0
(1469304375.697489) can0 024#020001FB420A80F6
(1469304375.697710) can0 1C4#061929080000FF1C
(1469304375.698650) can0 1C8#80
(1469304375.699532) can0 260#0800000000FFEE5F
(1469304375.702463) can0 0AA#1A6F1A6F1A6F1A6F
(1469304375.705385) can0 413#0101010900000000
(1469304375.707011) can0 1D0#0C56090000AC00F0
(1469304375.707988) can0 2C1#0802B600E6D50046
(1469304375.708404) can0 020#0000072B
(1469304375.708619) can0 0B4#00000000000000BC
(1469304375.708912) can0 223#000000000000002D
(1469304375.709160) can0 025#00010002900000C0
(1469304375.709371) can0 024#020001FB420A80F6
(1469304375.709570) can0 262#000000016A
(1469304375.714533) can0 0AA#1A6F1A6F1A6F1A6F
(1469304375.715075) can0 1C8#80
(1469304375.715286) can0 440#4202001101000000
(1469304375.719440) can0 260#0800000000FFEB5C
(1469304375.720457) can0 020#0000072B
(1469304375.720574) can0 0BA#05FB00BE
(1469304375.720862) can0 224#0000000000000008
(1469304375.721086) can0 025#00010002900000C0
(1469304375.721337) can0 263#00000000B0001C
(1469304375.721563) can0 024#020001FD420A80F8
(1469304375.722382) can0 1C4#061129080000FF14
(1469304375.723435) can0 361#0019000000000000
(1469304375.726560) can0 0AA#1A6F1A6F1A6F1A6F
(1469304375.726731) can0 1AA#0000000000B1
(1469304375.730429) can0 354#01
(1469304375.731525) can0 1C8#80
(1469304375.732528) can0 020#0000072B
(1469304375.732716) can0 0B4#00000000000000BC
(1469304375.732931) can0 223#000000000000002D
(1469304375.733179) can0 025#00010002900000C0
(1469304375.733535) can0 024#020001FD420A80F8
(1469304375.735385) can0 434#3F00000000000000
(1469304375.738563) can0 0AA#1A6F1A6F1A6F1A6F
(1469304375.739433) can0 260#0800000000FFEE5F
(1469304375.739838) can0 1D0#0C36090000AC00D0
(1469304375.740783) can0 2C1#0802B600F2D50052
