(1469304098.591441) can0 440#40008011010F0F0F
(1469304098.594636) can0 442#42008000010F0F0F
(1469304098.691367) can0 440#4001801101000000
(1469304098.691614) can0 620#1080FFFF80500080
(1469304098.693661) can0 442#4201800001000000
(1469304098.783648) can0 442#4002000001000000
(1469304098.785410) can0 440#4212001101000000
(1469304098.885594) can0 442#4002000001000000
(1469304098.891414) can0 620#1080FFFF90500080
(1469304098.915389) can0 621#1100000000000000
(1469304098.915599) can0 610#2000006480FFFD60
(1469304098.916987) can0 443#4300802F060F0F0F
(1469304098.924389) can0 622#1200481000000000
(1469304098.927647) can0 611#21000020000062D4
(1469304098.933388) can0 623#1900000000000000
(1469304098.939639) can0 618#2200000080000000
(1469304098.942385) can0 624#1A00414949400000
(1469304098.949607) can0 020#0000072B
(1469304098.951384) can0 626#1C00300000000000
(1469304098.951598) can0 619#230000000C003A80
(1469304098.960397) can0 638#1300180100000000
(1469304098.961629) can0 020#0000072B
(1469304098.961921) can0 0B4#00000000020000BE
(1469304098.962125) can0 223#0008000000000035
(1469304098.962408) can0 420#0000000000008AB6
(1469304098.963638) can0 61A#2400000000014F60
(1469304098.969330) can0 63C#98005A5245172060
(1469304098.973882) can0 020#0000072B
(1469304098.973969) can0 0BA#06008044
(1469304098.974300) can0 224#0000000000000048
(1469304098.974536) can0 4C3#0300000100000000
(1469304098.975646) can0 61C#2600000000000000
(1469304098.978361) can0 63D#9900444558534B00
(1469304098.979962) can0 0AA#1A6F1A6F1A6F1A6F
(1469304098.980100) can0 1AA#0000000000B1
(1469304098.985388) can0 440#4202001101000000
(1469304098.985904) can0 020#0000072B
(1469304098.986189) can0 0B4#00000000020000BE
(1469304098.986377) can0 223#0008000000000035
(1469304098.987385) can0 6E1#A100030000F00000
(1469304098.987683) can0 640#A800000001350000
(1469304098.992044) can0 0AA#1A6F1A6F1A6F1A6F
(1469304098.996390) can0 680#D800010000000000
(1469304098.997985) can0 020#0000072B
(1469304098.998090) can0 0BA#06008044
(1469304098.998400) can0 224#0000000000000048
(1469304099.004066) can0 0AA#1A6F1A6F1A6F1A6F
(1469304099.005363) can0 6E2#A200CCFEFEFEFEFE
(1469304099.010009) can0 020#0000072B
(1469304099.010242) can0 0B4#00000000020000BE
(1469304099.010544) can0 223#0008000000000035
(1469304099.016115) can0 0AA#1A6F1A6F1A6F1A6F
(1469304099.016986) can0 443#4301802F06000000
(1469304099.017958) can0 263#0000000001006D
(1469304099.019010) can0 1C4#0000000000003E0B
(1469304099.022033) can0 020#0000072B
(1469304099.022128) can0 0BA#06008044
(1469304099.022509) can0 224#0000000000000048
(1469304099.027051) can0 354#00
(1469304099.028139) can0 0AA#1A6F1A6F1A6F1A6F
(1469304099.028281) can0 1AA#0000000000B1
(1469304099.028353) can0 1C8#00
(1469304099.034055) can0 020#0000072B
(1469304099.034357) can0 0B4#00000000020000BE
(1469304099.034562) can0 223#0008000000000035
(1469304099.036437) can0 1D0#00000100000000DA
(1469304099.037441) can0 2C1#08FFD412A1BE0017
(1469304099.037634) can0 3F9#5198260100000014
(1469304099.040169) can0 0AA#1A6F1A6F1A6F1A6F
(1469304099.042583) can0 263#00000000B0001C
(1469304099.043596) can0 1C4#000028000000FFF4
(1469304099.044502) can0 1C8#00
(1469304099.046106) can0 020#0000072B
(1469304099.046200) can0 0BA#06008044
(1469304099.046535) can0 224#0000000000000048
(1469304099.047739) can0 4C1#0100000500000000
(1469304099.052214) can0 0AA#1A6F1A6F1A6F1A6F
(1469304099.052863) can0 361#00A0000700000000
(1469304099.054915) can0 3BC#0020000000000000
(1469304099.055837) can0 3BB#8000B000
(1469304099.056936) can0 399#00000000000000
(1469304099.057800) can0 3D0#00
(1469304099.058144) can0 020#0000072B
(1469304099.058378) can0 0B4#00000000020000BE
(1469304099.058648) can0 223#0008000000000035
(1469304099.060364) can0 620#1080FFFFA0500080
(1469304099.060867) can0 1C8#00
(1469304099.061981) can0 38A#1C04000000
(1469304099.064200) can0 0AA#1A6F1A6F1A6F1A6F
(1469304099.067209) can0 263#00000000B0001C
(1469304099.068263) can0 1C4#000028000000FFF4
(1469304099.069260) can0 1D0#0000010000AC0086
(1469304099.070156) can0 020#0000072B
(1469304099.070250) can0 0BA#06008044
(1469304099.070585) can0 224#0000000000000048
(1469304099.070790) can0 2C1#08FFD412A1BE0017
(1469304099.076192) can0 0AA#1A6F1A6F1A6F1A6F
(1469304099.076458) can0 1AA#0000000000B1
(1469304099.077324) can0 1C8#00
(1469304099.082160) can0 020#0000072B
(1469304099.082391) can0 0B4#00000000020000BE
(1469304099.082608) can0 223#0008000000000035
(1469304099.083563) can0 442#4302000001000000
(1469304099.088225) can0 0AA#1A6F1A6F1A6F1A6F
(1469304099.091812) can0 263#00000000B0001C
(1469304099.092874) can0 1C4#000028000000FFF4
(1469304099.093690) can0 1C8#00
(1469304099.094177) can0 020#0000072B
(1469304099.094271) can0 0BA#06008044
(1469304099.094569) can0 224#0000000000000048
(1469304099.097262) can0 260#0E00000000000078
(1469304099.100314) can0 0AA#1A6F1A6F1A6F1A6F
(1469304099.102085) can0 1D0#0000010000AC0086
(1469304099.102178) can0 351#00000000
(1469304099.103085) can0 2C1#08FFD412A1BE0017
(1469304099.106230) can0 020#0000072B
(1469304099.106477) can0 0B4#00000000020000BE
(1469304099.106682) can0 223#0008000000000035
(1469304099.106984) can0 025#000000027000009F
(1469304099.107154) can0 262#000000016A
(1469304099.110131) can0 1C8#00
(1469304099.112162) can0 4C8#0900000000000000
(1469304099.112333) can0 0AA#1A6F1A6F1A6F1A6F
(1469304099.116411) can0 263#00000000B0001C
(1469304099.117236) can0 260#0E00000000000078
(1469304099.117470) can0 1C4#000028000000FFF4
(1469304099.118278) can0 020#0000072B
(1469304099.118453) can0 0BA#06008044
(1469304099.118664) can0 224#0000000000000048
(1469304099.118962) can0 025#000000027000009F
(1469304099.119152) can0 361#00A0000700000000
(1469304099.122011) can0 394#4300
(1469304099.124324) can0 0AA#1A6F1A6F1A6F1A6F
(1469304099.124542) can0 1AA#0000000000B1
(1469304099.126553) can0 1C8#00
(1469304099.127050) can0 4C6#0700030000000000
(1469304099.130310) can0 020#0000072B
(1469304099.130509) can0 0B4#00000000020000BE
(1469304099.130763) can0 223#0008000000000035
(1469304099.131018) can0 025#000000027000009F
(1469304099.131908) can0 423#00
(1469304099.134886) can0 1D0#0000010000AC0086
(1469304099.135896) can0 2C1#08FFD412A1BE0017
(1469304099.136414) can0 0AA#1A6F1A6F1A6F1A6F
(1469304099.137236) can0 260#0E00000000000078
(1469304099.141036) can0 263#00000000B0001C
(1469304099.142085) can0 1C4#000028000000FFF4
(1469304099.142277) can0 020#0000072B
(1469304099.142450) can0 0BA#06008044
(1469304099.142702) can0 224#0000000000000048
(1469304099.142952) can0 025#000000027000009F
(1469304099.143008) can0 1C8#00
(1469304099.147182) can0 262#000000016A
(1469304099.148446) can0 0AA#1A6F1A6F1A6F1A6F
(1469304099.154388) can0 020#0000072B
(1469304099.154585) can0 0B4#00000000020000BE
(1469304099.154837) can0 025#000000027000009F
(1469304099.155082) can0 223#0008000000000035
(1469304099.157264) can0 260#0E00000000000078
(1469304099.159351) can0 1C8#00
(1469304099.160512) can0 0AA#1A6F1A6F1A6F1A6F
(1469304099.162030) can0 351#00000000
(1469304099.165571) can0 263#00000000B0001C
(1469304099.166427) can0 020#0000072B
(1469304099.166507) can0 0BA#06008044
(1469304099.166853) can0 1C4#000028000000FFF4
(1469304099.167032) can0 025#000000027000009F
(1469304099.167287) can0 224#0000000000000048
(1469304099.167718) can0 1D0#0000010000AC0086
(1469304099.168711) can0 2C1#08FFD412A1BE0017
(1469304099.172512) can0 0AA#1A6F1A6F1A6F1A6F
(1469304099.172656) can0 1AA#0000000000B1
(1469304099.172913) can0 3B7#583B000000000008
(1469304099.175719) can0 1C8#00
(1469304099.177186) can0 260#0E00000000000078
(1469304099.178504) can0 020#0000072B
(1469304099.178657) can0 0B4#00000000020000BE
(1469304099.178958) can0 025#000000027000009F
(1469304099.179157) can0 223#0008000000000035
(1469304099.181994) can0 443#4202002F06000000
(1469304099.184119) can0 361#00A0000700000000
(1469304099.184516) can0 0AA#1A6F1A6F1A6F1A6F
(1469304099.185294) can0 440#4201001101000000
(1469304099.187105) can0 262#000000016A
(1469304099.190263) can0 263#00000000B0001C
(1469304099.190453) can0 020#0000072B
(1469304099.190618) can0 0BA#06008044
(1469304099.190872) can0 224#0000000000000048
(1469304099.191150) can0 025#00010002900000C0
(1469304099.191379) can0 1C4#000028000000FFF4
(1469304099.192179) can0 1C8#00
(1469304099.196613) can0 0AA#1A6F1A6F1A6F1A6F
(1469304099.197184) can0 260#0E00000000000078
(1469304099.200539) can0 1D0#0000010000AC0086
(1469304099.201536) can0 2C1#08FFD412A1BE0017
(1469304099.202531) can0 020#0000072B
(1469304099.202778) can0 0B4#00000000020000BE
(1469304099.202982) can0 025#000000027000009F
(1469304099.203238) can0 223#0008000000000035
(1469304099.206637) can0 610#2080006480FFFD60
(1469304099.208643) can0 0AA#1A6F1A6F1A6F1A6F
(1469304099.208660) can0 1C8#00
(1469304099.214606) can0 020#0000072B
(1469304099.214699) can0 0BA#06008044
(1469304099.214981) can0 025#000000027000009F
(1469304099.215280) can0 224#0000000000000048
(1469304099.215463) can0 263#00000000B0001C
(1469304099.215873) can0 1C4#000028000000FFF4
(1469304099.217211) can0 260#0E00000000000078
(1469304099.218635) can0 611#21800020000062D4
(1469304099.220713) can0 0AA#1A6F1A6F1A6F1A6F
(1469304099.220881) can0 1AA#0000000000B1
(1469304099.222005) can0 351#00000000
(1469304099.225003) can0 1C8#00
(1469304099.226657) can0 020#0000072B
(1469304099.226973) can0 0B4#00000000020000BE
(1469304099.227132) can0 223#0008000000000035
(1469304099.227325) can0 262#000000016A
(1469304099.227837) can0 025#00010002900000C0
(1469304099.230634) can0 618#2280000080000000
(1469304099.232187) can0 354#07
(1469304099.232933) can0 0AA#1A6F1A6F1A6F1A6F
(1469304099.233296) can0 1D0#0000010000AC0086
(1469304099.234298) can0 2C1#08FFD412A1BE0017
(1469304099.237187) can0 260#0E00000000000078
(1469304099.238881) can0 020#0000072B
(1469304099.238974) can0 0BA#06008044
(1469304099.239301) can0 224#0000000000000048
(1469304099.239482) can0 263#00000000B0001C
(1469304099.239787) can0 025#000000027000009F
(1469304099.240537) can0 1C4#000028000000FFF4
(1469304099.241400) can0 1C8#00
(1469304099.242634) can0 619#238000000C003A80
(1469304099.244988) can0 0AA#1A6F1A6F1A6F1A6F
(1469304099.249788) can0 361#00A0000700000000
(1469304099.250929) can0 020#0000072B
(1469304099.251168) can0 0B4#00000000020000BE
(1469304099.251511) can0 223#0008000000000035
(1469304099.251767) can0 025#000000027000009F
(1469304099.254613) can0 61A#2480000000014F60
(1469304099.257037) can0 0AA#1A6F1A6F1A6F1A6F
(1469304099.257232) can0 260#0E00000000000078
(1469304099.257825) can0 1C8#00
(1469304099.262984) can0 020#0000072B
(1469304099.263078) can0 0BA#06008044
(1469304099.263397) can0 224#0000000000000048
(1469304099.263744) can0 025#00010002900000C0
(1469304099.264112) can0 263#00000000B0001C
(1469304099.265116) can0 1C4#00CD28000000FFC1
(1469304099.266184) can0 1D0#0000010000AC0086
(1469304099.266602) can0 61C#2680000000000000
(1469304099.267160) can0 2C1#08FFD412A1BE0017
(1469304099.267253) can0 262#000000016A
(1469304099.269064) can0 0AA#1A6F1A6F1A6F1A6F
(1469304099.269230) can0 1AA#0000000000B1
(1469304099.272788) can0 383#0100010000000000
(1469304099.273108) can0 381#0000000080000000
(1469304099.273347) can0 4DC#1D00000200000000
(1469304099.274251) can0 1C8#00
(1469304099.274960) can0 020#0000072B
(1469304099.275233) can0 0B4#00000000020000BE
(1469304099.275467) can0 223#0008000000000035
(1469304099.275742) can0 025#000000027000009F
(1469304099.277187) can0 260#0E00000000000078
(1469304099.281113) can0 0AA#1A6F1A6F1A6F1A6F
(1469304099.281983) can0 351#00000000
(1469304099.284616) can0 442#4302000001000000
(1469304099.287073) can0 020#0000072B
(1469304099.287153) can0 0BA#06008044
(1469304099.287511) can0 224#0000000000000048
(1469304099.287685) can0 025#000000027000009F
(1469304099.288734) can0 263#00000000B0001C
(1469304099.289762) can0 1C4#00EF28000000FFE3
(1469304099.290653) can0 1C8#00
(1469304099.293164) can0 0AA#1A6F1A6F1A6F1A6F
(1469304099.293859) can0 3F9#5198260100000014
(1469304099.297057) can0 260#0E00000000000078
(1469304099.299036) can0 1D0#0000010000AC0086
(1469304099.299107) can0 020#0000072B
(1469304099.299510) can0 0B4#00000000020000BE
(1469304099.299616) can0 223#0008000000000035
(1469304099.299937) can0 025#000000027000009F
(1469304099.300142) can0 2C1#08052C12A1E900A0
(1469304099.305217) can0 0AA#1A6F1A6F1A6F1A6F
(1469304099.306993) can0 262#000000016A
(1469304099.307061) can0 1C8#00
(1469304099.311162) can0 020#0000072B
(1469304099.311226) can0 0BA#06008044
(1469304099.311601) can0 224#0000000000000048
(1469304099.311785) can0 025#000000027000009F
(1469304099.313338) can0 263#00000000B0001C
(1469304099.314366) can0 1C4#014828000000FF3D
(1469304099.314428) can0 3D0#00
(1469304099.315407) can0 361#00A0000000000000
(1469304099.317100) can0 260#0E00000000000078
(1469304099.317331) can0 0AA#1A6F1A6F1A6F1A6F
(1469304099.317523) can0 1AA#0000000000B1
(1469304099.323105) can0 020#0000072B
(1469304099.323348) can0 0B4#00000000020000BE
(1469304099.323608) can0 025#000000027000009F
(1469304099.323676) can0 1C8#00
(1469304099.323959) can0 223#0008000000000035
(1469304099.326915) can0 387#0000000000003F3F
(1469304099.329204) can0 0AA#1A6F1A6F1A6F1A6F
(1469304099.331744) can0 1D0#0000010000AC0086
(1469304099.332731) can0 2C1#08052E12A3E900A4
(1469304099.334031) can0 4DD#1E00000000000000
(1469304099.335151) can0 020#0000072B
(1469304099.335325) can0 0BA#06008044
(1469304099.335584) can0 224#0000000000000048
(1469304099.335810) can0 025#000000027000009F
(1469304099.337060) can0 260#0E00000000000078
(1469304099.337954) can0 263#00000000B0001C
(1469304099.338980) can0 1C4#015128000000FF46
(1469304099.339872) can0 1C8#00
(1469304099.341281) can0 0AA#1A6F1A6F1A6F1A6F
(1469304099.341953) can0 351#00000000
(1469304099.346977) can0 262#000000016A
(1469304099.347162) can0 020#0000072B
(1469304099.347457) can0 0B4#00000000020000BE
(1469304099.347684) can0 025#000000027000009F
(1469304099.347952) can0 223#0008000000000035
(1469304099.353309) can0 0AA#1A6F1A6F1A6F1A6F
(1469304099.354082) can0 024#5E0009FF4A088064
(1469304099.356008) can0 389#0000000000000000
(1469304099.356227) can0 1C8#00
(1469304099.357045) can0 260#0E00000000000078
(1469304099.359248) can0 020#0000072B
(1469304099.359362) can0 0BA#06008044
(1469304099.359659) can0 224#0000000000000048
(1469304099.359941) can0 025#00010002900000C0
(1469304099.360266) can0 620#1000FFFFA0500080
(1469304099.362518) can0 263#00000000B0001C
(1469304099.363612) can0 1C4#014628000000FF3B
(1469304099.364629) can0 1D0#0000010000AC0086
(1469304099.365356) can0 0AA#1A6F1A6F1A6F1A6F
(1469304099.365517) can0 1AA#0000000000B1
(1469304099.365735) can0 2C1#08052E12A3E900A4
(1469304099.366014) can0 024#5E0009FD4A088062
(1469304099.371222) can0 020#0000072B
(1469304099.371450) can0 0B4#00000000020000BE
(1469304099.371747) can0 025#00010002900000C0
(1469304099.371992) can0 223#0008000000000035
(1469304099.372654) can0 1C8#00
(1469304099.377040) can0 260#0E00000000000078
(1469304099.377335) can0 0AA#1A6F1A6F1A6F1A6F
(1469304099.378081) can0 024#5E0009FA4A0A8061
(1469304099.381033) can0 361#00A0000000000000
(1469304099.381983) can0 443#4002002F06000000
(1469304099.383289) can0 020#0000072B
(1469304099.383440) can0 0BA#060000C4
(1469304099.383714) can0 224#0000000000000048
(1469304099.384002) can0 025#00010002900000C0
(1469304099.387004) can0 38E#2020000000000000
(1469304099.387086) can0 262#000000016A
(1469304099.387357) can0 263#00000000B0001C
(1469304099.388204) can0 1C4#014E28000000FF43
(1469304099.389094) can0 1C8#00
(1469304099.389503) can0 0AA#1A6F1A6F1A6F1A6F
(1469304099.390080) can0 024#5E0009F84A08805D
(1469304099.395401) can0 020#0000072B
(1469304099.395664) can0 0B4#00000000020000BE
(1469304099.395864) can0 025#00010002900000C0
(1469304099.396089) can0 223#0008000000000035
(1469304099.397045) can0 260#0E00000000000078
(1469304099.397505) can0 1D0#0031010000AC00B7
(1469304099.398432) can0 2C1#08052E12A3E900A4
(1469304099.401506) can0 0AA#1A6F1A6F1A6F1A6F
(1469304099.401900) can0 351#00000000
(1469304099.402162) can0 024#5E0009FA4A0A8061
(1469304099.405497) can0 1C8#00
(1469304099.407423) can0 020#0000072B
(1469304099.407551) can0 0BA#060000C4
(1469304099.407791) can0 224#0000000000000048
(1469304099.408586) can0 025#000000027000009F
(1469304099.411786) can0 263#00000000B0001C
(1469304099.412810) can0 1C4#017128000000FF66
(1469304099.413561) can0 0AA#1A6F1A6F1A6F1A6F
(1469304099.413667) can0 1AA#0000000000B1
(1469304099.414108) can0 024#5E0009FB4A0A8062
(1469304099.416950) can0 38F#0300000000000000
(1469304099.417172) can0 260#0E00000000000078
(1469304099.419411) can0 020#0000072B
(1469304099.419651) can0 0B4#00000000020000BE
(1469304099.419896) can0 223#0008000000000035
(1469304099.420542) can0 025#000000027000009F
(1469304099.421746) can0 394#4300
(1469304099.421860) can0 1C8#00
(1469304099.422711) can0 382#3838380000000000
(1469304099.425568) can0 0AA#1A6F1A6F1A6F1A6F
(1469304099.426044) can0 024#5E0009FF4A088064
(1469304099.426941) can0 262#000000016A
(1469304099.430209) can0 1D0#014E010000AC00D5
(1469304099.431190) can0 2C1#08052C12A4E900A3
(1469304099.431478) can0 020#0000072B
(1469304099.431648) can0 0BA#060000C4
(1469304099.431926) can0 224#0000000000000048
(1469304099.432509) can0 025#000000027000009F
(1469304099.436369) can0 263#00000000B0001C
(1469304099.437009) can0 260#0E00000000000078
(1469304099.437355) can0 1C4#028D28080000FF8B
(1469304099.437578) can0 0AA#1A6F1A6F1A6F1A6F
(1469304099.437643) can0 354#07
(1469304099.437992) can0 024#5E000A014A068065
(1469304099.438231) can0 1C8#00
(1469304099.443537) can0 020#0000072B
(1469304099.443813) can0 0B4#00000000020000BE
(1469304099.444067) can0 223#0008000000000035
(1469304099.444565) can0 025#00010002900000C0
(1469304099.446634) can0 361#0054000000000000
(1469304099.446927) can0 3A5#0000000000007EFC
(1469304099.449815) can0 0AA#1A6F1A6F1A6F1A6F
(1469304099.450069) can0 024#5E000A014A088067
(1469304099.454677) can0 1C8#80
(1469304099.455791) can0 020#0000072B
(1469304099.455924) can0 0BA#060000C4
(1469304099.456206) can0 224#0000000000000048
(1469304099.456483) can0 025#000000027000009F
(1469304099.456952) can0 260#0E00000000000078
(1469304099.460985) can0 263#00000000B0001C
(1469304099.461785) can0 351#00000000
(1469304099.462007) can0 0AA#1A6F1A6F1A6F1A6F
(1469304099.462257) can0 024#5E0009FF4A0C8068
(1469304099.462456) can0 1AA#0000000000B1
(1469304099.462707) can0 1C4#037428080000FF73
(1469304099.463107) can0 1D0#0256010000AC00DE
(1469304099.464012) can0 2C1#0805300A5BE90056
(1469304099.466937) can0 262#000000016A
(1469304099.467807) can0 020#0000072B
(1469304099.468075) can0 0B4#00000000020000BE
(1469304099.468325) can0 223#0008000000000035
(1469304099.468537) can0 025#000000027000009F
(1469304099.471154) can0 1C8#80
(1469304099.473988) can0 0AA#1A6F1A6F1A6F1A6F
(1469304099.474131) can0 024#5E0009F84A0C8061
(1469304099.474509) can0 3B7#583B000000000008
(1469304099.476988) can0 413#0101010900000000
(1469304099.477276) can0 260#0E00000000000078
(1469304099.479879) can0 020#0000072B
(1469304099.479990) can0 0BA#060000C4
(1469304099.480287) can0 224#0000000000000048
(1469304099.480548) can0 025#000000027000009F
(1469304099.480771) can0 440#4202001101000000
(1469304099.481020) can0 6E1#A180000000100000
(1469304099.485599) can0 263#00000000B0001C
(1469304099.485969) can0 0AA#1A6F1A6F1A6F1A6F
(1469304099.486199) can0 024#5E0009F14A088056
(1469304099.486617) can0 1C4#03FF28080000FFFE
(1469304099.487514) can0 1C8#80
(1469304099.491935) can0 020#0000072B
(1469304099.492188) can0 0B4#00000000020000BE
(1469304099.492512) can0 223#0008000000000035
(1469304099.492599) can0 025#000000027000009F
(1469304099.495916) can0 1D0#054A010000AC00D5
(1469304099.496885) can0 2C1#0804DE0A59E600FE
(1469304099.497098) can0 260#0E00000000000078
(1469304099.498035) can0 0AA#1A6F1A6F1A6F1A6F
(1469304099.498182) can0 024#5E0009F34A088058
(1469304099.503989) can0 020#0000072B
(1469304099.504096) can0 0BA#060000C4
(1469304099.504171) can0 1C8#80
(1469304099.504513) can0 025#00010002900000C0
(1469304099.504708) can0 224#0000000000000048
(1469304099.506932) can0 262#000000016A
(1469304099.507146) can0 434#3F00000000000000
(1469304099.510092) can0 0AA#1A6F1A6F1A6F1A6F
(1469304099.510258) can0 024#5E0009FB4A0C8064
(1469304099.510464) can0 1AA#0000000000B1
(1469304099.510708) can0 263#00000000B0001C
(1469304099.511282) can0 1C4#048F28080000FF8F
(1469304099.512301) can0 361#0053000000000000
(1469304099.516007) can0 020#0000072B
(1469304099.516237) can0 0B4#00000000020000BE
(1469304099.516487) can0 025#000000027000009F
(1469304099.516721) can0 223#0008000000000035
(1469304099.516961) can0 260#0E00000000000078
(1469304099.520342) can0 1C8#80
(1469304099.521806) can0 351#00000000
(1469304099.522118) can0 0AA#1A6F1A6F1A6F1A6F
(1469304099.522276) can0 024#5E000A054A0C806F
(1469304099.527987) can0 020#0000072B
(1469304099.528140) can0 0BA#060000C4
(1469304099.528459) can0 224#0000000000000048
(1469304099.528659) can0 025#000000027000009F
(1469304099.528736) can0 3D3#0177
(1469304099.529054) can0 1D0#079F010000AC002C
(1469304099.529710) can0 2C1#0804310A3BE1002E
(1469304099.531241) can0 6E2#A28000FEFEFEFEFE
(1469304099.534135) can0 024#5E000A084A0A8070
(1469304099.534308) can0 0AA#1A6F1A6F1A6F1A6F
(1469304099.534563) can0 3B1#00000E0A00080000
(1469304099.534784) can0 4AC#0802200500000004
(1469304099.535016) can0 263#00000000B0001C
(1469304099.535896) can0 1C4#04E128080000FFE1
(1469304099.536730) can0 1C8#80
(1469304099.537036) can0 260#0E00000000000078
(1469304099.537263) can0 435#0F0505FFE00FE003
(1469304099.540081) can0 020#0000072B
(1469304099.540250) can0 0B4#00000000020000BE
(1469304099.540586) can0 025#000000027000009F
(1469304099.540784) can0 223#0008000000000035
(1469304099.546139) can0 024#5E000A034A088069
(1469304099.546308) can0 0AA#1A6F1A6F1A6F1A6F
(1469304099.546906) can0 262#000000016A
(1469304099.550211) can0 3F9#5198260100000014
(1469304099.552113) can0 020#0000072B
(1469304099.552206) can0 0BA#060000C4
(1469304099.552536) can0 224#0000000000000048
(1469304099.552733) can0 025#000000027000009F
(1469304099.553198) can0 1C8#80
(1469304099.556964) can0 260#0E00000000000078
(1469304099.558136) can0 024#5E0001FB42088050
(1469304099.558308) can0 0AA#1A6F1A6F1A6F1A6F
(1469304099.558511) can0 1AA#0000000000B1
(1469304099.559463) can0 263#00000000B0001C
(1469304099.560512) can0 1C4#053428080000FF35
(1469304099.561560) can0 1D0#0938010000AC00C7
(1469304099.562509) can0 2C1#0803BB09FFDD0076
(1469304099.564159) can0 020#0000072B
(1469304099.564388) can0 0B4#00000000020000BE
(1469304099.564634) can0 025#000000027000009F
(1469304099.564878) can0 223#000000000000002D
(1469304099.567010) can0 436#0000000000000000
(1469304099.569591) can0 1C8#80
(1469304099.570132) can0 024#5E0001F142088046
(1469304099.570307) can0 0AA#1A6F1A6F1A6F1A6F
(1469304099.570553) can0 3D0#00
(1469304099.575615) can0 442#4302000001000000
(1469304099.575808) can0 3B0#00B5000000000000
(1469304099.576207) can0 020#0000072B
(1469304099.576304) can0 0BA#060000C4
(1469304099.576614) can0 025#00010002900000C0
(1469304099.576808) can0 224#0000000000000048
(1469304099.577086) can0 260#0E00000000000078
(1469304099.577856) can0 361#004E000000000000
(1469304099.581784) can0 351#00000000
(1469304099.582134) can0 024#5E0001EF42068042
(1469304099.582302) can0 0AA#1A6F1A6F1A6F1A6F
(1469304099.584119) can0 263#00000000B0001C
(1469304099.585137) can0 1C4#05B928080000FFBA
(1469304099.586029) can0 1C8#80
(1469304099.586906) can0 262#000000016A
(1469304099.588207) can0 020#0000072B
(1469304099.588466) can0 0B4#00000000020000BE
(1469304099.588694) can0 025#00010002900000C0
(1469304099.588923) can0 223#000000000000002D
(1469304099.594095) can0 024#5E0001F442088049
(1469304099.594323) can0 0AA#1A6F1A6F1A6F1A6F
(1469304099.594629) can0 1D0#0AC0010000AC0050
(1469304099.595336) can0 2C1#0802F409D6D7007F
(1469304099.596989) can0 260#0E00000000000078
(1469304099.597184) can0 437#FCFFFFFFFFFFFFFF
(1469304099.600239) can0 020#0000072B
(1469304099.600454) can0 0BA#060000C4
(1469304099.600653) can0 224#0000000000000048
(1469304099.601405) can0 025#00010002900000C0
(1469304099.602427) can0 1C8#80
(1469304099.606139) can0 024#5E000201420C805B
(1469304099.606368) can0 0AA#1A6F1A6F1A6F1A6F
(1469304099.606557) can0 1AA#0000000000B1
(1469304099.608691) can0 263#00000000B0001C
(1469304099.609690) can0 1C4#062F28080000FF31
(1469304099.612308) can0 020#0000072B
(1469304099.612509) can0 0B4#00000000020000BE
(1469304099.612763) can0 223#000000000000002D
(1469304099.613509) can0 025#00010002900000C0
(1469304099.616926) can0 260#0E00000000000078
(1469304099.618137) can0 024#5E000208420D8063
(1469304099.618450) can0 0AA#1A6F1A6F1A6F1A6F
(1469304099.618816) can0 1C8#80
(1469304099.620763) can0 380#0000000000008000
(1469304099.624395) can0 020#0000072B
(1469304099.624473) can0 0BA#060000C4
(1469304099.624766) can0 224#0000000000000048
(1469304099.625383) can0 025#000000027000009F
(1469304099.626856) can0 262#000000016A
(1469304099.626968) can0 384#F0F000000000
(1469304099.627308) can0 1D0#0BFB010000AC008C
(1469304099.628164) can0 2C1#08023F0974D10062
(1469304099.630134) can0 024#5E000208420D8063
(1469304099.630474) can0 0AA#1A6F1A6F1A6F1A6F
(1469304099.633339) can0 263#00000000B0001C
(1469304099.634384) can0 1C4#06CE28080000FFD0
(1469304099.635252) can0 1C8#80
(1469304099.636405) can0 020#0000072B
(1469304099.636692) can0 0B4#00000000020000BE
(1469304099.636892) can0 223#000000000000002D
(1469304099.637182) can0 260#0E00000000000078
(1469304099.637514) can0 025#00010002900000C0
(1469304099.641736) can0 3A0#008D00000000006C
(1469304099.641819) can0 351#00000000
(1469304099.642152) can0 024#5E00020042088056
(1469304099.642512) can0 0AA#1A6F1A6F1A6F1A6F
(1469304099.642535) can0 354#01
(1469304099.643636) can0 361#0048000000000000
(1469304099.648516) can0 020#0000072B
(1469304099.648536) can0 0BA#060000C4
(1469304099.648876) can0 224#0000000000000048
(1469304099.649369) can0 025#000000027000009F
(1469304099.651678) can0 1C8#80
(1469304099.654139) can0 024#5E0001F642058048
(1469304099.654487) can0 0AA#1A6F1A6F1A6F1A6F
(1469304099.654649) can0 1AA#0000000000B1
(1469304099.656857) can0 260#0E00000000000078
(1469304099.657055) can0 386#000000070003
(1469304099.657959) can0 263#00000000B0001C
(1469304099.658922) can0 1C4#074B28080000FF4E
(1469304099.660013) can0 1D0#0D9A010000AC002D
(1469304099.660208) can0 620#1000FFFFA0500080
(1469304099.660456) can0 020#0000072B
(1469304099.660702) can0 0B4#00000000020000BE
(1469304099.660944) can0 223#000000000000002D
(1469304099.661200) can0 2C1#0801A108F3CD003D
(1469304099.661429) can0 025#00010002900000C0
(1469304099.666081) can0 024#560001EF42038037
(1469304099.666586) can0 0AA#1A6F1A6F1A6F1A6F
(1469304099.666779) can0 262#000000016A
(1469304099.668078) can0 1C8#80
(1469304099.672508) can0 020#0000072B
(1469304099.672602) can0 0BA#060000C4
(1469304099.672953) can0 224#0000000000000008
(1469304099.673350) can0 025#000000027000009F
(1469304099.676879) can0 260#0E00000000000078
(1469304099.677097) can0 443#4002002F06000000
(1469304099.678162) can0 024#560001F14206803C
(1469304099.678634) can0 0AA#1A6F1A6F1A6F1A6F
(1469304099.682560) can0 263#00000000B0001C
(1469304099.683516) can0 1C4#07BB28080000FFBE
(1469304099.684457) can0 1C8#80
(1469304099.684581) can0 020#0000072B
(1469304099.684835) can0 0B4#00000000020000BE
(1469304099.685084) can0 223#000000000000002D
(1469304099.685345) can0 025#00010002900000C0
(1469304099.686854) can0 3E6#0000000000
(1469304099.690069) can0 024#560001FA420C804B
(1469304099.690594) can0 0AA#1A6F1A6F1A6F1A6F
(1469304099.692851) can0 1D0#0F0C010000AC00A1
(1469304099.693815) can0 2C1#0800FE086BC7000B
(1469304099.696867) can0 260#0E00000000000078
(1469304099.696932) can0 020#0000072B
(1469304099.697188) can0 0BA#060000C4
(1469304099.697515) can0 224#0000000000000008
(1469304099.697598) can0 025#00010002900000C0
(1469304099.700908) can0 1C8#80
(1469304099.701709) can0 351#00000000
(1469304099.702159) can0 024#56000205420D8058
(1469304099.702864) can0 0AA#1A6F1A6F1A6F1A6F
(1469304099.703065) can0 1AA#0000000000B1
(1469304099.704624) can0 610#2000006480FFFD60
(1469304099.706786) can0 262#000000016A
(1469304099.707210) can0 263#00000000B0001C
(1469304099.708218) can0 1C4#083428080000FF38
(1469304099.708811) can0 020#0000072B
(1469304099.709045) can0 0B4#00000000020000BE
(1469304099.709270) can0 025#00010002900000C0
(1469304099.709520) can0 223#000000000000002D
(1469304099.709769) can0 361#0041000000000000
(1469304099.714170) can0 024#5600020A420C805C
(1469304099.714942) can0 0AA#1A6F1A6F1A6F1A6F
(1469304099.715991) can0 3E7#00000000000000
(1469304099.716866) can0 260#0E00000000000078
(1469304099.717305) can0 1C8#80
(1469304099.720892) can0 020#0000072B
(1469304099.720970) can0 0BA#060000C4
(1469304099.721258) can0 224#0000000000000008
(1469304099.721519) can0 025#000000027000009F
(1469304099.721592) can0 394#4300
(1469304099.725621) can0 610#2080006480FFFD60
(1469304099.725822) can0 1D0#1048010000AC00DE
(1469304099.726135) can0 024#5600020642088054
(1469304099.726644) can0 2C1#0800CA0798C60002
(1469304099.726988) can0 0AA#1A6F1A6F1A6F1A6F
(1469304099.731759) can0 263#00000000B0001C
(1469304099.732841) can0 1C4#087528080000FF79
(1469304099.732905) can0 020#0000072B
(1469304099.733257) can0 0B4#00000000020000BE
(1469304099.733465) can0 025#00010002900000C0
(1469304099.733693) can0 223#000000000000002D
(1469304099.733738) can0 1C8#80
(1469304099.736893) can0 260#0E00000000000078
(1469304099.737645) can0 618#2280000080000000
(1469304099.738164) can0 024#560001FB42068046
(1469304099.739040) can0 0AA#1A6F1A6F1A6F1A6F
(1469304099.743750) can0 3A0#008D00000000006C
(1469304099.744960) can0 020#0000072B
(1469304099.745028) can0 0BA#060000C4
(1469304099.745380) can0 224#0000000000000008
(1469304099.745581) can0 025#00010002900000C0
(1469304099.746016) can0 3E8#0000000000000000
(1469304099.746199) can0 024#520001F44206803B
(1469304099.746812) can0 262#000000016A
(1469304099.749619) can0 619#238000000C003A80
(1469304099.750186) can0 3BB#0000B000
(1469304099.750211) can0 1C8#80
(1469304099.751067) can0 0AA#1A6F1A6F1A6F1A6F
(1469304099.751200) can0 1AA#0000000000B1
(1469304099.756417) can0 263#00000000B0001C
(1469304099.756789) can0 260#0E00000000000078
(1469304099.756990) can0 020#0000072B
(1469304099.757244) can0 0B4#00000000020000BE
(1469304099.757492) can0 025#00010002900000C0
(1469304099.757743) can0 1C4#08BA28080000FFBE
(1469304099.757989) can0 223#000000000000002D
(1469304099.758213) can0 024#520001EF420A803A
(1469304099.758441) can0 1D0#1122090000AC00C1
(1469304099.759444) can0 2C1#0800AF06C4C50011
(1469304099.761576) can0 61A#2480000000014F60
(1469304099.761707) can0 351#00000000
(1469304099.763091) can0 0AA#1A6F1A6F1A6F1A6F
(1469304099.766537) can0 1C8#80
(1469304099.769063) can0 020#0000072B
(1469304099.769148) can0 0BA#060000C4
(1469304099.769514) can0 224#0000000000000008
(1469304099.769716) can0 025#00010002900000C0
(1469304099.770187) can0 024#520001F4420C8041
(1469304099.773581) can0 61C#2680000000000000
(1469304099.774942) can0 361#0038000000000000
(1469304099.775126) can0 0AA#1A6F1A6F1A6F1A6F
(1469304099.775344) can0 3B7#583B000000000008
(1469304099.775600) can0 440#4202001101000000
(1469304099.776791) can0 260#0E00000000000078
(1469304099.776995) can0 3E9#0000000000000000
(1469304099.781066) can0 263#00000000B0001C
(1469304099.781150) can0 020#0000072B
(1469304099.781517) can0 0B4#00000000020000BE
(1469304099.781704) can0 223#000000000000002D
(1469304099.782014) can0 1C4#08E728080000FFEB
(1469304099.782236) can0 024#520001FD420C804A
(1469304099.782493) can0 025#000000027000009F
(1469304099.782909) can0 1C8#80
(1469304099.786810) can0 262#000000016A
(1469304099.787163) can0 0AA#1A6F1A6F1A6F1A6F
(1469304099.791244) can0 620#1080FFFFB0500080
(1469304099.791488) can0 1D0#11CE090000AC006D
(1469304099.792319) can0 2C1#08009A05FCC40032
(1469304099.793115) can0 020#0000072B
(1469304099.793202) can0 0BA#060000C4
(1469304099.793539) can0 224#0000000000000008
(1469304099.794189) can0 024#520002054208804F
(1469304099.794392) can0 025#000000027000009F
(1469304099.796867) can0 260#0E00000000000078
(1469304099.799190) can0 0AA#1A6F1A6F1A6F1A6F
(1469304099.799374) can0 1AA#0000000000B1
(1469304099.799431) can0 1C8#80
(1469304099.805136) can0 020#0000072B
(1469304099.805372) can0 0B4#00000000020000BE
(1469304099.805608) can0 223#000000000000002D
(1469304099.805827) can0 263#00000000B0001C
(1469304099.806187) can0 024#5200020842068050
(1469304099.806388) can0 025#00010002900000C0
(1469304099.806790) can0 1C4#091228080000FF17
(1469304099.807092) can0 3F9#5198260100000014
(1469304099.811270) can0 0AA#1A6F1A6F1A6F1A6F
(1469304099.815885) can0 1C8#80
(1469304099.816765) can0 260#0E00000000000078
(1469304099.817207) can0 020#0000072B
(1469304099.817274) can0 0BA#060000C4
(1469304099.817637) can0 224#0000000000000008
(1469304099.818190) can0 024#520002034208804D
(1469304099.818420) can0 025#00010002900000C0
(1469304099.821663) can0 351#00000000
(1469304099.823314) can0 0AA#1A6F1A6F1A6F1A6F
(1469304099.824299) can0 1D0#124D090000AC00ED
(1469304099.825266) can0 2C1#08008E0541C4006B
(1469304099.826716) can0 262#000000016A
(1469304099.827228) can0 3D0#00
(1469304099.829262) can0 020#0000072B
(1469304099.829466) can0 0B4#00000000020000BE
(1469304099.829720) can0 223#000000000000002D
(1469304099.830187) can0 024#520001FA420A8045
(1469304099.830389) can0 025#00010002900000C0
(1469304099.830619) can0 263#00000000B0001C
(1469304099.831468) can0 1C4#092828080000FF2D
(1469304099.832305) can0 1C8#80
(1469304099.835323) can0 0AA#1A6F1A6F1A6F1A6F
(1469304099.836793) can0 260#0E00000000000078
(1469304099.839723) can0 3A0#008D00000000006C
(1469304099.840765) can0 361#0030000000000000
(1469304099.841309) can0 020#0000072B
(1469304099.841448) can0 0BA#060000C4
(1469304099.841689) can0 224#0000000000000008
(1469304099.842139) can0 025#000000027000009F
(1469304099.842389) can0 024#520001F3420D8041
(1469304099.847355) can0 0AA#1A6F1A6F1A6F1A6F
(1469304099.847591) can0 1AA#0000000000B1
(1469304099.847722) can0 354#01
(1469304099.848810) can0 1C8#80
(1469304099.853366) can0 020#0000072B
(1469304099.853539) can0 0B4#00000000020000BE
(1469304099.853795) can0 223#000000000000002D
(1469304099.854142) can0 024#520001F3420C8040
(1469304099.854468) can0 025#000000027000009F
(1469304099.855051) can0 263#00000000B0001C
(1469304099.856151) can0 1C4#093A28080000FF3F
(1469304099.856841) can0 260#0E00000000000078
(1469304099.857192) can0 1D0#129A090000AC003A
(1469304099.858123) can0 2C1#080087049DC400BF
(1469304099.859480) can0 0AA#1A6F1A6F1A6F1A6F
(1469304099.865259) can0 1C8#80
(1469304099.865347) can0 020#0000072B
(1469304099.865613) can0 0BA#060000C4
(1469304099.865816) can0 224#0000000000000008
(1469304099.866126) can0 025#00010002900000C0
(1469304099.866349) can0 024#520001FB42088044
(1469304099.866644) can0 262#000000016A
(1469304099.871481) can0 0AA#1A6F1A6F1A6F1A6F
(1469304099.875619) can0 442#4302000001000000
(1469304099.876746) can0 260#0E00000000000078
(1469304099.877435) can0 020#0000072B
(1469304099.877653) can0 0B4#00000000020000BE
(1469304099.877898) can0 223#000000000000002D
(1469304099.878176) can0 024#5200020142068049
(1469304099.878472) can0 025#00010002900000C0
(1469304099.879677) can0 263#00000000B0001C
(1469304099.880695) can0 1C4#093D28080000FF42
(1469304099.881590) can0 351#00000000
(1469304099.881685) can0 1C8#80
(1469304099.883470) can0 0AA#1A6F1A6F1A6F1A6F
(1469304099.889515) can0 020#0000072B
(1469304099.889543) can0 0BA#060000C4
(1469304099.889900) can0 224#0000000000000008
(1469304099.890110) can0 025#00010002900000C0
(1469304099.890389) can0 024#520002054206804D
(1469304099.890571) can0 1D0#12B4090000AC0054
(1469304099.891039) can0 2C1#0800840408C40027
(1469304099.895532) can0 0AA#1A6F1A6F1A6F1A6F
(1469304099.895685) can0 1AA#0000000000B1
(1469304099.896710) can0 260#0E00000000000078
(1469304099.898052) can0 1C8#80
(1469304099.901507) can0 020#0000072B
(1469304099.901704) can0 0B4#00000000020000BE
(1469304099.901954) can0 223#000000000000002D
(1469304099.902174) can0 024#520002034208804D
(1469304099.902430) can0 025#00010002900000C0
(1469304099.904367) can0 263#00000000B0001C
(1469304099.905347) can0 1C4#095828080000FF5D
(1469304099.906362) can0 361#002A000000000000
(1469304099.906661) can0 262#000000016A
(1469304099.907540) can0 0AA#1A6F1A6F1A6F1A6F
(1469304099.907782) can0 4C3#0300000100000000
(1469304099.913540) can0 020#0000072B
(1469304099.913611) can0 0BA#060000C4
(1469304099.913887) can0 224#0000000000000008
(1469304099.914123) can0 025#00010002900000C0
(1469304099.914513) can0 024#520001FD420A8048
(1469304099.915217) can0 621#1100000000000000
(1469304099.916766) can0 260#0E00000000000078
(1469304099.919824) can0 0AA#1A6F1A6F1A6F1A6F
(1469304099.922841) can0 1D0#12C1090000AC0061
(1469304099.923818) can0 2C1#08007E037FC30096
(1469304099.924214) can0 622#1200481000000000
(1469304099.925734) can0 020#0000072B
(1469304099.925987) can0 0B4#00000000020000BE
(1469304099.926223) can0 024#520001F6420C8043
(1469304099.926468) can0 025#000000027000009F
(1469304099.926685) can0 223#000000000000002D
(1469304099.928925) can0 263#00000000B0001C
(1469304099.930018) can0 1C4#095228080000FF57
(1469304099.930882) can0 1C8#80
(1469304099.931844) can0 0AA#1A6F1A6F1A6F1A6F
(1469304099.933215) can0 623#1900000000000000
(1469304099.936696) can0 260#0E00000000000078
(1469304099.937787) can0 020#0000072B
(1469304099.937873) can0 0BA#060000C4
(1469304099.938202) can0 224#0000000000000008
(1469304099.938514) can0 024#520001F6420A8041
(1469304099.938598) can0 025#00010002900000C0
(1469304099.941587) can0 351#00000000
(1469304099.941792) can0 3A0#008D00000000006C
(1469304099.942220) can0 624#1A00414949400000
(1469304099.943869) can0 0AA#1A6F1A6F1A6F1A6F
(1469304099.944053) can0 1AA#0000000000B1
(1469304099.946612) can0 262#000000016A
(1469304099.947385) can0 38A#0804000000
(1469304099.947409) can0 1C8#80
(1469304099.949814) can0 020#0000072B
(1469304099.950047) can0 0B4#00000000020000BE
(1469304099.950270) can0 024#520001FA42088043
(1469304099.950570) can0 025#00010002900000C0
(1469304099.950773) can0 223#000000000000002D
(1469304099.951216) can0 626#1C00300000000000
(1469304099.953592) can0 263#00000000B0001C
(1469304099.954625) can0 1C4#094528080000FF4A
(1469304099.955669) can0 1D0#12BA090000AC005A
(1469304099.955900) can0 0AA#1A6F1A6F1A6F1A6F
(1469304099.956641) can0 2C1#0800830302C4001F
(1469304099.956845) can0 260#0E00000000000078
(1469304099.960218) can0 638#1300180100000000
(1469304099.961885) can0 020#0000072B
(1469304099.961969) can0 0BA#060000C4
(1469304099.962302) can0 024#520001FF42088048
(1469304099.962527) can0 025#000000027000009F
(1469304099.962823) can0 224#0000000000000008
(1469304099.963710) can0 1C8#80
(1469304099.968000) can0 0AA#1A6F1A6F1A6F1A6F
(1469304099.968202) can0 420#00000000FB0182AA
(1469304099.969192) can0 63C#98005A5245172060
(1469304099.972067) can0 361#0024000000000000
(1469304099.973909) can0 020#0000072B
(1469304099.974161) can0 0B4#00000000020000BE
(1469304099.974367) can0 024#5200020142068049
(1469304099.974621) can0 223#000000000000002D
(1469304099.974883) can0 640#A800005701350000
(1469304099.975217) can0 025#000000027000009F
(1469304099.976703) can0 260#0E00000000000078
(1469304099.976999) can0 443#4002002F06000000
(1469304099.978148) can0 63D#9900444558534B00
(1469304099.978381) can0 263#00000000B0001C
(1469304099.979208) can0 1C4#093D28080000FF42
(1469304099.979977) can0 0AA#1A6F1A6F1A6F1A6F
(1469304099.980048) can0 1C8#80
(1469304099.981225) can0 4C1#0100000500000000
(1469304099.985937) can0 020#0000072B
(1469304099.986020) can0 0BA#060000C4
(1469304099.986351) can0 024#520002014208804B
(1469304099.986553) can0 224#0000000000000008
(1469304099.986740) can0 262#000000016A
(1469304099.987123) can0 025#000000027000009F
(1469304099.987348) can0 680#D800010000000000
(1469304099.988454) can0 1D0#129C090000AC003C
(1469304099.989471) can0 2C1#0800860297C400B6
(1469304099.992000) can0 0AA#1A6F1A6F1A6F1A6F
(1469304099.992223) can0 1AA#0000000000B1
(1469304099.996672) can0 260#0E00000000000078
(1469304099.996688) can0 1C8#80
(1469304099.997984) can0 020#0000072B
(1469304099.998228) can0 0B4#00000000020000BE
(1469304099.998502) can0 223#000000000000002D
(1469304099.999114) can0 025#000000027000009F
(1469304099.999317) can0 024#520001FD420A8048
(1469304100.001563) can0 351#00000000
(1469304100.002840) can0 263#00000000B0001C
(1469304100.003868) can0 1C4#092D28080000FF32
(1469304100.004051) can0 0AA#1A6F1A6F1A6F1A6F
(1469304100.010038) can0 020#0000072B
(1469304100.010124) can0 0BA#060000C4
(1469304100.010516) can0 224#0000000000000008
(1469304100.011090) can0 025#00010002900000C0
(1469304100.011276) can0 024#520001FA420C8047
(1469304100.012920) can0 1C8#80
(1469304100.016123) can0 0AA#1A6F1A6F1A6F1A6F
(1469304100.016666) can0 260#0E00000000000078
(1469304100.021327) can0 1D0#1274090000AC0014
(1469304100.021352) can0 394#4300
(1469304100.022061) can0 020#0000072B
(1469304100.022265) can0 0B4#00000000020000BE
(1469304100.022520) can0 223#000000000000002D
(1469304100.022741) can0 2C1#08008E023EC40065
(1469304100.023061) can0 025#000000027000009F
(1469304100.023311) can0 024#520001F8420A8043
(1469304100.026665) can0 262#000000016A
(1469304100.027512) can0 263#00000000B0001C
(1469304100.028164) can0 0AA#1A6F1A6F1A6F1A6F
(1469304100.028514) can0 1C4#091D28080000FF22
(1469304100.029355) can0 1C8#80
(1469304100.034110) can0 020#0000072B
(1469304100.034195) can0 0BA#060000C4
(1469304100.034495) can0 224#0000000000000008
(1469304100.034744) can0 4AC#1802400500000304
(1469304100.035040) can0 025#000000027000009F
(1469304100.035231) can0 024#520001FA420A8045
(1469304100.036689) can0 260#0E00000000000078
(1469304100.037744) can0 361#0020000000000000
(1469304100.040205) can0 0AA#1A6F1A6F1A6F1A6F
(1469304100.040364) can0 1AA#0000000000B1
(1469304100.040642) can0 3A0#008D00000000006C
(1469304100.045731) can0 1C8#80
(1469304100.046163) can0 020#0000072B
(1469304100.046504) can0 0B4#00000000020000BE
(1469304100.046619) can0 223#000000000000002D
(1469304100.047052) can0 025#00010002900000C0
(1469304100.047274) can0 024#520001FD42088046
(1469304100.052056) can0 263#00000000B0001C
(1469304100.052268) can0 0AA#1A6F1A6F1A6F1A6F
(1469304100.053108) can0 1C4#091228080000FF17
(1469304100.053122) can0 354#01
(1469304100.053998) can0 3D3#0499
(1469304100.054282) can0 1D0#124A090000AC00EA
(1469304100.055105) can0 2C1#08009301EBC40016
(1469304100.055632) can0 610#2080006480FFFD60
(1469304100.056654) can0 260#0E00000000000078
(1469304100.058199) can0 020#0000072B
(1469304100.058307) can0 0BA#060000C4
(1469304100.058586) can0 224#0000000000000008
(1469304100.058978) can0 025#00010002900000C0
(1469304100.059199) can0 024#520001FF42068046
(1469304100.061467) can0 351#00000000
(1469304100.062192) can0 1C8#80
(1469304100.063305) can0 3F9#5198260100000014
(1469304100.064289) can0 0AA#1A6F1A6F1A6F1A6F
(1469304100.066524) can0 262#000000016A
(1469304100.067608) can0 611#21800020000062D4
(1469304100.070223) can0 020#0000072B
(1469304100.070504) can0 0B4#00000000020000BE
(1469304100.070682) can0 223#000000000000002D
(1469304100.071040) can0 025#00010002900000C0
(1469304100.071249) can0 024#520002004208804A
(1469304100.075158) can0 440#4202001101000000
(1469304100.076258) can0 0AA#1A6F1A6F1A6F1A6F
(1469304100.076558) can0 3B7#583B000000000008
(1469304100.076766) can0 260#0E00000000000078
(1469304100.077038) can0 263#00000000B0001C
(1469304100.077707) can0 1C4#090128080000FF06
(1469304100.078595) can0 1C8#80
(1469304100.082254) can0 020#0000072B
(1469304100.082466) can0 0BA#060000C4
(1469304100.082658) can0 224#0000000000000008
(1469304100.082959) can0 025#00010002900000C0
(1469304100.083239) can0 024#520001FF420A804A
(1469304100.083673) can0 3D0#00
(1469304100.086155) can0 4C6#0700030000000000
(1469304100.086955) can0 1D0#121C090000AC00BC
(1469304100.087935) can0 2C1#08009A019FC400D1
(1469304100.088379) can0 0AA#1A6F1A6F1A6F1A6F
(1469304100.088539) can0 1AA#0000000000B1
(1469304100.091179) can0 620#1000FFFFB0500080
(1469304100.091530) can0 4C8#0900000000000000
(1469304100.094311) can0 020#0000072B
(1469304100.094517) can0 0B4#00000000020000BE
(1469304100.094770) can0 223#000000000000002D
(1469304100.095015) can0 025#000000027000009F
(1469304100.095233) can0 024#520001FA420C8047
(1469304100.095286) can0 1C8#80
(1469304100.096635) can0 260#0E00000000000078
(1469304100.100393) can0 0AA#1A6F1A6F1A6F1A6F
(1469304100.101315) can0 263#00000000B0001C
(1469304100.102317) can0 1C4#08EB28080000FFEF
(1469304100.103367) can0 361#001D000000000000
(1469304100.105442) can0 3BC#0020000000000000
(1469304100.106308) can0 020#0000072B
(1469304100.106447) can0 0BA#060000C4
(1469304100.106673) can0 224#0000000000000008
(1469304100.106959) can0 025#000000027000009F
(1469304100.107109) can0 262#000000016A
(1469304100.107382) can0 024#520001FA420A8045
(1469304100.107601) can0 399#00000000000000
(1469304100.111396) can0 1C8#80
(1469304100.112424) can0 0AA#1A6F1A6F1A6F1A6F
(1469304100.116598) can0 260#0E00000000000078
(1469304100.118360) can0 020#0000072B
(1469304100.118619) can0 0B4#00000000020000BE
(1469304100.118821) can0 223#000000000000002D
(1469304100.119072) can0 025#000000027000009F
(1469304100.119318) can0 024#520001FA420A8045
(1469304100.119767) can0 1D0#11F1090000AC0090
(1469304100.120743) can0 2C1#0800A40159C50096
(1469304100.121510) can0 351#00000000
(1469304100.124518) can0 0AA#1A6F1A6F1A6F1A6F
(1469304100.125915) can0 263#00000000B0001C
(1469304100.126888) can0 1C4#08D728080000FFDB
(1469304100.127838) can0 1C8#80
(1469304100.130410) can0 020#0000072B
(1469304100.130480) can0 0BA#060000C4
(1469304100.130832) can0 224#0000000000000008
(1469304100.131035) can0 025#000000027000009F
(1469304100.131287) can0 024#520001FB42088044
(1469304100.136519) can0 0AA#1A6F1A6F1A6F1A6F
(1469304100.136648) can0 1AA#0000000000B1
(1469304100.136920) can0 260#0E00000000000078
(1469304100.138956) can0 423#00
(1469304100.142414) can0 020#0000072B
(1469304100.142657) can0 0B4#00000000020000BE
(1469304100.142916) can0 025#000000027000009F
(1469304100.143122) can0 223#000000000000002D
(1469304100.143371) can0 024#520001FD42088046
(1469304100.143628) can0 3A0#008E00000000006C
(1469304100.144283) can0 1C8#80
(1469304100.146561) can0 262#000000016A
(1469304100.148523) can0 0AA#1A6F1A6F1A6F1A6F
(1469304100.150589) can0 263#00000000B0001C
(1469304100.151620) can0 1C4#08C628080000FFCA
(1469304100.152639) can0 1D0#11BC090000AC005B
(1469304100.153617) can0 2C1#0800AB011CC50060
(1469304100.154511) can0 020#0000072B
(1469304100.154579) can0 0BA#060000C4
(1469304100.154900) can0 025#000000027000009F
(1469304100.155103) can0 224#0000000000000008
(1469304100.155356) can0 024#520001FF420A804A
(1469304100.156599) can0 260#0E00000000002098
(1469304100.160567) can0 0AA#1A6F1A6F1A6F1A6F
(1469304100.160651) can0 1C8#80
(1469304100.166511) can0 020#0000072B
(1469304100.166716) can0 0B4#00000000020000BE
(1469304100.166968) can0 025#000000027000009F
(1469304100.167186) can0 223#000000000000002D
(1469304100.167426) can0 024#520001FD420A8048
(1469304100.169067) can0 361#001A000000000000
(1469304100.172768) can0 0AA#1A6F1A6F1A6F1A6F
(1469304100.175189) can0 263#00000000B0001C
(1469304100.175598) can0 442#4302000001000000
(1469304100.176225) can0 1C4#08AD28080000FFB1
(1469304100.176545) can0 260#0E00000000000078
(1469304100.177105) can0 1C8#80
(1469304100.178685) can0 020#0000072B
(1469304100.178815) can0 0BA#060000C4
(1469304100.179082) can0 025#00010002900000C0
(1469304100.179297) can0 024#520001FB420A8046
(1469304100.179602) can0 224#0000000000000008
(1469304100.181436) can0 351#00000000
(1469304100.184885) can0 0AA#1A6F1A6F1A6F1A6F
(1469304100.184943) can0 1AA#0000000000B1
(1469304100.185514) can0 1D0#118D090000AC002C
(1469304100.186441) can0 2C1#0800B400E5C50031
(1469304100.186524) can0 262#000000016A
(1469304100.190737) can0 020#0000072B
(1469304100.190970) can0 0B4#00000000020000BE
(1469304100.191273) can0 223#000000000000002D
(1469304100.191477) can0 024#520001FB420A8046
(1469304100.191999) can0 025#000000027000009F
(1469304100.193555) can0 1C8#80
(1469304100.196593) can0 260#0E00000000000078
(1469304100.196826) can0 0AA#1A6F1A6F1A6F1A6F
(1469304100.199843) can0 263#00000000B0001C
(1469304100.200865) can0 1C4#089B28080000FF9F
(1469304100.202760) can0 020#0000072B
(1469304100.202843) can0 0BA#060000C4
(1469304100.203203) can0 224#0000000000000008
(1469304100.203516) can0 024#520001FB420A8046
(1469304100.203914) can0 025#000000027000009F
(1469304100.208865) can0 0AA#1A6F1A6F1A6F1A6F
(1469304100.209960) can0 1C8#80
(1469304100.214792) can0 020#0000072B
(1469304100.215023) can0 0B4#00000000020000BE
(1469304100.215253) can0 024#520001FB420A8046
(1469304100.215557) can0 223#000000000000002D
(1469304100.215964) can0 025#00010002900000C0
(1469304100.216592) can0 260#0800000000000072
(1469304100.218329) can0 1D0#114F090000AC00EE
(1469304100.219292) can0 2C1#0800BD00B8C5000D
(1469304100.220897) can0 0AA#1A6F1A6F1A6F1A6F
(1469304100.224520) can0 263#00000000B0001C
(1469304100.225516) can0 1C4#088428080000FF88
(1469304100.226357) can0 1C8#80
(1469304100.226499) can0 262#000000016A
(1469304100.226766) can0 020#0000072B
(1469304100.226942) can0 0BA#060000C4
(1469304100.227205) can0 224#0000000000000008
(1469304100.227463) can0 024#520001FB42088044
(1469304100.227829) can0 025#000000027000009F
(1469304100.232907) can0 0AA#1A6F1A6F1A6F1A6F
(1469304100.233067) can0 1AA#0000000000B1
(1469304100.234730) can0 361#0019000000000000
(1469304100.236507) can0 260#08FFFF0000FFE554
(1469304100.238824) can0 020#0000072B
(1469304100.239103) can0 0B4#00000000020000BE
(1469304100.239280) can0 024#520001FD42088046
(1469304100.239539) can0 223#000000000000002D
(1469304100.239934) can0 025#00010002900000C0
(1469304100.241398) can0 351#00000000
(1469304100.241631) can0 3A0#008E00000000006C
(1469304100.242775) can0 1C8#80
(1469304100.244233) can0 3B1#00000D0A00080000
(1469304100.244932) can0 0AA#1A6F1A6F1A6F1A6F
(1469304100.245149) can0 622#1280581000000000
(1469304100.249077) can0 263#00000000B0001C
(1469304100.250105) can0 1C4#087028080000FF74
(1469304100.250849) can0 020#0000072B
(1469304100.250961) can0 0BA#060000C4
(1469304100.251227) can0 024#520001FF42088048
(1469304100.251494) can0 1D0#1120090000AC00BF
(1469304100.251777) can0 224#0000000000000008
(1469304100.251999) can0 025#000000027000009F
(1469304100.252212) can0 2C1#0800C30094C600F0
(1469304100.254113) can0 620#1080FFFFB0500040
(1469304100.256556) can0 260#0800000000FFE253
(1469304100.256978) can0 0AA#1A6F1A6F1A6F1A6F
(1469304100.258144) can0 354#01
(1469304100.259196) can0 1C8#80
(1469304100.262901) can0 020#0000072B
(1469304100.263125) can0 0B4#00000000020000BE
(1469304100.263403) can0 024#520001FD42088046
(1469304100.263630) can0 223#000000000000002D
(1469304100.263912) can0 025#00010002900000C0
(1469304100.266501) can0 262#000000016A
(1469304100.268973) can0 0AA#1A6F1A6F1A6F1A6F
(1469304100.273731) can0 263#00000000B0001C
(1469304100.274655) can0 4DC#1D00000200000000
(1469304100.274872) can0 1C4#085B28080000FF5F
(1469304100.274988) can0 020#0000072B
(1469304100.275174) can0 0BA#060000C4
(1469304100.275459) can0 224#0000000000000008
(1469304100.275784) can0 025#000000027000009F
(1469304100.275797) can0 1C8#80
(1469304100.276144) can0 443#4002002F06000000
(1469304100.276322) can0 024#520001FB42088044
(1469304100.276562) can0 260#0800000000FFE253
(1469304100.281032) can0 0AA#1A6F1A6F1A6F1A6F
(1469304100.281191) can0 1AA#0000000000B1
(1469304100.283982) can0 1D0#10DE090000AC007C
(1469304100.284959) can0 2C1#0800CC0077C600DC
(1469304100.286978) can0 020#0000072B
(1469304100.287185) can0 0B4#00000000020000BE
(1469304100.287515) can0 223#000000000000002D
(1469304100.287856) can0 025#000000027000009F
(1469304100.288268) can0 024#520001FB420A8046
(1469304100.292059) can0 1C8#80
(1469304100.293069) can0 0AA#1A6F1A6F1A6F1A6F
(1469304100.296527) can0 260#0800000000FFF162
(1469304100.298340) can0 263#00000000B0001C
(1469304100.299012) can0 020#0000072B
(1469304100.299096) can0 0BA#060000C4
(1469304100.299389) can0 1C4#084928080000FF4D
(1469304100.299693) can0 224#0000000000000008
(1469304100.299896) can0 025#00010002900000C0
(1469304100.300291) can0 024#520001FA420A8045
(1469304100.300494) can0 361#0018000000000000
(1469304100.301360) can0 351#00000000
(1469304100.305144) can0 0AA#1A6F1A6F1A6F1A6F
(1469304100.306387) can0 262#000000016A
(1469304100.308510) can0 1C8#80
(1469304100.311085) can0 020#0000072B
(1469304100.311333) can0 0B4#00000000020000BE
(1469304100.311555) can0 223#000000000000002D
(1469304100.311858) can0 025#00010002900000C0
(1469304100.312262) can0 024#520001FB42088044
(1469304100.316545) can0 260#0800000000FFF162
(1469304100.316775) can0 1D0#10B0090000AC004E
(1469304100.317187) can0 0AA#1A6F1A6F1A6F1A6F
(1469304100.317789) can0 2C1#0800D20063C600CE
(1469304100.319895) can0 3F9#5198260100000014
(1469304100.321253) can0 394#4300
(1469304100.322984) can0 263#00000000B0001C
(1469304100.323078) can0 020#0000072B
(1469304100.323322) can0 0BA#060000C4
(1469304100.323545) can0 224#0000000000000008
(1469304100.323770) can0 025#000000027000009F
(1469304100.324056) can0 1C4#084328080000FF47
(1469304100.324243) can0 024#520001FD42088046
(1469304100.324899) can0 1C8#80
(1469304100.327952) can0 387#0000000000003F3F
(1469304100.329235) can0 0AA#1A6F1A6F1A6F1A6F
(1469304100.329405) can0 1AA#0000000000B1
(1469304100.335157) can0 020#0000072B
(1469304100.335401) can0 0B4#00000000020000BE
(1469304100.335642) can0 223#000000000000002D
(1469304100.335900) can0 025#000000027000009F
(1469304100.336286) can0 024#520001FF42088048
(1469304100.336501) can0 260#0800000000FFF162
(1469304100.340212) can0 3D0#00
(1469304100.341191) can0 0AA#1A6F1A6F1A6F1A6F
(1469304100.341306) can0 1C8#80
(1469304100.343663) can0 3A0#008E00000000006C
(1469304100.344259) can0 4DD#1E00000000000000
(1469304100.346381) can0 262#000000016A
(1469304100.347203) can0 020#0000072B
(1469304100.347280) can0 0BA#060000C4
(1469304100.347636) can0 224#0000000000000008
(1469304100.347846) can0 025#000000027000009F
(1469304100.348095) can0 263#00000000B0001C
(1469304100.348289) can0 024#520001FF42088048
(1469304100.348787) can0 1C4#083628080000FF3A
(1469304100.349611) can0 1D0#107D090000AC001B
(1469304100.350587) can0 2C1#0800D6004FC600BE
(1469304100.353265) can0 0AA#1A6F1A6F1A6F1A6F
(1469304100.355987) can0 389#0000000000000000
(1469304100.356434) can0 260#0800000000FFF162
(1469304100.357724) can0 1C8#80
(1469304100.359230) can0 020#0000072B
(1469304100.359525) can0 0B4#00000000020000BE
(1469304100.359675) can0 025#000000027000009F
(1469304100.359936) can0 223#000000000000002D
(1469304100.360235) can0 024#520001FD420A8048
(1469304100.361257) can0 351#00000000
(1469304100.365291) can0 0AA#1A6F1A6F1A6F1A6F
(1469304100.366059) can0 361#0017000000000000
(1469304100.371280) can0 020#0000072B
(1469304100.371461) can0 0BA#060000C4
(1469304100.371628) can0 025#000000027000009F
(1469304100.371868) can0 224#0000000000000008
(1469304100.372116) can0 263#00000000B0001C
(1469304100.372458) can0 024#520001FB420A8046
(1469304100.373219) can0 1C4#082028080000FF24
(1469304100.374110) can0 1C8#80
(1469304100.375095) can0 440#4202001101000000
(1469304100.376499) can0 260#0800000000FFF162
(1469304100.377367) can0 0AA#1A6F1A6F1A6F1A6F
(1469304100.377520) can0 1AA#0000000000B1
(1469304100.377775) can0 3B7#583B000000000008
(1469304100.382495) can0 1D0#105F090000AC00FD
(1469304100.383312) can0 020#0000072B
(1469304100.383591) can0 0B4#00000000020000BE
(1469304100.383809) can0 025#00010002900000C0
(1469304100.384072) can0 223#000000000000002D
(1469304100.384274) can0 024#520001FB420A8046
(1469304100.384545) can0 2C1#0800DF003FC600B7
(1469304100.386416) can0 262#000000016A
(1469304100.386970) can0 38E#2020000000000000
(1469304100.389421) can0 0AA#1A6F1A6F1A6F1A6F
(1469304100.390498) can0 1C8#80
(1469304100.395365) can0 020#0000072B
(1469304100.395513) can0 0BA#060000C4
(1469304100.395743) can0 025#000000027000009F
(1469304100.396004) can0 224#0000000000000008
(1469304100.396284) can0 024#520001FB42088044
(1469304100.396542) can0 260#0800000000FFF162
(1469304100.396840) can0 263#00000000B0001C
(1469304100.397809) can0 1C4#080828080000FF0C
(1469304100.401454) can0 0AA#1A6F1A6F1A6F1A6F
(1469304100.406934) can0 1C8#80
(1469304100.407377) can0 020#0000072B
(1469304100.407645) can0 0B4#00000000020000BE
(1469304100.407893) can0 025#000000027000009F
(1469304100.408142) can0 223#000000000000002D
(1469304100.408391) can0 024#520001FD42088046
(1469304100.413495) can0 0AA#1A6F1A6F1A6F1A6F
(1469304100.415242) can0 1D0#1033090000AC00D1
(1469304100.415898) can0 38F#0300000000000000
(1469304100.416191) can0 2C1#0800F9002FC700C2
(1469304100.416454) can0 260#0800000000FFEE5F
(1469304100.419414) can0 020#0000072B
(1469304100.419513) can0 0BA#060000C4
(1469304100.419787) can0 025#000000027000009F
(1469304100.420139) can0 224#0000000000000008
(1469304100.420321) can0 024#520001FD42088046
(1469304100.421265) can0 351#00000000
(1469304100.421477) can0 263#00000000B0001C
(1469304100.422495) can0 1C4#07F828080000FFFB
(1469304100.423384) can0 1C8#80
(1469304100.424621) can0 380#C0A0400000004100
(1469304100.424916) can0 3B0#00B5005600180000
(1469304100.425521) can0 0AA#1A6F1A6F1A6F1A6F
(1469304100.425699) can0 1AA#0000000000B1
(1469304100.426272) can0 262#000000016A
(1469304100.431596) can0 020#0000072B
(1469304100.431834) can0 0B4#00000000020000BE
(1469304100.432083) can0 223#000000000000002D
(1469304100.432333) can0 024#520001FD42088046
(1469304100.432559) can0 361#0016000000000000
(1469304100.432811) can0 025#00010002900000C0
(1469304100.436441) can0 260#0800000000FFF162
(1469304100.437746) can0 0AA#1A6F1A6F1A6F1A6F
(1469304100.439785) can0 1C8#80
(1469304100.442617) can0 3A0#008E00000700006C
(1469304100.443663) can0 020#0000072B
(1469304100.443794) can0 0BA#060000C4
(1469304100.444036) can0 224#0000000000000008
(1469304100.444328) can0 024#520001FD420A8048
(1469304100.444617) can0 025#000000027000009F
(1469304100.445092) can0 6E1#A180000000100000
(1469304100.446067) can0 263#00000000B0001C
(1469304100.446969) can0 3A5#0000000000007EFC
(1469304100.447218) can0 1C4#07F728080000FFFA
(1469304100.448115) can0 1D0#0FFD090000AC009A
(1469304100.449093) can0 2C1#0800EF0029C700B2
(1469304100.449743) can0 0AA#1A6F1A6F1A6F1A6F
(1469304100.455690) can0 020#0000072B
(1469304100.455940) can0 0B4#00000000020000BE
(1469304100.456191) can0 223#000000000000002D
(1469304100.456492) can0 024#520001FB420A8046
(1469304100.456656) can0 025#000000027000009F
(1469304100.456728) can0 1C8#80
(1469304100.457054) can0 260#0800000000FFEE5F
(1469304100.460620) can0 382#2338380000000000
(1469304100.460918) can0 381#0001019080000000
(1469304100.461817) can0 0AA#1A6F1A6F1A6F1A6F
(1469304100.463360) can0 354#01
(1469304100.466291) can0 262#000000016A
(1469304100.467741) can0 020#0000072B
(1469304100.467869) can0 0BA#060000C4
(1469304100.468109) can0 224#0000000000000008
(1469304100.468404) can0 024#520001FB420A8046
(1469304100.468649) can0 025#000000027000009F
(1469304100.470694) can0 263#00000000B0001C
(1469304100.471720) can0 1C4#07EB28080000FFEE
(1469304100.472609) can0 1C8#80
(1469304100.473842) can0 0AA#1A6F1A6F1A6F1A6F
(1469304100.474006) can0 1AA#0000000000B1
(1469304100.475586) can0 442#4302000001000000
(1469304100.476369) can0 260#0800000000FFF162
(1469304100.476968) can0 413#0101010900000000
(1469304100.479795) can0 020#0000072B
(1469304100.480042) can0 0B4#00000000020000BE
(1469304100.480290) can0 024#520001FB42088044
(1469304100.480535) can0 223#000000000000002D
(1469304100.480781) can0 025#000000027000009F
(1469304100.481026) can0 1D0#0FEA090000AC0087
(1469304100.481169) can0 351#00000000
(1469304100.481873) can0 2C1#0801940026CC005A
(1469304100.485875) can0 0AA#1A6F1A6F1A6F1A6F
(1469304100.489010) can0 1C8#80
(1469304100.491780) can0 020#0000072B
(1469304100.491965) can0 0BA#060000C4
(1469304100.492285) can0 224#0000000000000008
(1469304100.492530) can0 024#520001FD42088046
(1469304100.492778) can0 025#000000027000009F
(1469304100.495318) can0 263#00000000B0001C
(1469304100.496325) can0 1C4#07DD28080000FFE0
(1469304100.496594) can0 260#0800000000FFEE5F
(1469304100.497369) can0 361#0016000000000000
(1469304100.497968) can0 0AA#1A6F1A6F1A6F1A6F
(1469304100.503891) can0 020#0000072B
(1469304100.504143) can0 0B4#00000000020000BE
(1469304100.504393) can0 024#520001FD42088046
(1469304100.504645) can0 025#000000027000009F
(1469304100.504891) can0 223#000000000000002D
(1469304100.505484) can0 1C8#80
(1469304100.506302) can0 262#000000016A
(1469304100.506969) can0 434#3F00000000000000
(1469304100.509971) can0 0AA#1A6F1A6F1A6F1A6F
(1469304100.513817) can0 1D0#0FD2090000AC006F
(1469304100.514770) can0 2C1#0801A80023CD006C
(1469304100.515889) can0 020#0000072B
(1469304100.516019) can0 0BA#060000C4
(1469304100.516291) can0 024#520001FD420A8048
(1469304100.516569) can0 025#000000027000009F
(1469304100.516817) can0 224#0000000000000008
(1469304100.517065) can0 260#0800000000FFF162
(1469304100.519943) can0 263#00000000B0001C
(1469304100.520971) can0 1C4#07CE28080000FFD1
(1469304100.521857) can0 1C8#80
(1469304100.522113) can0 0AA#1A6F1A6F1A6F1A6F
(1469304100.522305) can0 1AA#0000000000B1
(1469304100.527944) can0 020#0000072B
(1469304100.528216) can0 0B4#00000000020000BE
(1469304100.528492) can0 024#520001FD420A8048
(1469304100.528657) can0 025#000000027000009F
(1469304100.528945) can0 223#000000000000002D
(1469304100.531068) can0 6E2#A28000FEFEFEFEFE
(1469304100.534044) can0 0AA#1A6F1A6F1A6F1A6F
(1469304100.534292) can0 4AC#2800600100000324
(1469304100.536235) can0 260#0800000000FFEE5F
(1469304100.536928) can0 435#0F0505FFE00FE003
(1469304100.538237) can0 1C8#80
(1469304100.539964) can0 020#0000072B
(1469304100.540094) can0 0BA#060000C4
(1469304100.540335) can0 024#520001FD420A8048
(1469304100.540644) can0 025#000000027000009F
(1469304100.540892) can0 224#0000000000000008
(1469304100.541160) can0 351#00000000
(1469304100.541559) can0 3A0#008D00000700006C
(1469304100.544213) can0 3B1#00000D0900080000
(1469304100.544591) can0 263#00000000B0001C
(1469304100.545594) can0 1C4#07BD28080000FFC0
(1469304100.546068) can0 0AA#1A6F1A6F1A6F1A6F
(1469304100.546214) can0 262#000000016A
(1469304100.546598) can0 1D0#0FB3090000AC0050
(1469304100.547575) can0 2C1#0801BD002ACD0088
(1469304100.551054) can0 620#1000FFFFB0500040
(1469304100.551989) can0 020#0000072B
(1469304100.552241) can0 0B4#00000000020000BE
(1469304100.552504) can0 223#000000000000002D
(1469304100.552744) can0 025#000000027000009F
(1469304100.553266) can0 024#520001FD42088046
(1469304100.554669) can0 1C8#80
(1469304100.556369) can0 260#0800000000FFF162
(1469304100.556618) can0 610#2000006480FFFD60
(1469304100.558094) can0 0AA#1A6F1A6F1A6F1A6F
(1469304100.563068) can0 361#0017000000000000
(1469304100.564039) can0 020#0000072B
(1469304100.564169) can0 0BA#060000C4
(1469304100.564469) can0 224#0000000000000008
(1469304100.564716) can0 025#000000027000009F
(1469304100.565270) can0 024#520001FB42088044
(1469304100.566968) can0 436#0000000000000000
(1469304100.569192) can0 263#00000000B0001C
(1469304100.570143) can0 0AA#1A6F1A6F1A6F1A6F
(1469304100.570310) can0 1AA#0000000000B1
(1469304100.570593) can0 1C4#07AA28080000FFAD
(1469304100.571068) can0 1C8#80
(1469304100.576037) can0 020#0000072B
(1469304100.576349) can0 0B4#00000000020000BE
(1469304100.576597) can0 025#000000027000009F
(1469304100.576790) can0 223#000000000000002D
(1469304100.577066) can0 260#0800000000FFEE5F
(1469304100.577317) can0 024#520001FD42088046
(1469304100.577562) can0 3F9#5198260100000014
(1469304100.577808) can0 443#4002002F06000000
(1469304100.579335) can0 3D3#0205
(1469304100.579620) can0 1D0#0F83090000AC0020
(1469304100.580491) can0 2C1#0801D50032CE00A9
(1469304100.582129) can0 0AA#1A6F1A6F1A6F1A6F
(1469304100.586213) can0 262#000000016A
(1469304100.587510) can0 1C8#80
(1469304100.588119) can0 020#0000072B
(1469304100.588212) can0 0BA#060000C4
(1469304100.588535) can0 224#0000000000000008
(1469304100.588734) can0 025#000000027000009F
(1469304100.589284) can0 024#520001FD42088046
(1469304100.593811) can0 263#00000000B1001D
(1469304100.594233) can0 0AA#1A6F1A6F1A6F1A6F
(1469304100.594840) can0 1C4#07A328080000FFA6
(1469304100.596288) can0 260#0800000000FFF162
(1469304100.596701) can0 3D0#00
(1469304100.596927) can0 437#FCFFFFFFFFFFFFFF
(1469304100.600160) can0 020#0000072B
(1469304100.600393) can0 0B4#00000000020000BE
(1469304100.600625) can0 025#000000027000009F
(1469304100.600895) can0 223#000000000000002D
(1469304100.601077) can0 351#00000000
(1469304100.601378) can0 024#520001FD42088046
(1469304100.603954) can0 1C8#80
(1469304100.606287) can0 0AA#1A6F1A6F1A6F1A6F
(1469304100.612207) can0 020#0000072B
(1469304100.612299) can0 0BA#060000C4
(1469304100.612635) can0 1D0#0F54090000AC00F1
(1469304100.612833) can0 025#000000027000009F
(1469304100.613134) can0 224#0000000000000008
(1469304100.613276) can0 024#520001FD420A8048
(1469304100.613586) can0 2C1#0801DC003CCE00BA
(1469304100.616363) can0 260#0800010000FFF163
(1469304100.618287) can0 0AA#1A6F1A6F1A6F1A6F
(1469304100.618456) can0 1AA#0000000000B1
(1469304100.618718) can0 263#00000000B0001C
(1469304100.619512) can0 1C4#079528080000FF98
(1469304100.620351) can0 1C8#80
(1469304100.621079) can0 394#4300
(1469304100.624236) can0 020#0000072B
(1469304100.624470) can0 0B4#00000000020000BE
(1469304100.624772) can0 025#000000027000009F
(1469304100.624933) can0 223#000000000000002D
(1469304100.625318) can0 024#520001FD420A8048
(1469304100.626259) can0 262#000000016A
(1469304100.628715) can0 361#0017000000000000
(1469304100.630339) can0 0AA#1A6F1A6F1A6F1A6F
(1469304100.636239) can0 260#0800000000FFF162
(1469304100.636314) can0 020#0000072B
(1469304100.636507) can0 0BA#060000C4
(1469304100.636759) can0 224#0000000000000008
(1469304100.636813) can0 1C8#80
(1469304100.637299) can0 024#520001FD420A8048
(1469304100.637486) can0 025#000000027000009F
(1469304100.642364) can0 0AA#1A6F1A6F1A6F1A6F
(1469304100.643066) can0 263#00000000B0001C
(1469304100.643622) can0 3A0#008D00000700006C
(1469304100.644084) can0 1C4#078D28080000FF90
(1469304100.645111) can0 1D0#0F2E090000AC00CB
(1469304100.646085) can0 2C1#0801E60045CF00CE
(1469304100.648287) can0 020#0000072B
(1469304100.648523) can0 0B4#00000000000000BC
(1469304100.648744) can0 223#000000000000002D
(1469304100.649282) can0 024#520001FB420A8046
(1469304100.649487) can0 025#00010002900000C0
(1469304100.653178) can0 1C8#80
(1469304100.654389) can0 0AA#1A6F1A6F1A6F1A6F
(1469304100.656219) can0 260#0800000000FFEE5F
(1469304100.660306) can0 020#0000072B
(1469304100.660453) can0 0BA#05FB00BE
(1469304100.660681) can0 224#0000000000000008
(1469304100.661071) can0 351#00000000
(1469304100.661269) can0 024#020001FB420A80F6
(1469304100.661565) can0 025#000000027000009F
(1469304100.666183) can0 262#000000016A
(1469304100.666356) can0 0AA#1A6F1A6F1A6F1A6F
(1469304100.666569) can0 1AA#0000000000B1
(1469304100.667661) can0 263#00000000B1001D
(1469304100.668686) can0 1C4#077E28080000FF81
(1469304100.668714) can0 354#01
(1469304100.669575) can0 1C8#80
(1469304100.672340) can0 020#0000072B
(1469304100.672569) can0 0B4#00000000000000BC
(1469304100.672868) can0 223#000000000000002D
(1469304100.673285) can0 024#020001FB420880F4
(1469304100.673484) can0 025#000000027000009F
(1469304100.676340) can0 260#08FFFF0000FFEE5D
(1469304100.677936) can0 1D0#0F14090000AC00B1
(1469304100.678435) can0 0AA#1A6F1A6F1A6F1A6F
(1469304100.678635) can0 3B7#583B000000000008
(1469304100.678935) can0 2C1#0801610050CB0050
(1469304100.680064) can0 440#4202001101000000
(1469304100.684293) can0 020#0000072B
(1469304100.684477) can0 0BA#05FB00BE
(1469304100.684754) can0 224#0000000000000008
(1469304100.685278) can0 024#020001FD420A80F8
(1469304100.685486) can0 025#000000027000009F
(1469304100.685999) can0 1C8#80
(1469304100.690513) can0 0AA#1A6F1A6F1A6F1A6F
(1469304100.692289) can0 263#00000000B1001D
(1469304100.693318) can0 1C4#077628080000FF79
(1469304100.694367) can0 361#0017000000000000
(1469304100.696213) can0 260#0800000000FFF162
(1469304100.696352) can0 020#0000072B
(1469304100.696613) can0 0B4#00000000000000BC
(1469304100.696889) can0 223#000000000000002D
(1469304100.697307) can0 024#020001FF420A80FA
(1469304100.697509) can0 025#000000027000009F
(1469304100.702515) can0 0AA#1A6F1A6F1A6F1A6F
(1469304100.702532) can0 1C8#80
(1469304100.706182) can0 262#000000016A
(1469304100.708431) can0 020#0000072B
(1469304100.708581) can0 0BA#05FF00C2
(1469304100.708837) can0 224#0000000000000008
(1469304100.709306) can0 024#020001FD420A80F8
(1469304100.709484) can0 025#000000027000009F
(1469304100.710761) can0 1D0#0EFE090000AC009A
(1469304100.711742) can0 2C1#0801710059CB0069
(1469304100.714665) can0 0AA#1A6F1A6F1A6F1A6F
(1469304100.714832) can0 1AA#0000000000B1
(1469304100.716239) can0 260#0800000000FFF162
(1469304100.716912) can0 263#00000000B1001D
(1469304100.717935) can0 1C4#076328080000FF66
(1469304100.718826) can0 1C8#80
(1469304100.720608) can0 020#0000072B
(1469304100.720808) can0 0B4#00000000000000BC
(1469304100.721064) can0 223#000000000000002D
(1469304100.721317) can0 024#020001FD420A80F8
(1469304100.721618) can0 025#000000027000009F
(1469304100.721691) can0 351#00000000
(1469304100.726714) can0 0AA#1A6F1A6F1A6F1A6F
(1469304100.732635) can0 020#0000072B
(1469304100.732728) can0 0BA#05FD00C0
(1469304100.733072) can0 224#0000000000000008
(1469304100.733269) can0 024#020001FB420A80F6
(1469304100.733514) can0 025#000000027000009F
(1469304100.735251) can0 1C8#80
(1469304100.736244) can0 260#0800000000FFF162
(1469304100.738713) can0 0AA#1A6F1A6F1A6F1A6F
(1469304100.741536) can0 263#00000000B1001D
(1469304100.742559) can0 1C4#075528080000FF58
(1469304100.742760) can0 3A0#008D00000700006C
(1469304100.743615) can0 1D0#0EDF090000AC007B
(1469304100.744586) can0 2C1#080183005CCC007F
(1469304100.744661) can0 020#0000072B
(1469304100.744926) can0 0B4#00000000000000BC
(1469304100.745235) can0 223#000000000000002D
(1469304100.745470) can0 024#020001FB420880F4
(1469304100.745695) can0 025#000000027000009F
(1469304100.746206) can0 262#000000016A
(1469304100.750763) can0 0AA#1A6F1A6F1A6F1A6F
(1469304100.751658) can0 1C8#80
(1469304100.756189) can0 260#0800000000FFF162
(1469304100.756705) can0 020#0000072B
(1469304100.756797) can0 0BA#05FB00BE
(1469304100.757145) can0 224#0000000000000008
(1469304100.757319) can0 024#020001FB420880F4
(1469304100.757588) can0 025#000000027000009F
(1469304100.760015) can0 361#0017000000000000
(1469304100.762785) can0 0AA#1A6F1A6F1A6F1A6F
(1469304100.762932) can0 1AA#0000000000B1
(1469304100.766135) can0 263#00000000B1001D
(1469304100.767161) can0 1C4#074528080000FF48
(1469304100.768059) can0 1C8#80
(1469304100.768730) can0 020#0000072B
(1469304100.768936) can0 0B4#00000000000000BC
(1469304100.769185) can0 223#000000000000002D
(1469304100.769527) can0 024#020001FB420880F4
(1469304100.769665) can0 025#000000027000009F
(1469304100.774865) can0 0AA#1A6F1A6F1A6F1A6F
(1469304100.775527) can0 442#4302000001000000
(1469304100.776137) can0 260#08FFFE0000FFEE5C
(1469304100.776451) can0 1D0#0EB9090000AC0055
(1469304100.777385) can0 2C1#08019A005DCC0097
(1469304100.780782) can0 020#0000072B
(1469304100.780922) can0 0BA#05FB00BE
(1469304100.781175) can0 224#0000000000000008
(1469304100.781515) can0 024#020001FD420880F6
(1469304100.781660) can0 025#000000027000009F
(1469304100.781824) can0 351#00000000
(1469304100.784504) can0 1C8#80
(1469304100.786135) can0 262#000000016A
(1469304100.786886) can0 0AA#1A6F1A6F1A6F1A6F
(1469304100.790762) can0 263#00000000B1001D
(1469304100.791791) can0 1C4#073028080000FF33
(1469304100.792834) can0 020#0000072B
(1469304100.793027) can0 0B4#00000000000000BC
(1469304100.793282) can0 025#00010002900000C0
(1469304100.793557) can0 024#020001FD420A80F8
(1469304100.793758) can0 223#000000000000002D
(1469304100.796262) can0 260#0800000000FFEE5F
(1469304100.798937) can0 0AA#1A6F1A6F1A6F1A6F
(1469304100.800902) can0 1C8#80
(1469304100.801045) can0 3BB#0000B100
(1469304100.804858) can0 020#0000072B
(1469304100.804950) can0 0BA#05FD00C0
(1469304100.805295) can0 224#0000000000000008
(1469304100.805484) can0 024#020001FD420880F6
(1469304100.805785) can0 025#000000027000009F
(1469304100.809238) can0 1D0#0E7F090000AC001B
(1469304100.810213) can0 2C1#080201005BD00001
(1469304100.810961) can0 0AA#1A6F1A6F1A6F1A6F
(1469304100.811106) can0 1AA#0000000000B1
(1469304100.815390) can0 263#00000000B1001D
(1469304100.816060) can0 260#0800000000FFEE5F
(1469304100.816415) can0 1C4#072528080000FF28
(1469304100.816880) can0 020#0000072B
(1469304100.817085) can0 0B4#00000000000000BC
(1469304100.817384) can0 024#020001FB420880F4
(1469304100.817588) can0 025#000000027000009F
(1469304100.817658) can0 1C8#80
(1469304100.817986) can0 223#000000000000002D
(1469304100.822951) can0 0AA#1A6F1A6F1A6F1A6F
(1469304100.825662) can0 361#0017000000000000
(1469304100.826088) can0 262#000000016A
(1469304100.828908) can0 020#0000072B
(1469304100.829000) can0 0BA#05FB00BE
(1469304100.829325) can0 025#000000027000009F
(1469304100.829534) can0 024#020001FB420880F4
(1469304100.829834) can0 224#0000000000000008
(1469304100.832813) can0 3F9#5198260100000014
(1469304100.833701) can0 1C8#80
(1469304100.835009) can0 0AA#1A6F1A6F1A6F1A6F
(1469304100.836138) can0 260#08FFFF0000FFEE5D
(1469304100.839987) can0 263#00000000B1001D
(1469304100.841011) can0 1C4#071828080000FF1B
(1469304100.841104) can0 020#0000072B
(1469304100.841428) can0 0B4#00000000000000BC
(1469304100.841634) can0 223#000000000000002D
(1469304100.841800) can0 351#00000000
(1469304100.842057) can0 1D0#0E56090000AC00F2
(1469304100.842258) can0 025#000000027000009F
(1469304100.842509) can0 024#020001FB420880F4
(1469304100.842761) can0 4C3#0300000100000000
(1469304100.842981) can0 2C1#0801BC005CCD00B9
(1469304100.844514) can0 3A0#008D00000700006C
(1469304100.846982) can0 0AA#1A6F1A6F1A6F1A6F
(1469304100.850129) can0 1C8#80
(1469304100.851037) can0 620#1000FFFFB0500040
(1469304100.853004) can0 020#0000072B
(1469304100.853096) can0 0BA#05FB00BE
(1469304100.853378) can0 024#020001FD420880F6
(1469304100.853583) can0 025#000000027000009F
(1469304100.853856) can0 224#0000000000000008
(1469304100.853938) can0 3D0#00
(1469304100.856188) can0 260#08FFFF0000FFEE5D
(1469304100.859111) can0 0AA#1A6F1A6F1A6F1A6F
(1469304100.859257) can0 1AA#0000000000B1
(1469304100.864611) can0 263#00000000B1001D
(1469304100.865059) can0 020#0000072B
(1469304100.865286) can0 0B4#00000000000000BC
(1469304100.865538) can0 025#000000027000009F
(1469304100.865769) can0 1C4#070D28080000FF10
(1469304100.866074) can0 223#000000000000002D
(1469304100.866160) can0 262#000000016A
(1469304100.866434) can0 024#020001FF420880F8
(1469304100.866471) can0 1C8#80
(1469304100.871123) can0 0AA#1A6F1A6F1A6F1A6F
(1469304100.873704) can0 354#01
(1469304100.874887) can0 1D0#0E38090000AC00D4
(1469304100.875826) can0 2C1#0801C5005DCE00C4
(1469304100.876064) can0 260#0800000000FFEE5F
(1469304100.876310) can0 443#4002002F06000000
(1469304100.877081) can0 020#0000072B
(1469304100.877174) can0 0BA#05FF00C2
(1469304100.877465) can0 224#0000000000000008
(1469304100.878196) can0 025#000000027000009F
(1469304100.878467) can0 024#020001FF420880F8
(1469304100.882953) can0 1C8#80
(1469304100.883149) can0 0AA#1A6F1A6F1A6F1A6F
(1469304100.889137) can0 020#0000072B
(1469304100.889368) can0 0B4#00000000000000BC
(1469304100.889669) can0 223#000000000000002D
(1469304100.889808) can0 263#00000000B1001D
(1469304100.890258) can0 1C4#070328080000FF06
(1469304100.890460) can0 024#020001FD420880F6
(1469304100.890712) can0 025#000000027000009F
(1469304100.891232) can0 361#0017000000000000
(1469304100.895195) can0 0AA#1A6F1A6F1A6F1A6F
(1469304100.896094) can0 260#08FFFF0000FFEE5D
(1469304100.899350) can0 1C8#80
(1469304100.900909) can0 351#00000000
(1469304100.901132) can0 020#0000072B
(1469304100.901286) can0 0BA#05FD00C0
(1469304100.901607) can0 224#0000000000000008
(1469304100.902137) can0 025#000000027000009F
(1469304100.902430) can0 024#020001FB420880F4
(1469304100.906058) can0 262#000000016A
(1469304100.907246) can0 0AA#1A6F1A6F1A6F1A6F
(1469304100.907466) can0 1AA#0000000000B1
(1469304100.907687) can0 1D0#0E1D090000AC00B9
(1469304100.908660) can0 2C1#0801D90061CE00DC
(1469304100.913257) can0 020#0000072B
(1469304100.913460) can0 0B4#00000000000000BC
(1469304100.913712) can0 223#000000000000002D
(1469304100.913932) can0 263#00000000B1001D
(1469304100.914259) can0 025#000000027000009F
(1469304100.914465) can0 024#020001FB420880F4
(1469304100.914861) can0 1C4#06EF28080000FFF1
(1469304100.915059) can0 621#1100000000000000
(1469304100.915311) can0 4C1#0100000500000000
(1469304100.915702) can0 1C8#80
(1469304100.916094) can0 260#08FFFF0000FFEE5D
(1469304100.919262) can0 0AA#1A6F1A6F1A6F1A6F
(1469304100.920857) can0 394#4300
(1469304100.925038) can0 623#1900000000000000
(1469304100.925203) can0 020#0000072B
(1469304100.925368) can0 0BA#05FB00BE
(1469304100.925635) can0 224#0000000000000008
(1469304100.926188) can0 025#000000027000009F
(1469304100.926383) can0 024#020001FB420880F4
(1469304100.931362) can0 0AA#1A6F1A6F1A6F1A6F
(1469304100.932160) can0 1C8#80
(1469304100.934010) can0 624#1A00414949400000
(1469304100.936038) can0 260#08FFFF0000FFEE5D
(1469304100.937306) can0 020#0000072B
(1469304100.937498) can0 0B4#00000000000000BC
(1469304100.937761) can0 223#000000000000002D
(1469304100.938231) can0 025#000000027000009F
(1469304100.938477) can0 024#020001FD420A80F8
(1469304100.938659) can0 263#00000000B1001D
(1469304100.939510) can0 1C4#06DE28080000FFE0
(1469304100.940510) can0 1D0#0DF2090000AC008D
(1469304100.941511) can0 2C1#08020C0068D00019
(1469304100.943037) can0 626#1C00300000000000
(1469304100.943411) can0 0AA#1A6F1A6F1A6F1A6F
(1469304100.943620) can0 3A0#008D00000700006C
(1469304100.945983) can0 262#000000016A
(1469304100.948580) can0 1C8#80
(1469304100.949343) can0 020#0000072B
(1469304100.949437) can0 0BA#05FD00C0
(1469304100.949778) can0 224#0000000000000008
(1469304100.950152) can0 025#000000027000009F
(1469304100.950354) can0 024#020001FF420880F8
(1469304100.951964) can0 638#1300180100000000
(1469304100.955435) can0 0AA#1A6F1A6F1A6F1A6F
(1469304100.955585) can0 1AA#0000000000B1
(1469304100.956034) can0 260#0800000000FFEE5F
(1469304100.956961) can0 361#0017000000000000
(1469304100.960859) can0 351#00000000
(1469304100.961053) can0 63C#98005A5245172060
(1469304100.961325) can0 020#0000072B
(1469304100.961647) can0 0B4#00000000000000BC
(1469304100.961834) can0 223#000000000000002D
(1469304100.962210) can0 025#000000027000009F
(1469304100.962466) can0 024#020001FD420A80F8
(1469304100.963045) can0 263#00000000B1001D
(1469304100.964018) can0 1C4#06CE28080000FFD0
(1469304100.964930) can0 1C8#80
(1469304100.967472) can0 0AA#1A6F1A6F1A6F1A6F
(1469304100.970009) can0 63D#9900444558534B00
(1469304100.973338) can0 1D0#0DC2090000AC005D
(1469304100.973531) can0 020#0000072B
(1469304100.973694) can0 0BA#05FD00C0
(1469304100.973971) can0 224#0000000000000008
(1469304100.974274) can0 025#000000027000009F
(1469304100.974460) can0 024#020001FD420A80F8
(1469304100.974759) can0 2C1#0801FB006ACF0008
(1469304100.974932) can0 420#00000000FB0180A8
(1469304100.975235) can0 440#4202001101000000
(1469304100.976100) can0 260#0800000000FFEE5F
(1469304100.976540) can0 640#A800005701350000
(1469304100.978968) can0 680#D800010000000000
(1469304100.979647) can0 0AA#1A6F1A6F1A6F1A6F
(1469304100.979849) can0 3B7#583B000000000008
(1469304100.981340) can0 1C8#80
(1469304100.985559) can0 020#0000072B
(1469304100.985795) can0 0B4#00000000000000BC
(1469304100.986063) can0 223#000000000000002D
(1469304100.986313) can0 025#000000027000009F
(1469304100.986566) can0 024#020001FB420A80F6
(1469304100.986736) can0 262#000000016A
(1469304100.987696) can0 263#00000000B1001D
(1469304100.988736) can0 1C4#06BF28080000FFC1
(1469304100.991690) can0 0AA#1A6F1A6F1A6F1A6F
(1469304100.996043) can0 260#0800000000FFEE5F
(1469304100.997636) can0 020#0000072B
(1469304100.997715) can0 0BA#05FB00BE
(1469304100.997858) can0 1C8#80
(1469304100.998123) can0 025#000000027000009F
(1469304100.998389) can0 024#020001FB420A80F6
(1469304100.998698) can0 224#0000000000000008
(1469304101.003744) can0 0AA#1A6F1A6F1A6F1A6F
(1469304101.003874) can0 1AA#0000000000B1
(1469304101.006165) can0 1D0#0DA0090000AC003B
(1469304101.007141) can0 2C1#08020C006ED0001F
(1469304101.009683) can0 020#0000072B
(1469304101.009896) can0 0B4#00000000000000BC
(1469304101.010181) can0 025#000000027000009F
(1469304101.010394) can0 024#020001FD420A80F8
(1469304101.010683) can0 223#000000000000002D
(1469304101.012313) can0 263#00000000B1001D
(1469304101.013336) can0 1C4#06AE28080000FFB0
(1469304101.014224) can0 1C8#80
(1469304101.015762) can0 0AA#1A6F1A6F1A6F1A6F
(1469304101.016020) can0 260#0800000000FFEE5F
(1469304101.020835) can0 351#00000000
(1469304101.021680) can0 020#0000072B
(1469304101.021757) can0 0BA#05FD00C0
(1469304101.022120) can0 224#0000000000000008
(1469304101.022330) can0 024#020001FD420A80F8
(1469304101.022611) can0 025#000000027000009F
(1469304101.022821) can0 361#0017000000000000
(1469304101.025982) can0 262#000000016A
(1469304101.027813) can0 0AA#1A6F1A6F1A6F1A6F
(1469304101.030649) can0 1C8#80
(1469304101.033732) can0 020#0000072B
(1469304101.033942) can0 0B4#00000000000000BC
(1469304101.034234) can0 025#000000027000009F
(1469304101.034526) can0 024#020001FD420A80F8
(1469304101.034696) can0 223#000000000000002D
(1469304101.034940) can0 4AC#4800A00100000324
(1469304101.036086) can0 260#0800000000FFEE5F
(1469304101.036936) can0 263#00000000B1001D
(1469304101.037961) can0 1C4#06A728080000FFA9
(1469304101.039010) can0 1D0#0D7E090000AC0019
(1469304101.039817) can0 0AA#1A6F1A6F1A6F1A6F
(1469304101.040026) can0 2C1#0802160076D00031
(1469304101.042562) can0 3A0#008D00000700006C
(1469304101.044362) can0 3B1#00000D0500080000
(1469304101.045284) can0 4C6#0700030000000000
(1469304101.045753) can0 020#0000072B
(1469304101.045829) can0 0BA#05FD00C0
(1469304101.046195) can0 025#000000027000009F
(1469304101.046512) can0 024#020001FD420A80F8
(1469304101.046627) can0 224#0000000000000008
(1469304101.047001) can0 1C8#80
(1469304101.051844) can0 0AA#1A6F1A6F1A6F1A6F
(1469304101.052043) can0 1AA#0000000000B1
(1469304101.055993) can0 260#08FFFF0000FFF160
(1469304101.057584) can0 610#2000006480FFFD60
(1469304101.057791) can0 020#0000072B
(1469304101.058077) can0 0B4#00000000000000BC
(1469304101.058286) can0 025#000000027000009F
(1469304101.058568) can0 024#020001FD420A80F8
(1469304101.058760) can0 223#000000000000002D
(1469304101.061559) can0 263#00000000B1001D
(1469304101.062561) can0 1C4#069928080000FF9B
(1469304101.063499) can0 1C8#80
(1469304101.063898) can0 0AA#1A6F1A6F1A6F1A6F
(1469304101.065956) can0 262#000000016A
(1469304101.069586) can0 611#21000020000062D4
(1469304101.069794) can0 020#0000072B
(1469304101.069970) can0 0BA#05FD00C0
(1469304101.070269) can0 025#000000027000009F
(1469304101.070461) can0 024#020001FB420A80F6
(1469304101.070712) can0 224#0000000000000008
(1469304101.070960) can0 4C8#0900000000000000
(1469304101.071817) can0 1D0#0D58090000AC00F3
(1469304101.072810) can0 2C1#080222007DD10045
(1469304101.075590) can0 442#4302000001000000
(1469304101.075960) can0 0AA#1A6F1A6F1A6F1A6F
(1469304101.076170) can0 260#0800000000FFEE5F
(1469304101.078829) can0 354#01
(1469304101.079847) can0 1C8#80
(1469304101.080751) can0 351#00000000
(1469304101.081999) can0 020#0000072B
(1469304101.082095) can0 0B4#00000000000000BC
(1469304101.082342) can0 024#020001FB420A80F6
(1469304101.082735) can0 223#000000000000002D
(1469304101.083091) can0 025#000000027000009F
(1469304101.086104) can0 263#00000000B1001D
(1469304101.087113) can0 1C4#068728080000FF89
(1469304101.087928) can0 0AA#1A6F1A6F1A6F1A6F
(1469304101.088173) can0 361#0018000000000000
(1469304101.089133) can0 3F9#5198260100000014
(1469304101.093948) can0 020#0000072B
(1469304101.094058) can0 0BA#05FB00BE
(1469304101.094377) can0 024#020001FD420A80F8
(1469304101.094608) can0 224#0000000000000008
(1469304101.095078) can0 025#000000027000009F
(1469304101.095994) can0 260#0800000000FFEE5F
(1469304101.096261) can0 1C8#80
(1469304101.100043) can0 0AA#1A6F1A6F1A6F1A6F
(1469304101.100239) can0 1AA#0000000000B1
(1469304101.104492) can0 3D3#01A2
(1469304101.104787) can0 1D0#0D26090000AC00C1
(1469304101.105595) can0 2C1#08024A0084D20075
(1469304101.105782) can0 262#000000016A
(1469304101.105951) can0 020#0000072B
(1469304101.106260) can0 0B4#00000000000000BC
(1469304101.106510) can0 024#020001FD420880F6
(1469304101.106761) can0 223#000000000000002D
(1469304101.107117) can0 025#000000027000009F
(1469304101.109561) can0 3D0#00
(1469304101.110743) can0 263#00000000B1001D
(1469304101.111797) can0 1C4#067528080000FF77
(1469304101.112095) can0 0AA#1A6F1A6F1A6F1A6F
(1469304101.112684) can0 1C8#80
(1469304101.115947) can0 260#08FFFF0000FFEE5D
(1469304101.118013) can0 020#0000072B
(1469304101.118152) can0 0BA#05FD00C0
(1469304101.118508) can0 024#020001FD420A80F8
(1469304101.118657) can0 224#0000000000000008
(1469304101.119042) can0 025#000000027000009F
(1469304101.124097) can0 0AA#1A6F1A6F1A6F1A6F
(1469304101.129086) can0 1C8#80
(1469304101.129272) can0 38A#0804000000
(1469304101.130010) can0 020#0000072B
(1469304101.130294) can0 0B4#00000000000000BC
(1469304101.130545) can0 024#020001FD420880F6
(1469304101.130742) can0 223#000000000000002D
(1469304101.131093) can0 025#000000027000009F
(1469304101.135370) can0 263#00000000B1001D
(1469304101.135952) can0 260#08FFFE0000FFEE5C
(1469304101.136146) can0 0AA#1A6F1A6F1A6F1A6F
(1469304101.136494) can0 1C4#066228080000FF64
(1469304101.137499) can0 1D0#0D0D090000AC00A8
(1469304101.138397) can0 2C1#08026D008CD300A1
(1469304101.140790) can0 351#00000000
(1469304101.142063) can0 020#0000072B
(1469304101.142197) can0 0BA#05FD00C0
(1469304101.142451) can0 224#0000000000000008
(1469304101.142970) can0 025#000000027000009F
(1469304101.143350) can0 024#020001FD420880F6
(1469304101.144523) can0 3A0#008D00000700006C
(1469304101.145484) can0 1C8#80
(1469304101.145880) can0 262#000000016A
(1469304101.145925) can0 423#00
(1469304101.148177) can0 0AA#1A6F1A6F1A6F1A6F
(1469304101.148328) can0 1AA#0000000000B1
(1469304101.150971) can0 620#1000FFFFB0500040
(1469304101.153846) can0 361#0018000000000000
(1469304101.154102) can0 020#0000072B
(1469304101.154363) can0 0B4#00000000000000BC
(1469304101.154573) can0 223#000000000000002D
(1469304101.155017) can0 025#000000027000009F
(1469304101.155343) can0 024#020001FB420880F4
(1469304101.155921) can0 3BC#0020000000000000
(1469304101.156113) can0 260#0800000000FFEE5F
(1469304101.157946) can0 399#00000000000000
(1469304101.159973) can0 263#00000000B1001D
(1469304101.160230) can0 0AA#1A6F1A6F1A6F1A6F
(1469304101.160995) can0 1C4#065728080000FF59
(1469304101.161885) can0 1C8#80
(1469304101.166115) can0 020#0000072B
(1469304101.166249) can0 0BA#05FB00BE
(1469304101.166501) can0 224#0000000000000008
(1469304101.166942) can0 025#000000027000009F
(1469304101.167343) can0 024#020001FB420880F4
(1469304101.170272) can0 1D0#0CDF090000AC0079
(1469304101.171247) can0 2C1#0802570096D20094
(1469304101.172245) can0 0AA#1A6F1A6F1A6F1A6F
(1469304101.175897) can0 260#0800000000FFEB5C
(1469304101.176945) can0 443#4002002F06000000
(1469304101.178189) can0 020#0000072B
(1469304101.178496) can0 0B4#00000000000000BC
(1469304101.178507) can0 1C8#80
(1469304101.178807) can0 223#000000000000002D
(1469304101.179058) can0 025#000000027000009F
(1469304101.179358) can0 024#020001FB420880F4
(1469304101.184278) can0 0AA#1A6F1A6F1A6F1A6F
(1469304101.184618) can0 263#00000000B1001D
(1469304101.185646) can0 1C4#065028080000FF52
(1469304101.185796) can0 262#000000016A
(1469304101.190215) can0 020#0000072B
(1469304101.190352) can0 0BA#05FB00BE
(1469304101.190573) can0 224#0000000000000008
(1469304101.190922) can0 025#000000027000009F
(1469304101.191345) can0 024#020001FD420A80F8
(1469304101.194764) can0 1C8#80
(1469304101.195921) can0 260#08FFFF0000FFEE5D
(1469304101.196294) can0 0AA#1A6F1A6F1A6F1A6F
(1469304101.196493) can0 1AA#0000000000B1
(1469304101.200694) can0 351#00000000
(1469304101.202238) can0 020#0000072B
(1469304101.202521) can0 0B4#00000000000000BC
(1469304101.202771) can0 223#000000000000002D
(1469304101.202965) can0 025#000000027000009F
(1469304101.203243) can0 1D0#0CB0090000AC004A
(1469304101.203494) can0 024#020001FD420A80F8
(1469304101.204106) can0 2C1#08025C00A4D200A7
(1469304101.208383) can0 0AA#1A6F1A6F1A6F1A6F
(1469304101.209278) can0 263#00000000B1001D
(1469304101.210303) can0 1C4#064E28080000FF50
(1469304101.211175) can0 1C8#80
(1469304101.214326) can0 020#0000072B
(1469304101.214439) can0 0BA#05FD00C0
(1469304101.214703) can0 224#0000000000000008
(1469304101.214959) can0 025#000000027000009F
(1469304101.215372) can0 024#020001FD420A80F8
(1469304101.215936) can0 260#0800000000FFEE5F
(1469304101.219553) can0 361#0018000000000000
(1469304101.220605) can0 0AA#1A6F1A6F1A6F1A6F
(1469304101.220624) can0 394#4300
(1469304101.225781) can0 262#000000016A
(1469304101.226554) can0 020#0000072B
(1469304101.226772) can0 0B4#00000000000000BC
(1469304101.227053) can0 025#000000027000009F
(1469304101.227276) can0 223#000000000000002D
(1469304101.227506) can0 024#020001FD420880F6
(1469304101.227525) can0 1C8#80
(1469304101.232664) can0 0AA#1A6F1A6F1A6F1A6F
(1469304101.233883) can0 263#00000000B1001D
(1469304101.234936) can0 1C4#064728080000FF49
(1469304101.235888) can0 260#08FFFF0000FFEE5D
(1469304101.236083) can0 1D0#0C9B090000AC0035
(1469304101.236934) can0 2C1#08025C00AFD200B2
(1469304101.238605) can0 020#0000072B
(1469304101.238698) can0 0BA#05FD00C0
(1469304101.239046) can0 224#0000000000000008
(1469304101.239244) can0 025#000000027000009F
(1469304101.239541) can0 024#020001FD420880F6
(1469304101.243529) can0 3A0#008D00000700006C
(1469304101.244019) can0 1C8#80
(1469304101.244704) can0 0AA#1A6F1A6F1A6F1A6F
(1469304101.244865) can0 1AA#0000000000B1
(1469304101.245108) can0 622#1200581000000000
(1469304101.250626) can0 020#0000072B
(1469304101.250839) can0 0B4#00000000000000BC
(1469304101.251122) can0 025#000000027000009F
(1469304101.251351) can0 223#000000000000002D
(1469304101.251613) can0 024#020001FB420A80F6
(1469304101.255907) can0 260#0800000000FFEE5F
(1469304101.256704) can0 0AA#1A6F1A6F1A6F1A6F
(1469304101.258505) can0 263#00000000B1001D
(1469304101.259533) can0 1C4#063828080000FF3A
(1469304101.260420) can0 1C8#80
(1469304101.260698) can0 351#00000000
(1469304101.262673) can0 020#0000072B
(1469304101.262782) can0 0BA#05FB00BE
(1469304101.263047) can0 025#000000027000009F
(1469304101.263355) can0 224#0000000000000008
(1469304101.263551) can0 024#020001FB420A80F6
(1469304101.265796) can0 262#000000016A
(1469304101.268779) can0 1D0#0C90090000AC002A
(1469304101.268968) can0 0AA#1A6F1A6F1A6F1A6F
(1469304101.269750) can0 2C1#08026E00BDD300D3
(1469304101.273528) can0 383#0100010000000000
(1469304101.273825) can0 4DC#1D00000200000000
(1469304101.274719) can0 020#0000072B
(1469304101.274988) can0 0B4#00000000000000BC
(1469304101.275194) can0 223#000000000000002D
(1469304101.275500) can0 024#020001FB420A80F6
(1469304101.275671) can0 440#4202001101000000
(1469304101.275904) can0 260#0800000000FFEE5F
(1469304101.276152) can0 025#000000027000009F
(1469304101.276780) can0 1C8#80
(1469304101.280787) can0 0AA#1A6F1A6F1A6F1A6F
(1469304101.281010) can0 3B7#583B000000000008
(1469304101.283099) can0 263#00000000B1001D
(1469304101.284127) can0 1C4#062828080000FF2A
(1469304101.284167) can0 354#01
(1469304101.285176) can0 361#0019000000000000
(1469304101.286744) can0 020#0000072B
(1469304101.286854) can0 0BA#05FB00BE
(1469304101.287143) can0 224#0000000000000008
(1469304101.287504) can0 024#020001FD420A80F8
(1469304101.287886) can0 025#000000027000009F
(1469304101.292838) can0 0AA#1A6F1A6F1A6F1A6F
(1469304101.293066) can0 1AA#0000000000B1
(1469304101.293191) can0 1C8#80
(1469304101.295791) can0 260#0800000000FFEE5F
(1469304101.298783) can0 020#0000072B
(1469304101.299029) can0 0B4#00000000000000BC
(1469304101.299281) can0 223#000000000000002D
(1469304101.299509) can0 024#020001FD420880F6
(1469304101.299885) can0 025#000000027000009F
(1469304101.301560) can0 1D0#0C6E090000AC0008
(1469304101.302533) can0 2C1#08027A00C7D300E9
(1469304101.304886) can0 0AA#1A6F1A6F1A6F1A6F
(1469304101.305756) can0 262#000000016A
(1469304101.307672) can0 263#00000000B1001D
(1469304101.308733) can0 1C4#062228080000FF24
(1469304101.309627) can0 1C8#80
(1469304101.310829) can0 020#0000072B
(1469304101.310953) can0 0BA#05FD00C0
(1469304101.311277) can0 224#0000000000000008
(1469304101.311514) can0 024#020001FF420A80FA
(1469304101.311789) can0 025#000000027000009F
(1469304101.315836) can0 260#08FFFF0000FFEE5D
(1469304101.316961) can0 0AA#1A6F1A6F1A6F1A6F
(1469304101.320634) can0 351#00000000
(1469304101.322878) can0 020#0000072B
(1469304101.323128) can0 0B4#00000000000000BC
(1469304101.323380) can0 024#020001FD420A80F8
(1469304101.323638) can0 223#000000000000002D
(1469304101.323908) can0 025#000000027000009F
(1469304101.326028) can0 1C8#80
(1469304101.326936) can0 387#0000000000003F3F
(1469304101.328962) can0 0AA#1A6F1A6F1A6F1A6F
(1469304101.332336) can0 263#00000000B1001D
(1469304101.333335) can0 1C4#061928080000FF1B
(1469304101.334385) can0 1D0#0C51090000AC00EB
(1469304101.334879) can0 020#0000072B
(1469304101.335007) can0 0BA#05FD00C0
(1469304101.335332) can0 224#0000000000000008
(1469304101.335534) can0 024#020001FD420A80F8
(1469304101.335769) can0 025#000000027000009F
(1469304101.336056) can0 260#08FFFF0000FFEE5D
(1469304101.336243) can0 2C1#08028000D1D400FA
(1469304101.340948) can0 0AA#1A6F1A6F1A6F1A6F
(1469304101.341182) can0 1AA#0000000000B1
(1469304101.342496) can0 3A0#008B00000700006C
(1469304101.342510) can0 1C8#80
(1469304101.345659) can0 3F9#5198260100000014
(1469304101.345794) can0 262#000000016A
(1469304101.346903) can0 020#0000072B
(1469304101.347157) can0 0B4#00000000000000BC
(1469304101.347408) can0 024#020001FB420A80F6
(1469304101.347598) can0 223#000000000000002D
(1469304101.347908) can0 025#000000027000009F
(1469304101.350777) can0 361#0019000000000000
(1469304101.352985) can0 0AA#1A6F1A6F1A6F1A6F
(1469304101.354359) can0 4DD#1E00000000000000
(1469304101.355734) can0 260#0800000000FFEE5F
(1469304101.356934) can0 389#0000000000000000
(1469304101.357132) can0 263#00000000B1001D
(1469304101.357959) can0 1C4#061028080000FF12
(1469304101.358850) can0 1C8#80
(1469304101.358983) can0 020#0000072B
(1469304101.359153) can0 0BA#05FB00BE
(1469304101.359446) can0 024#020101FB420A80F7
(1469304101.359646) can0 224#0000000000000008
(1469304101.359894) can0 025#000000027000009F
(1469304101.364992) can0 0AA#1A6F1A6F1A6F1A6F
(1469304101.366026) can0 3D0#00
(1469304101.367210) can0 1D0#0C3D090000AC00D7
(1469304101.368184) can0 2C1#08028900DAD4000C
(1469304101.370954) can0 020#0000072B
(1469304101.371189) can0 0B4#00000000000000BC
(1469304101.371445) can0 024#020001FB420A80F6
(1469304101.371665) can0 223#000000000000002D
(1469304101.371986) can0 025#000000027000009F
(1469304101.375266) can0 1C8#80
(1469304101.375557) can0 442#4302000001000000
(1469304101.375812) can0 260#08FFFF0000FFEE5D
(1469304101.377084) can0 0AA#1A6F1A6F1A6F1A6F
(1469304101.380610) can0 351#00000000
(1469304101.381560) can0 263#00000000B1001D
(1469304101.382571) can0 1C4#060928080000FF0B
(1469304101.382964) can0 020#0000072B
(1469304101.383156) can0 0BA#05FB00BE
(1469304101.383480) can0 024#020001FD420880F6
(1469304101.383653) can0 224#0000000000000008
(1469304101.383911) can0 025#000000027000009F
(1469304101.385701) can0 262#000000016A
(1469304101.386952) can0 38E#2020000000000000
(1469304101.389127) can0 0AA#1A6F1A6F1A6F1A6F
(1469304101.389292) can0 1AA#0000000000B1
(1469304101.391676) can0 1C8#80
(1469304101.395069) can0 020#0000072B
(1469304101.395339) can0 0B4#00000000000000BC
(1469304101.395545) can0 223#000000000000002D
(1469304101.395824) can0 025#000000027000009F
(1469304101.396090) can0 260#0800000000FFEE5F
(1469304101.396374) can0 024#020001FD420A80F8
(1469304101.399987) can0 1D0#0C20090000AC00BA
(1469304101.401002) can0 2C1#08028D00E2D40018
(1469304101.401184) can0 0AA#1A6F1A6F1A6F1A6F
(1469304101.406170) can0 263#00000000B1001D
(1469304101.407092) can0 020#0000072B
(1469304101.407232) can0 0BA#05FD00C0
(1469304101.407486) can0 1C4#060128080000FF03
(1469304101.407754) can0 025#000000027000009F
(1469304101.408033) can0 224#0000000000000008
(1469304101.408047) can0 1C8#80
(1469304101.408390) can0 024#020001FD420880F6
(1469304101.413207) can0 0AA#1A6F1A6F1A6F1A6F
(1469304101.415691) can0 260#0800000000FFEE5F
(1469304101.415976) can0 38F#0300000000000000
(1469304101.418130) can0 361#0019000000000000
(1469304101.419068) can0 020#0000072B
(1469304101.419319) can0 0B4#00000000000000BC
(1469304101.419550) can0 223#000000000000002D
(1469304101.419881) can0 025#000000027000009F
(1469304101.420330) can0 024#020001FD420880F6
(1469304101.423512) can0 380#C0A0400000004100
(1469304101.423754) can0 3B0#00B5005600180000
(1469304101.424485) can0 1C8#80
(1469304101.425235) can0 0AA#1A6F1A6F1A6F1A6F
(1469304101.425692) can0 262#000000016A
(1469304101.430770) can0 263#00000000B1001D
(1469304101.431080) can0 020#0000072B
(1469304101.431214) can0 0BA#05FD00C0
(1469304101.431514) can0 224#0000000000000008
(1469304101.431756) can0 025#000000027000009F
(1469304101.432006) can0 1C4#05F428080000FFF5
(1469304101.432307) can0 024#020001FD420880F6
(1469304101.432788) can0 1D0#0C09090000AC00A3
(1469304101.433782) can0 2C1#08029F00ECD40034
(1469304101.435750) can0 260#0800000000FFEE5F
(1469304101.437246) can0 0AA#1A6F1A6F1A6F1A6F
(1469304101.437500) can0 1AA#0000000000B1
(1469304101.440542) can0 351#00000000
(1469304101.440908) can0 1C8#80
(1469304101.443124) can0 020#0000072B
(1469304101.443379) can0 0B4#00000000000000BC
(1469304101.443637) can0 223#000000000000002D
(1469304101.443918) can0 025#000000027000009F
(1469304101.444368) can0 024#020001FB420A80F6
(1469304101.444575) can0 3A0#008B00000700006C
(1469304101.444919) can0 6E1#A180000000100000
(1469304101.446944) can0 3A5#0000000000007EFC
(1469304101.449272) can0 0AA#1A6F1A6F1A6F1A6F
(1469304101.453919) can0 620#1000FFFFB0500040
(1469304101.455217) can0 020#0000072B
(1469304101.455352) can0 0BA#05FB00BE
(1469304101.455612) can0 224#0000000000000008
(1469304101.455898) can0 025#000000027000009F
(1469304101.456149) can0 260#0800000000FFEE5F
(1469304101.456399) can0 024#020001FB420880F4
(1469304101.456588) can0 263#00000000B1001D
(1469304101.456867) can0 1C4#05E828080000FFE9
(1469304101.457307) can0 1C8#80
(1469304101.461347) can0 0AA#1A6F1A6F1A6F1A6F
(1469304101.465672) can0 1D0#0BF3090000AC008C
(1469304101.465805) can0 262#000000016A
(1469304101.466646) can0 2C1#0802B000F2D5004C
(1469304101.467288) can0 020#0000072B
(1469304101.467544) can0 0B4#00000000000000BC
(1469304101.467797) can0 025#00010002900000C0
(1469304101.467988) can0 223#000000000000002D
(1469304101.468368) can0 024#020001FD420A80F8
(1469304101.473547) can0 0AA#1A6F1A6F1A6F1A6F
(1469304101.473693) can0 1C8#80
(1469304101.475697) can0 260#08FFFF0000FFEE5D
(1469304101.475950) can0 443#4002002F06000000
(1469304101.476945) can0 413#0101010900000000
(1469304101.479489) can0 020#0000072B
(1469304101.479625) can0 0BA#05FD00C0
(1469304101.479887) can0 224#0000000000000008
(1469304101.480099) can0 263#00000000B1001D
(1469304101.480378) can0 024#020001FD420880F6
(1469304101.480605) can0 025#000000027000009F
(1469304101.481003) can0 1C4#05DA28080000FFDB
(1469304101.482054) can0 361#0019000000000000
(1469304101.485596) can0 0AA#1A6F1A6F1A6F1A6F
(1469304101.485746) can0 1AA#0000000000B1
(1469304101.489114) can0 354#01
(1469304101.490160) can0 1C8#80
(1469304101.491516) can0 020#0000072B
(1469304101.491779) can0 0B4#00000000000000BC
(1469304101.491976) can0 223#000000000000002D
(1469304101.492356) can0 024#020001FD420A80F8
(1469304101.492670) can0 025#000000027000009F
(1469304101.495762) can0 260#0800000000FFEE5F
(1469304101.497611) can0 0AA#1A6F1A6F1A6F1A6F
(1469304101.498541) can0 1D0#0BD2090000AC006B
(1469304101.499508) can0 2C1#0802C000FED60069
(1469304101.500555) can0 351#00000000
(1469304101.503536) can0 020#0000072B
(1469304101.503628) can0 0BA#05FD00C0
(1469304101.503906) can0 224#0000000000000008
