(1469304754.154659) can0 440#40008011010F0F0F
(1469304754.159681) can0 442#42008000010F0F0F
(1469304754.254657) can0 440#4001801101000000
(1469304754.254872) can0 620#1080FFFF80500080
(1469304754.258672) can0 442#4201800001000000
(1469304754.348643) can0 440#4212001101000000
(1469304754.348877) can0 442#4002000001000000
(1469304754.434676) can0 620#1080FFFF90500080
(1469304754.448644) can0 440#4202001101000000
(1469304754.451016) can0 443#4300802F060F0F0F
(1469304754.477671) can0 610#2000006480FFFD60
(1469304754.478669) can0 621#1100000000000000
(1469304754.487670) can0 622#1200481000000000
(1469304754.489690) can0 611#21000020000062D4
(1469304754.489883) can0 020#0000072B
(1469304754.496646) can0 623#1900000000000000
(1469304754.501673) can0 618#2200000080000000
(1469304754.501936) can0 020#0000072B
(1469304754.502170) can0 0B4#00000000020000BE
(1469304754.502470) can0 223#0008000000000035
(1469304754.502641) can0 420#0000000000008AB6
(1469304754.505645) can0 6E1#A100030000F00000
(1469304754.513693) can0 619#230000000C003A80
(1469304754.513920) can0 020#0000072B
(1469304754.514076) can0 0BA#06008044
(1469304754.514375) can0 224#0000000000000048
(1469304754.514599) can0 4C3#0300000100000000
(1469304754.514835) can0 624#1A00414949400000
(1469304754.520030) can0 0AA#1A6F1A6F1A6F1A6F
(1469304754.520214) can0 1AA#0000000000B1
(1469304754.523645) can0 6E2#A200CCFEFEFEFEFE
(1469304754.525667) can0 61A#2400000000014F60
(1469304754.526012) can0 020#0000072B
(1469304754.526240) can0 0B4#00000000020000BE
(1469304754.526566) can0 223#0008000000000035
(1469304754.532121) can0 0AA#9A6F9A6F9A6F9A6F
(1469304754.532667) can0 626#1C00300000000000
(1469304754.537670) can0 61C#2600000000000000
(1469304754.538210) can0 020#0000072B
(1469304754.538302) can0 0BA#06008044
(1469304754.538641) can0 224#0000000000000048
(1469304754.541642) can0 638#1300180100000000
(1469304754.544328) can0 0AA#1A6F1A6F1A6F1A6F
(1469304754.549670) can0 442#4002000001000000
(1469304754.549864) can0 640#A8000000012F0000
(1469304754.550217) can0 020#0000072B
(1469304754.550542) can0 0B4#00000000020000BE
(1469304754.550713) can0 223#0008000000000035
(1469304754.550945) can0 63C#98005A5245172060
(1469304754.551193) can0 443#4301802F06000000
(1469304754.556344) can0 0AA#1A6F1A6F1A6F1A6F
(1469304754.556514) can0 263#0000000001006D
(1469304754.557489) can0 1C4#0000000000003E0B
(1469304754.559627) can0 63D#9900444558534B00
(1469304754.562261) can0 020#0000072B
(1469304754.562352) can0 0BA#06008044
(1469304754.562694) can0 224#0000000000000048
(1469304754.563044) can0 443#4201002F06000000
(1469304754.565560) can0 354#00
(1469304754.566557) can0 1C8#00
(1469304754.568370) can0 0AA#1A6F1A6F1A6F1A6F
(1469304754.568514) can0 1AA#0000000000B1
(1469304754.568793) can0 680#D800010000000000
(1469304754.574288) can0 020#0000072B
(1469304754.574535) can0 0B4#00000000020000BE
(1469304754.574739) can0 223#0008000000000035
(1469304754.575042) can0 1D0#00000100000000DA
(1469304754.575906) can0 2C1#08FFD412A1BE0017
(1469304754.576096) can0 3F9#5198260100000014
(1469304754.580370) can0 0AA#1A6F1A6F1A6F1A6F
(1469304754.581001) can0 263#00000000AE001A
(1469304754.582117) can0 1C4#00002A000000FFF6
(1469304754.582956) can0 1C8#00
(1469304754.586219) can0 4C1#0100000500000000
(1469304754.586292) can0 020#0000072B
(1469304754.586561) can0 0BA#06008044
(1469304754.586733) can0 224#0000000000000048
(1469304754.591318) can0 361#00A0000700000000
(1469304754.592400) can0 0AA#1A6F1A6F1A6F1A6F
(1469304754.593392) can0 3BC#0020000000000000
(1469304754.594311) can0 3BB#8000AE00
(1469304754.595390) can0 399#00000000000000
(1469304754.596263) can0 3D0#00
(1469304754.598336) can0 020#0000072B
(1469304754.598541) can0 0B4#00000000020000BE
(1469304754.598843) can0 223#0008000000000035
(1469304754.599342) can0 1C8#00
(1469304754.600426) can0 38A#1C04000000
(1469304754.603645) can0 620#1080FFFFA0500080
(1469304754.604467) can0 0AA#1A6F1A6F1A6F1A6F
(1469304754.605666) can0 263#00000000AE001A
(1469304754.606717) can0 1C4#00002A000000FFF6
(1469304754.607726) can0 1D0#0000010000AC0086
(1469304754.608718) can0 2C1#08FFD412A1BE0017
(1469304754.610413) can0 020#0000072B
(1469304754.610492) can0 0BA#06008044
(1469304754.610788) can0 224#0000000000000048
(1469304754.615784) can0 1C8#00
(1469304754.616565) can0 0AA#1A6F1A6F1A6F1A6F
(1469304754.616590) can0 1AA#0000000000B1
(1469304754.622412) can0 020#0000072B
(1469304754.622617) can0 0B4#00000000020000BE
(1469304754.622868) can0 223#0008000000000035
(1469304754.628569) can0 0AA#1A6F1A6F1A6F1A6F
(1469304754.630264) can0 263#00000000AE001A
(1469304754.631315) can0 1C4#00002A000000FFF6
(1469304754.632139) can0 1C8#00
(1469304754.634435) can0 020#0000072B
(1469304754.634515) can0 0BA#06008044
(1469304754.634864) can0 224#0000000000000048
(1469304754.635145) can0 025#000000027000009F
(1469304754.639445) can0 260#0E00000000000078
(1469304754.640570) can0 0AA#1A6F1A6F1A6F1A6F
(1469304754.640715) can0 1D0#0000010000AC0086
(1469304754.641519) can0 2C1#08FFD412A1BE0017
(1469304754.644266) can0 351#00000000
(1469304754.646438) can0 020#0000072B
(1469304754.646644) can0 0B4#00000000020000BE
(1469304754.646893) can0 223#0008000000000035
(1469304754.647239) can0 025#000000027000009F
(1469304754.648624) can0 440#4202001101000000
(1469304754.648641) can0 1C8#00
(1469304754.649376) can0 262#000000016A
(1469304754.651369) can0 4C6#0700030000000000
(1469304754.652570) can0 0AA#1A6F1A6F1A6F1A6F
(1469304754.654343) can0 4C8#0900000000000000
(1469304754.654892) can0 263#00000000AE001A
(1469304754.655952) can0 1C4#00002A000000FFF6
(1469304754.656160) can0 423#00
(1469304754.656967) can0 361#00A0000700000000
(1469304754.658460) can0 020#0000072B
(1469304754.658552) can0 0BA#06008044
(1469304754.658890) can0 224#0000000000000048
(1469304754.659126) can0 025#000000027000009F
(1469304754.659395) can0 260#0E00000000000078
(1469304754.664166) can0 394#4300
(1469304754.664566) can0 0AA#1A6F1A6F1A6F1A6F
(1469304754.664659) can0 1AA#0000000000B1
(1469304754.665003) can0 1C8#00
(1469304754.670462) can0 020#0000072B
(1469304754.670668) can0 0B4#00000000020000BE
(1469304754.670918) can0 223#0008000000000035
(1469304754.671164) can0 025#000000027000009F
(1469304754.673369) can0 1D0#0000010000AC0086
(1469304754.674365) can0 2C1#08FFD412A1BE0017
(1469304754.676569) can0 0AA#1A6F1A6F1A6F1A6F
(1469304754.679420) can0 260#0E00000000000078
(1469304754.679594) can0 263#00000000AE001A
(1469304754.680565) can0 1C4#00002A000000FFF6
(1469304754.681406) can0 1C8#00
(1469304754.682448) can0 020#0000072B
(1469304754.682615) can0 0BA#06008044
(1469304754.682879) can0 224#0000000000000048
(1469304754.683141) can0 025#000000027000009F
(1469304754.688595) can0 0AA#1A6F1A6F1A6F1A6F
(1469304754.689310) can0 262#000000016A
(1469304754.694560) can0 020#0000072B
(1469304754.694734) can0 0B4#00000000020000BE
(1469304754.695035) can0 223#0008000000000035
(1469304754.695230) can0 025#000000027000009F
(1469304754.697835) can0 1C8#00
(1469304754.699442) can0 260#0E00000000000078
(1469304754.700646) can0 0AA#1A6F1A6F1A6F1A6F
(1469304754.704124) can0 263#00000000AE001A
(1469304754.704196) can0 351#00000000
(1469304754.705168) can0 1C4#00002A000000FFF6
(1469304754.706192) can0 1D0#0000010000AC0086
(1469304754.706610) can0 020#0000072B
(1469304754.706701) can0 0BA#06008044
(1469304754.707031) can0 224#0000000000000048
(1469304754.707230) can0 025#000000027000009F
(1469304754.707600) can0 2C1#08FFD412A1BE0017
(1469304754.712696) can0 0AA#1A6F1A6F1A6F1A6F
(1469304754.712862) can0 1AA#0000000000B1
(1469304754.713090) can0 3B7#583B000000000008
(1469304754.714232) can0 1C8#00
(1469304754.718641) can0 020#0000072B
(1469304754.718833) can0 0B4#00000000020000BE
(1469304754.719088) can0 025#000000027000009F
(1469304754.719341) can0 223#0008000000000035
(1469304754.719652) can0 260#0E00000000000078
(1469304754.722593) can0 361#00A0000700000000
(1469304754.724744) can0 0AA#1A6F1A6F1A6F1A6F
(1469304754.728718) can0 263#00000000AE001A
(1469304754.729287) can0 262#000000016A
(1469304754.729795) can0 1C4#00002A000000FFF6
(1469304754.730662) can0 020#0000072B
(1469304754.730754) can0 0BA#06008044
(1469304754.731105) can0 025#000000027000009F
(1469304754.731122) can0 1C8#00
(1469304754.731426) can0 224#0000000000000048
(1469304754.736770) can0 0AA#1A6F1A6F1A6F1A6F
(1469304754.739018) can0 1D0#0000010000AC0086
(1469304754.739389) can0 260#0E00000000000078
(1469304754.739992) can0 2C1#08FFD412A1BE0017
(1469304754.742713) can0 020#0000072B
(1469304754.742939) can0 0B4#00000000020000BE
(1469304754.743188) can0 025#000000027000009F
(1469304754.743436) can0 223#0008000000000035
(1469304754.747060) can0 1C8#00
(1469304754.748818) can0 0AA#1A6F1A6F1A6F1A6F
(1469304754.750666) can0 442#4302000001000000
(1469304754.750864) can0 610#2080006480FFFD60
(1469304754.753342) can0 263#00000000AE001A
(1469304754.754390) can0 1C4#00002A000000FFF6
(1469304754.754786) can0 020#0000072B
(1469304754.754863) can0 0BA#06008044
(1469304754.755206) can0 224#0000000000000048
(1469304754.755404) can0 025#000000027000009F
(1469304754.759397) can0 260#0E00000000000078
(1469304754.760869) can0 0AA#1A6F1A6F1A6F1A6F
(1469304754.761012) can0 1AA#0000000000B1
(1469304754.762672) can0 611#21800020000062D4
(1469304754.763481) can0 1C8#00
(1469304754.764186) can0 351#00000000
(1469304754.766787) can0 020#0000072B
(1469304754.766991) can0 0B4#00000000020000BE
(1469304754.767291) can0 025#000000027000009F
(1469304754.767545) can0 223#0008000000000035
(1469304754.769312) can0 262#000000016A
(1469304754.770656) can0 354#07
(1469304754.771819) can0 1D0#0000010000AC0086
(1469304754.772773) can0 2C1#08FFD412A1BE0017
(1469304754.773040) can0 0AA#1A6F1A6F1A6F1A6F
(1469304754.774666) can0 618#2280000080000000
(1469304754.777968) can0 263#00000000AE001A
(1469304754.778811) can0 020#0000072B
(1469304754.778890) can0 0BA#06008044
(1469304754.779233) can0 025#000000027000009F
(1469304754.779431) can0 1C4#00002A000000FFF6
(1469304754.779674) can0 224#0000000000000048
(1469304754.779960) can0 260#0E00000000000078
(1469304754.779986) can0 1C8#00
(1469304754.784872) can0 0AA#1A6F1A6F1A6F1A6F
(1469304754.786667) can0 619#238000000C003A80
(1469304754.788269) can0 361#00A0000700000000
(1469304754.790862) can0 020#0000072B
(1469304754.791058) can0 0B4#00000000020000BE
(1469304754.791360) can0 025#000000027000009F
(1469304754.791565) can0 223#0008000000000035
(1469304754.796319) can0 1C8#00
(1469304754.796972) can0 0AA#1A6F1A6F1A6F1A6F
(1469304754.798671) can0 61A#2480000000014F60
(1469304754.799321) can0 260#0E00000000000078
(1469304754.802600) can0 263#00000000AE001A
(1469304754.802852) can0 020#0000072B
(1469304754.803002) can0 0BA#06008044
(1469304754.803312) can0 224#0000000000000048
(1469304754.803613) can0 1C4#00002A000000FFF6
(1469304754.804014) can0 025#000000027000009F
(1469304754.804671) can0 1D0#0000010000AC0086
(1469304754.805647) can0 2C1#08FFD412A1BE0017
(1469304754.807021) can0 383#0100010000000000
(1469304754.807346) can0 381#0000000080000000
(1469304754.807658) can0 4DC#1D00000200000000
(1469304754.808973) can0 0AA#1A6F1A6F1A6F1A6F
(1469304754.809160) can0 1AA#0000000000B1
(1469304754.809327) can0 262#000000016A
(1469304754.810672) can0 61C#2680000000000000
(1469304754.812767) can0 1C8#00
(1469304754.814867) can0 020#0000072B
(1469304754.815176) can0 0B4#00000000020000BE
(1469304754.815379) can0 223#0008000000000035
(1469304754.816105) can0 025#000000027000009F
(1469304754.819372) can0 260#0E00000000000078
(1469304754.820997) can0 0AA#1A6F1A6F1A6F1A6F
(1469304754.824171) can0 351#00000000
(1469304754.826941) can0 020#0000072B
(1469304754.827024) can0 0BA#06008044
(1469304754.827388) can0 224#0000000000000048
(1469304754.827607) can0 263#00000000AE001A
(1469304754.828014) can0 025#000000027000009F
(1469304754.828214) can0 1C4#00002A000000FFF6
(1469304754.829133) can0 1C8#00
(1469304754.832351) can0 3F9#5198260100000014
(1469304754.833042) can0 0AA#1A6F1A6F1A6F1A6F
(1469304754.837494) can0 1D0#0000010000AC0086
(1469304754.838469) can0 2C1#08FFD412A1BE0017
(1469304754.838986) can0 020#0000072B
(1469304754.839219) can0 0B4#00000000020000BE
(1469304754.839603) can0 223#0008000000000035
(1469304754.839688) can0 260#0E00000000000078
(1469304754.840069) can0 025#000000027000009F
(1469304754.845210) can0 0AA#1A6F1A6F1A6F1A6F
(1469304754.845562) can0 1C8#00
(1469304754.849220) can0 262#000000016A
(1469304754.850021) can0 443#4002002F06000000
(1469304754.851215) can0 020#0000072B
(1469304754.851300) can0 0BA#06008044
(1469304754.851655) can0 224#0000000000000048
(1469304754.851783) can0 263#00000000AE001A
(1469304754.852047) can0 025#000000027000009F
(1469304754.852823) can0 1C4#00002A000000FFF6
(1469304754.852929) can0 3D0#00
(1469304754.853826) can0 361#00A0000100000000
(1469304754.857277) can0 0AA#1A6F1A6F1A6F1A6F
(1469304754.857523) can0 1AA#0000000000B1
(1469304754.859324) can0 260#0E00000000000078
(1469304754.861050) can0 387#0000000000003F3F
(1469304754.861957) can0 1C8#00
(1469304754.863241) can0 020#0000072B
(1469304754.863433) can0 0B4#00000000020000BE
(1469304754.863680) can0 223#0008000000000035
(1469304754.864003) can0 025#000000027000009F
(1469304754.869344) can0 0AA#1A6F1A6F1A6F1A6F
(1469304754.870315) can0 1D0#0000010000AC0086
(1469304754.871266) can0 2C1#08FFD412A1BE0017
(1469304754.872493) can0 4DD#1E00000000000000
(1469304754.875260) can0 020#0000072B
(1469304754.875376) can0 0BA#06008044
(1469304754.875650) can0 224#0000000000000048
(1469304754.875925) can0 025#000000027000009F
(1469304754.876436) can0 263#00000000AE001A
(1469304754.877467) can0 1C4#00002A000000FFF6
(1469304754.878356) can0 1C8#00
(1469304754.879344) can0 260#0E00000000000078
(1469304754.881368) can0 0AA#1A6F1A6F1A6F1A6F
(1469304754.884114) can0 351#00000000
(1469304754.887334) can0 020#0000072B
(1469304754.887564) can0 0B4#00000000020000BE
(1469304754.887807) can0 223#0008000000000035
(1469304754.888084) can0 025#000000027000009F
(1469304754.889231) can0 262#000000016A
(1469304754.891036) can0 389#0000000000000000
(1469304754.892565) can0 024#5E0009FB4A088060
(1469304754.893393) can0 0AA#1A6F1A6F1A6F1A6F
(1469304754.894740) can0 1C8#00
(1469304754.899263) can0 260#0E00000000000078
(1469304754.899328) can0 020#0000072B
(1469304754.899540) can0 0BA#06008044
(1469304754.899864) can0 224#0000000000000048
(1469304754.900037) can0 025#000000027000009F
(1469304754.901056) can0 263#00000000AE001A
(1469304754.902085) can0 1C4#00002A000000FFF6
(1469304754.903097) can0 1D0#0000010000AC0086
(1469304754.903519) can0 620#1000FFFFA0500080
(1469304754.904041) can0 2C1#08FFD412A1BE0017
(1469304754.904438) can0 024#5E0009FF4A088064
(1469304754.905446) can0 0AA#1A6F1A6F1A6F1A6F
(1469304754.905665) can0 1AA#0000000000B1
(1469304754.911175) can0 1C8#00
(1469304754.911443) can0 020#0000072B
(1469304754.911667) can0 0B4#00000000020000BE
(1469304754.911941) can0 025#000000027000009F
(1469304754.912171) can0 223#0008000000000035
(1469304754.916432) can0 024#5E000A004A088066
(1469304754.917556) can0 0AA#1A6F1A6F1A6F1A6F
(1469304754.919201) can0 260#0E00000000000078
(1469304754.919478) can0 361#00A0000000000000
(1469304754.920956) can0 38E#2020000000000000
(1469304754.923386) can0 020#0000072B
(1469304754.923552) can0 0BA#060000C4
(1469304754.923847) can0 224#0000000000000048
(1469304754.924077) can0 025#000000027000009F
(1469304754.925604) can0 263#00000000AE001A
(1469304754.926691) can0 1C4#00002A000000FFF6
(1469304754.927562) can0 1C8#00
(1469304754.928541) can0 024#5E0009FF4A088064
(1469304754.929212) can0 262#000000016A
(1469304754.929502) can0 0AA#1A6F1A6F1A6F1A6F
(1469304754.935538) can0 020#0000072B
(1469304754.935726) can0 0B4#00000000020000BE
(1469304754.936007) can0 025#000000027000009F
(1469304754.936217) can0 1D0#0000010000AC0086
(1469304754.936540) can0 223#0008000000000035
(1469304754.936890) can0 2C1#08FFD412A1BE0017
(1469304754.939289) can0 260#0E00000000000078
(1469304754.940467) can0 024#5E0009FD4A088062
(1469304754.941590) can0 0AA#1A6F1A6F1A6F1A6F
(1469304754.943962) can0 1C8#00
(1469304754.944111) can0 351#00000000
(1469304754.947535) can0 020#0000072B
(1469304754.947633) can0 0BA#060000C4
(1469304754.947957) can0 025#000000027000009F
(1469304754.948164) can0 224#0000000000000048
(1469304754.948542) can0 440#4202001101000000
(1469304754.950264) can0 263#00000000AE001A
(1469304754.951015) can0 38F#0300000000000000
(1469304754.951249) can0 1C4#00EE2A000000FFE4
(1469304754.952549) can0 024#5E0009FA4A0A8061
(1469304754.953640) can0 0AA#1A6F1A6F1A6F1A6F
(1469304754.953803) can0 1AA#0000000000B1
(1469304754.956990) can0 382#3838380000000000
(1469304754.959191) can0 260#0E00000000000078
(1469304754.959541) can0 020#0000072B
(1469304754.959773) can0 0B4#00000000020000BE
(1469304754.960062) can0 025#000000027000009F
(1469304754.960272) can0 223#0008000000000035
(1469304754.960373) can0 1C8#00
(1469304754.964033) can0 394#4300
(1469304754.964538) can0 024#5E0009F84A0A805F
(1469304754.965639) can0 0AA#1A6F1A6F1A6F1A6F
(1469304754.968684) can0 1D0#0031010000AC00B7
(1469304754.969063) can0 262#000000016A
(1469304754.969644) can0 2C1#08FFD412A1BE0017
(1469304754.971520) can0 020#0000072B
(1469304754.971665) can0 0BA#060000C4
(1469304754.971913) can0 224#0000000000000048
(1469304754.972162) can0 025#000000027000009F
(1469304754.974823) can0 263#00000000AE001A
(1469304754.975838) can0 1C4#01012A000000FFF8
(1469304754.975936) can0 354#07
(1469304754.976484) can0 024#5E0009F84A0A805F
(1469304754.976703) can0 1C8#00
(1469304754.977606) can0 0AA#1A6F1A6F1A6F1A6F
(1469304754.979200) can0 260#0E00000000000078
(1469304754.980951) can0 3A5#0000000000007EFC
(1469304754.983570) can0 020#0000072B
(1469304754.983795) can0 0B4#00000000020000BE
(1469304754.984044) can0 025#000000027000009F
(1469304754.984293) can0 223#0008000000000035
(1469304754.985107) can0 361#00A0000000000000
(1469304754.988500) can0 024#5E0009FD4A088062
(1469304754.989675) can0 0AA#1A6F1A6F1A6F1A6F
(1469304754.993166) can0 1C8#00
(1469304754.995595) can0 020#0000072B
(1469304754.995739) can0 0BA#060000C4
(1469304754.996001) can0 025#000000027000009F
(1469304754.996250) can0 224#0000000000000048
(1469304754.999175) can0 260#0E00000000000078
(1469304754.999502) can0 263#00000000AE001A
(1469304755.000500) can0 024#5E000A004A088066
(1469304755.000675) can0 1C4#01532A000000FF4A
(1469304755.001500) can0 1D0#0150010000AC00D7
(1469304755.001700) can0 0AA#1A6F1A6F1A6F1A6F
(1469304755.001922) can0 1AA#0000000000B1
(1469304755.002500) can0 2C1#08059612A3EC000F
(1469304755.004020) can0 351#00000000
(1469304755.007621) can0 020#0000072B
(1469304755.007930) can0 0B4#00000000020000BE
(1469304755.008153) can0 223#0008000000000035
(1469304755.008849) can0 025#000000027000009F
(1469304755.009047) can0 262#000000016A
(1469304755.009565) can0 1C8#00
(1469304755.010950) can0 413#0101010900000000
(1469304755.012500) can0 024#5E000A014A088067
(1469304755.013750) can0 0AA#1A6F1A6F1A6F1A6F
(1469304755.013976) can0 3B7#583B000000000008
(1469304755.018499) can0 6E1#A180000000100000
(1469304755.019122) can0 260#0E00000000000078
(1469304755.019671) can0 020#0000072B
(1469304755.019814) can0 0BA#060000C4
(1469304755.020088) can0 224#0000000000000048
(1469304755.020775) can0 025#000000027000009F
(1469304755.024055) can0 263#00000000AE001A
(1469304755.024502) can0 024#5E000A004A088066
(1469304755.025080) can0 1C4#015C2A000000FF53
(1469304755.025756) can0 0AA#1A6F1A6F1A6F1A6F
(1469304755.025966) can0 1C8#00
(1469304755.031720) can0 020#0000072B
(1469304755.031950) can0 0B4#00000000020000BE
(1469304755.032200) can0 223#0008000000000035
(1469304755.032825) can0 025#000000027000009F
(1469304755.034325) can0 1D0#0187010000AC000E
(1469304755.035300) can0 2C1#08059712A4EC0011
(1469304755.036483) can0 024#5E0009FB4A0A8062
(1469304755.037800) can0 0AA#1A6F1A6F1A6F1A6F
(1469304755.039174) can0 260#0E00000000000078
(1469304755.040975) can0 434#3F00000000000000
(1469304755.042391) can0 1C8#00
(1469304755.043744) can0 020#0000072B
(1469304755.043894) can0 0BA#060000C4
(1469304755.044168) can0 224#0000000000000048
(1469304755.044749) can0 025#000000027000009F
(1469304755.048501) can0 024#5E0009F84A08805D
(1469304755.048674) can0 263#00000000AE001A
(1469304755.049095) can0 262#000000016A
(1469304755.049700) can0 1C4#01502A000000FF47
(1469304755.049901) can0 0AA#1A6F1A6F1A6F1A6F
(1469304755.050122) can0 1AA#0000000000B1
(1469304755.050600) can0 442#4302000001000000
(1469304755.050826) can0 361#00A0000000000000
(1469304755.055750) can0 020#0000072B
(1469304755.056000) can0 0B4#00000000020000BE
(1469304755.056249) can0 223#0008000000000035
(1469304755.056779) can0 025#000000027000009F
(1469304755.058791) can0 1C8#00
(1469304755.059163) can0 260#0E00000000000078
(1469304755.060500) can0 024#5E0009F64A08805B
(1469304755.061875) can0 0AA#1A6F1A6F1A6F1A6F
(1469304755.063945) can0 351#00000000
(1469304755.066994) can0 3D3#00FD
(1469304755.067268) can0 1D0#01C2010000AC0049
(1469304755.067795) can0 020#0000072B
(1469304755.067939) can0 0BA#060000C4
(1469304755.068213) can0 224#0000000000000048
(1469304755.068477) can0 2C1#08059612A3EC000F
(1469304755.068700) can0 025#000000027000009F
(1469304755.069499) can0 6E2#A28000FEFEFEFEFE
(1469304755.070951) can0 435#0F0505FFE00FE003
(1469304755.072500) can0 024#5E0009F84A08805D
(1469304755.072700) can0 3B1#00000E0A00080000
(1469304755.072925) can0 4AC#0802200500000004
(1469304755.073271) can0 263#00000000AE001A
(1469304755.073882) can0 0AA#1A6F1A6F1A6F1A6F
(1469304755.074280) can0 1C4#01522A000000FF49
(1469304755.075172) can0 1C8#00
(1469304755.079124) can0 260#0E00000000000078
(1469304755.079845) can0 020#0000072B
(1469304755.080070) can0 0B4#00000000020000BE
(1469304755.080319) can0 223#0008000000000035
(1469304755.080775) can0 025#000000027000009F
(1469304755.084500) can0 024#5E0009FD4A0A8064
(1469304755.085924) can0 0AA#1A6F1A6F1A6F1A6F
(1469304755.088626) can0 3F9#5198260100000014
(1469304755.089020) can0 262#000000016A
(1469304755.091616) can0 1C8#00
(1469304755.091860) can0 020#0000072B
(1469304755.092053) can0 0BA#060000C4
(1469304755.092302) can0 224#0000000000000048
(1469304755.092700) can0 025#000000027000009F
(1469304755.096500) can0 024#5E000200420C805A
(1469304755.097898) can0 263#00000000AE001A
(1469304755.098100) can0 0AA#1A6F1A6F1A6F1A6F
(1469304755.098297) can0 1AA#0000000000B1
(1469304755.098925) can0 1C4#01912A000000FF88
(1469304755.099151) can0 260#0E00000000000078
(1469304755.099950) can0 1D0#01F1010000AC0078
(1469304755.100925) can0 2C1#08059412A4EC000E
(1469304755.101151) can0 436#0000000000000000
(1469304755.103876) can0 020#0000072B
(1469304755.104150) can0 0B4#00000000020000BE
(1469304755.104400) can0 223#000000000000002D
(1469304755.104731) can0 025#000000027000009F
(1469304755.108017) can0 1C8#00
(1469304755.108500) can0 024#5E000201420A8059
(1469304755.108988) can0 3D0#00
(1469304755.109925) can0 3B0#00B5000000000000
(1469304755.110126) can0 0AA#1A6F1A6F1A6F1A6F
(1469304755.116069) can0 020#0000072B
(1469304755.116203) can0 0BA#060000C4
(1469304755.116465) can0 224#0000000000000048
(1469304755.116725) can0 025#000000027000009F
(1469304755.116964) can0 361#00A0000000000000
(1469304755.119100) can0 260#0E00000000000078
(1469304755.120500) can0 024#5E00020042068054
(1469304755.122175) can0 0AA#1A6F1A6F1A6F1A6F
(1469304755.122523) can0 263#00000000AE001A
(1469304755.123525) can0 1C4#02992A080000FF99
(1469304755.123943) can0 351#00000000
(1469304755.124490) can0 1C8#80
(1469304755.128096) can0 020#0000072B
(1469304755.128345) can0 0B4#00000000020000BE
(1469304755.128577) can0 223#000000000000002D
(1469304755.128826) can0 025#000000027000009F
(1469304755.129021) can0 262#000000016A
(1469304755.130975) can0 437#FCFFFFFFFFFFFFFF
(1469304755.132500) can0 024#5E0001FD4205804F
(1469304755.132750) can0 1D0#0271010000AC00F9
(1469304755.133749) can0 2C1#0805970A70EC00D5
(1469304755.134224) can0 0AA#1A6F1A6F1A6F1A6F
(1469304755.139075) can0 260#0E00000000000078
(1469304755.140170) can0 020#0000072B
(1469304755.140295) can0 0BA#060000C4
(1469304755.140603) can0 224#0000000000000048
(1469304755.140801) can0 025#000000027000009F
(1469304755.140891) can0 1C8#80
(1469304755.144499) can0 024#5E0001FB42088050
(1469304755.146249) can0 0AA#1A6F1A6F1A6F1A6F
(1469304755.146463) can0 1AA#0000000000B1
(1469304755.147103) can0 263#00000000AE001A
(1469304755.148150) can0 1C4#03912A080000FF92
(1469304755.150949) can0 443#4002002F06000000
(1469304755.152175) can0 020#0000072B
(1469304755.152502) can0 0B4#00000000020000BE
(1469304755.152651) can0 025#000000027000009F
(1469304755.152900) can0 223#000000000000002D
(1469304755.156500) can0 024#5E0001F4420A804B
(1469304755.157246) can0 1C8#80
(1469304755.157877) can0 380#0000000000008000
(1469304755.158274) can0 0AA#1A6F1A6F1A6F1A6F
(1469304755.159075) can0 260#0E00000000000078
(1469304755.160922) can0 384#F0F000000000
(1469304755.164220) can0 020#0000072B
(1469304755.164365) can0 0BA#060000C4
(1469304755.164627) can0 025#000000027000009F
(1469304755.164876) can0 224#0000000000000048
(1469304755.165600) can0 1D0#049E010000AC0028
(1469304755.166557) can0 2C1#0805980A5CEC00C2
(1469304755.168500) can0 024#5E0001F3420A804A
(1469304755.169043) can0 262#000000016A
(1469304755.170350) can0 0AA#1A6F1A6F1A6F1A6F
(1469304755.171749) can0 263#00000000AE001A
(1469304755.172775) can0 1C4#044D2A080000FF4F
(1469304755.173666) can0 1C8#80
(1469304755.175900) can0 3A0#0091000000000070
(1469304755.176268) can0 020#0000072B
(1469304755.176490) can0 0B4#00000000020000BE
(1469304755.176739) can0 025#000000027000009F
(1469304755.176988) can0 223#000000000000002D
(1469304755.179100) can0 260#0E00000000000078
(1469304755.180501) can0 024#5E0001F8420A804F
(1469304755.180816) can0 354#01
(1469304755.182025) can0 361#0055000000000000
(1469304755.182373) can0 0AA#1A6F1A6F1A6F1A6F
(1469304755.183875) can0 351#00000000
(1469304755.188270) can0 020#0000072B
(1469304755.188472) can0 0BA#060000C4
(1469304755.188695) can0 025#000000027000009F
(1469304755.188944) can0 224#0000000000000048
(1469304755.190090) can0 1C8#80
(1469304755.190921) can0 386#000000070003
(1469304755.192500) can0 024#5E000200420C805A
(1469304755.194375) can0 0AA#1A6F1A6F1A6F1A6F
(1469304755.194549) can0 1AA#0000000000B1
(1469304755.196374) can0 263#00000000AE001A
(1469304755.197382) can0 1C4#04CC2A080000FFCE
(1469304755.198500) can0 1D0#0708010000AC0095
(1469304755.199047) can0 260#0E00000000000078
(1469304755.199398) can0 2C1#0804C50A66E600F2
(1469304755.200300) can0 020#0000072B
(1469304755.200527) can0 0B4#00000000020000BE
(1469304755.200776) can0 025#000000027000009F
(1469304755.201025) can0 223#000000000000002D
(1469304755.203500) can0 620#1000FFFFA0500080
(1469304755.204501) can0 024#56000206420A8056
(1469304755.206375) can0 0AA#1A6F1A6F1A6F1A6F
(1469304755.206481) can0 1C8#80
(1469304755.208946) can0 262#000000016A
(1469304755.212295) can0 020#0000072B
(1469304755.212472) can0 0BA#060000C4
(1469304755.212720) can0 025#000000027000009F
(1469304755.212944) can0 224#0000000000000048
(1469304755.216501) can0 024#5600020542088053
(1469304755.218402) can0 0AA#1A6F1A6F1A6F1A6F
(1469304755.219025) can0 260#0E00000000000078
(1469304755.220896) can0 3E6#0000000000
(1469304755.221098) can0 263#00000000AE001A
(1469304755.222024) can0 1C4#04D82A080000FFDA
(1469304755.222915) can0 1C8#80
(1469304755.224345) can0 020#0000072B
(1469304755.224577) can0 0B4#00000000020000BE
(1469304755.224826) can0 025#000000027000009F
(1469304755.225075) can0 223#000000000000002D
(1469304755.228477) can0 024#560002004206804C
(1469304755.230463) can0 0AA#1A6F1A6F1A6F1A6F
(1469304755.231314) can0 1D0#08D1010000AC005F
(1469304755.232271) can0 2C1#0804A809F8E50065
(1469304755.236383) can0 020#0000072B
(1469304755.236518) can0 0BA#060000C4
(1469304755.236788) can0 025#000000027000009F
(1469304755.237026) can0 224#0000000000000048
(1469304755.239064) can0 260#0E00000000000078
(1469304755.239315) can0 1C8#80
(1469304755.240539) can0 024#560001F842088045
(1469304755.242542) can0 0AA#1A6F1A6F1A6F1A6F
(1469304755.242629) can0 1AA#0000000000B1
(1469304755.243885) can0 351#00000000
(1469304755.245663) can0 263#00000000AE001A
(1469304755.246689) can0 1C4#05122A080000FF15
(1469304755.247700) can0 361#004E000000000000
(1469304755.248416) can0 020#0000072B
(1469304755.248648) can0 0B4#00000000020000BE
(1469304755.248912) can0 025#000000027000009F
(1469304755.249123) can0 223#000000000000002D
(1469304755.249336) can0 262#000000016A
(1469304755.249575) can0 610#2000006480FFFD60
(1469304755.250987) can0 3E7#00000000000000
(1469304755.252540) can0 024#560001F1420A8040
(1469304755.254538) can0 440#4202001101000000
(1469304755.254675) can0 0AA#1A6F1A6F1A6F1A6F
(1469304755.255860) can0 3BB#0000AE00
(1469304755.256362) can0 1C8#80
(1469304755.259017) can0 260#0E00000000000078
(1469304755.260459) can0 020#0000072B
(1469304755.260597) can0 0BA#060000C4
(1469304755.260860) can0 224#0000000000000008
(1469304755.261588) can0 025#000000027000009F
(1469304755.263841) can0 394#4300
(1469304755.264105) can0 1D0#09E8090000AC007F
(1469304755.264538) can0 024#560001EF4206803A
(1469304755.265113) can0 2C1#0803BD0A03DD007D
(1469304755.266504) can0 0AA#1A6F1A6F1A6F1A6F
(1469304755.270244) can0 263#00000000AE001A
(1469304755.271314) can0 1C4#05AF2A080000FFB2
(1469304755.272206) can0 1C8#80
(1469304755.272537) can0 020#0000072B
(1469304755.272718) can0 0B4#00000000020000BE
(1469304755.273010) can0 223#000000000000002D
(1469304755.273639) can0 025#000000027000009F
(1469304755.276566) can0 024#560001FA42068045
(1469304755.277906) can0 3A0#0091000000000070
(1469304755.278588) can0 0AA#1A6F1A6F1A6F1A6F
(1469304755.279062) can0 260#0E00000000000078
(1469304755.281016) can0 3E8#0000000000000000
(1469304755.284534) can0 020#0000072B
(1469304755.284666) can0 0BA#060000C4
(1469304755.284930) can0 224#0000000000000008
(1469304755.285567) can0 024#52000201420A804D
(1469304755.285774) can0 025#000000027000009F
(1469304755.288594) can0 1C8#80
(1469304755.288947) can0 262#000000016A
(1469304755.290640) can0 0AA#1A6F1A6F1A6F1A6F
(1469304755.290799) can0 1AA#0000000000B1
(1469304755.294539) can0 620#1080FFFFB0500080
(1469304755.294911) can0 263#00000000AE001A
(1469304755.295927) can0 1C4#06322A080000FF36
(1469304755.296585) can0 020#0000072B
(1469304755.296796) can0 0B4#00000000020000BE
(1469304755.297034) can0 1D0#0B29090000AC00C2
(1469304755.297282) can0 223#000000000000002D
(1469304755.297509) can0 024#52000208420D8057
(1469304755.297759) can0 025#000000027000009F
(1469304755.298007) can0 2C1#0802F809C9D70076
(1469304755.299077) can0 260#0E00000000000078
(1469304755.302673) can0 0AA#1A6F1A6F1A6F1A6F
(1469304755.303780) can0 351#00000000
(1469304755.305029) can0 1C8#80
(1469304755.308635) can0 020#0000072B
(1469304755.308757) can0 0BA#060000C4
(1469304755.309022) can0 224#0000000000000008
(1469304755.309521) can0 025#000000027000009F
(1469304755.309748) can0 024#52000206420D8055
(1469304755.310978) can0 3E9#0000000000000000
(1469304755.313329) can0 361#004B000000000000
(1469304755.314738) can0 0AA#1A6F1A6F1A6F1A6F
(1469304755.314949) can0 3B7#583B000000000008
(1469304755.318992) can0 260#0E00000000000078
(1469304755.319497) can0 263#00000000AE001A
(1469304755.320504) can0 1C4#06E72A080000FFEB
(1469304755.320643) can0 020#0000072B
(1469304755.320919) can0 0B4#00000000020000BE
(1469304755.321194) can0 223#000000000000002D
(1469304755.321386) can0 1C8#80
(1469304755.321646) can0 024#520001FF420A804A
(1469304755.321896) can0 025#000000027000009F
(1469304755.326766) can0 0AA#1A6F1A6F1A6F1A6F
(1469304755.328876) can0 262#000000016A
(1469304755.329737) can0 1D0#0CEA090000AC0084
(1469304755.330764) can0 2C1#08021F0967D00034
(1469304755.332708) can0 020#0000072B
(1469304755.332844) can0 0BA#060000C4
(1469304755.333108) can0 224#0000000000000008
(1469304755.333537) can0 025#000000027000009F
(1469304755.333723) can0 024#520001F44205803A
(1469304755.337856) can0 1C8#80
(1469304755.338738) can0 0AA#1A6F1A6F1A6F1A6F
(1469304755.338936) can0 1AA#0000000000B1
(1469304755.339216) can0 260#0E00000000000078
(1469304755.344082) can0 263#00000000AE001A
(1469304755.344708) can0 020#0000072B
(1469304755.344942) can0 0B4#00000000020000BE
(1469304755.345206) can0 1C4#075F2A080000FF64
(1469304755.345416) can0 223#000000000000002D
(1469304755.345689) can0 024#520001EF42058035
(1469304755.345899) can0 025#000000027000009F
(1469304755.346143) can0 3F9#5198260100000014
(1469304755.350577) can0 442#4302000001000000
(1469304755.350846) can0 0AA#1A6F1A6F1A6F1A6F
(1469304755.354255) can0 1C8#80
(1469304755.356711) can0 020#0000072B
(1469304755.356838) can0 0BA#060000C4
(1469304755.357151) can0 224#0000000000000008
(1469304755.357498) can0 025#000000027000009F
(1469304755.357689) can0 024#520001F142058037
(1469304755.358966) can0 260#0E00000000000078
(1469304755.362593) can0 1D0#0EA7090000AC0043
(1469304755.362822) can0 0AA#1A6F1A6F1A6F1A6F
(1469304755.363520) can0 2C1#08019C08D7CC001B
(1469304755.363775) can0 351#00000000
(1469304755.365540) can0 3D0#00
(1469304755.368777) can0 263#00000000AE001A
(1469304755.368867) can0 020#0000072B
(1469304755.369130) can0 0B4#00000000020000BE
(1469304755.369377) can0 223#000000000000002D
(1469304755.369630) can0 024#520001FB420A8046
(1469304755.369900) can0 025#000000027000009F
(1469304755.370147) can0 1C4#07D22A080000FFD7
(1469304755.370311) can0 262#000000016A
(1469304755.370664) can0 1C8#80
(1469304755.374901) can0 0AA#1A6F1A6F1A6F1A6F
(1469304755.376930) can0 3A0#0091000000000070
(1469304755.378973) can0 260#0E00000000000078
(1469304755.379148) can0 361#0044000000000000
(1469304755.380844) can0 020#0000072B
(1469304755.380975) can0 0BA#060000C4
(1469304755.381217) can0 224#0000000000000008
(1469304755.381549) can0 025#00010002900000C0
(1469304755.381714) can0 024#52000205420D8054
(1469304755.386040) can0 354#01
(1469304755.386925) can0 0AA#1A6F1A6F1A6F1A6F
(1469304755.387074) can0 1AA#0000000000B1
(1469304755.387175) can0 1C8#80
(1469304755.392871) can0 020#0000072B
(1469304755.393147) can0 0B4#00000000020000BE
(1469304755.393399) can0 223#000000000000002D
(1469304755.393650) can0 024#5200020A420C8058
(1469304755.393900) can0 025#000000027000009F
(1469304755.394049) can0 263#00000000AE001A
(1469304755.394675) can0 1C4#08332A080000FF39
(1469304755.395448) can0 1D0#0FE3090000AC0080
(1469304755.396428) can0 2C1#0801310830C90006
(1469304755.398991) can0 260#0E00000000000078
(1469304755.399187) can0 0AA#1A6F1A6F1A6F1A6F
(1469304755.403540) can0 1C8#80
(1469304755.405070) can0 020#0000072B
(1469304755.405201) can0 0BA#060000C4
(1469304755.405550) can0 224#0000000000000008
(1469304755.405692) can0 024#52000205420A8051
(1469304755.405932) can0 025#000000027000009F
(1469304755.407631) can0 610#2080006480FFFD60
(1469304755.408868) can0 262#000000016A
(1469304755.411150) can0 0AA#1A6F1A6F1A6F1A6F
(1469304755.417097) can0 020#0000072B
(1469304755.417344) can0 0B4#00000000020000BE
(1469304755.417599) can0 025#00010002900000C0
(1469304755.417783) can0 024#520001FB42068042
(1469304755.418015) can0 223#000000000000002D
(1469304755.418237) can0 263#00000000AE001A
(1469304755.418966) can0 260#0E00000000000078
(1469304755.419195) can0 1C4#08822A080000FF88
(1469304755.419616) can0 618#2280000080000000
(1469304755.419860) can0 1C8#80
(1469304755.423119) can0 0AA#1A6F1A6F1A6F1A6F
(1469304755.423802) can0 351#00000000
(1469304755.428276) can0 1D0#10D7090000AC0075
(1469304755.429068) can0 020#0000072B
(1469304755.429261) can0 0BA#060000C4
(1469304755.429508) can0 224#0000000000000008
(1469304755.429740) can0 024#520001F34206803A
(1469304755.429988) can0 025#000000027000009F
(1469304755.430282) can0 2C1#08010C0754C80003
(1469304755.431626) can0 619#238000000C003A80
(1469304755.435201) can0 0AA#1A6F1A6F1A6F1A6F
(1469304755.435397) can0 1AA#0000000000B1
(1469304755.436316) can0 1C8#80
(1469304755.438924) can0 260#0E00000000000078
(1469304755.441145) can0 020#0000072B
(1469304755.441393) can0 0B4#00000000020000BE
(1469304755.441648) can0 024#520001EF42088038
(1469304755.441899) can0 025#000000027000009F
(1469304755.442107) can0 223#000000000000002D
(1469304755.442558) can0 263#00000000AE001A
(1469304755.443579) can0 61A#2480000000014F60
(1469304755.443845) can0 1C4#08C22A080000FFC8
(1469304755.444768) can0 361#003B000000000000
(1469304755.447249) can0 0AA#1A6F1A6F1A6F1A6F
(1469304755.447549) can0 4C3#0300000100000000
(1469304755.448871) can0 262#000000016A
(1469304755.450998) can0 443#4002002F06000000
(1469304755.452766) can0 1C8#80
(1469304755.453183) can0 020#0000072B
(1469304755.453315) can0 0BA#060000C4
(1469304755.453586) can0 024#520001F6420C8043
(1469304755.453854) can0 025#000000027000009F
(1469304755.454106) can0 224#0000000000000008
(1469304755.455597) can0 61C#2680000000000000
(1469304755.458975) can0 260#0E00000000000078
(1469304755.459241) can0 0AA#1A6F1A6F1A6F1A6F
(1469304755.461126) can0 1D0#1193090000AC0032
(1469304755.462100) can0 2C1#0800E6067FC70005
(1469304755.465221) can0 020#0000072B
(1469304755.465549) can0 0B4#00000000020000BE
(1469304755.465669) can0 024#52000200420C804E
(1469304755.465894) can0 025#000000027000009F
(1469304755.466198) can0 223#000000000000002D
(1469304755.467247) can0 263#00000000AE001A
(1469304755.468279) can0 1C4#09002A080000FF07
(1469304755.469124) can0 1C8#80
(1469304755.471349) can0 0AA#1A6F1A6F1A6F1A6F
(1469304755.477271) can0 020#0000072B
(1469304755.477413) can0 0BA#060000C4
(1469304755.477655) can0 024#52000208420A8054
(1469304755.477950) can0 224#0000000000000008
(1469304755.478472) can0 025#000000027000009F
(1469304755.478659) can0 621#1100000000000000
(1469304755.478915) can0 260#0E00000000000078
(1469304755.479142) can0 3A0#0091000000000070
(1469304755.483365) can0 0AA#1A6F1A6F1A6F1A6F
(1469304755.483563) can0 1AA#0000000000B1
(1469304755.483698) can0 351#00000000
(1469304755.485610) can0 1C8#80
(1469304755.487491) can0 622#1200481000000000
(1469304755.488811) can0 262#000000016A
(1469304755.489288) can0 020#0000072B
(1469304755.489539) can0 0B4#00000000020000BE
(1469304755.489761) can0 024#5201020842068051
(1469304755.490044) can0 223#000000000000002D
(1469304755.490489) can0 025#000000027000009F
(1469304755.491856) can0 263#00000000AE001A
(1469304755.492880) can0 1C4#09262A080000FF2D
(1469304755.493905) can0 1D0#1231090000AC00D1
(1469304755.494878) can0 2C1#0800D205C0C60030
(1469304755.495401) can0 0AA#1A6F1A6F1A6F1A6F
(1469304755.496450) can0 623#1900000000000000
(1469304755.498904) can0 260#0E00000000000078
(1469304755.501389) can0 020#0000072B
(1469304755.501484) can0 0BA#060000C4
(1469304755.501838) can0 224#0000000000000008
(1469304755.501979) can0 1C8#80
(1469304755.502399) can0 025#000000027000009F
(1469304755.502590) can0 024#5200020042068048
(1469304755.505470) can0 624#1A00414949400000
(1469304755.507453) can0 0AA#1A6F1A6F1A6F1A6F
(1469304755.507673) can0 420#00000000FB0182AA
(1469304755.510374) can0 361#0033000000000000
(1469304755.513445) can0 020#0000072B
(1469304755.513647) can0 0B4#00000000020000BE
(1469304755.513900) can0 223#000000000000002D
(1469304755.514444) can0 025#000000027000009F
(1469304755.514648) can0 024#520001F4420A803F
(1469304755.514901) can0 626#1C00300000000000
(1469304755.516574) can0 263#00000000AE001A
(1469304755.517571) can0 1C4#09392A080000FF40
(1469304755.518389) can0 1C8#80
(1469304755.518923) can0 260#0E00000000000078
(1469304755.519531) can0 4C1#0100000500000000
(1469304755.519752) can0 0AA#1A6F1A6F1A6F1A6F
(1469304755.523408) can0 638#1300180100000000
(1469304755.525496) can0 020#0000072B
(1469304755.525618) can0 0BA#060000C4
(1469304755.525866) can0 224#0000000000000008
(1469304755.526315) can0 025#000000027000009F
(1469304755.526576) can0 024#520001F1420A803C
(1469304755.526825) can0 1D0#129B090000AC003B
(1469304755.527749) can0 2C1#0800CA050DC60075
(1469304755.528808) can0 262#000000016A
(1469304755.531624) can0 0AA#1A6F1A6F1A6F1A6F
(1469304755.531758) can0 1AA#0000000000B1
(1469304755.532468) can0 63C#98005A5245172060
(1469304755.534895) can0 1C8#80
(1469304755.537566) can0 020#0000072B
(1469304755.537770) can0 0B4#00000000020000BE
(1469304755.538023) can0 223#000000000000002D
(1469304755.538443) can0 025#000000027000009F
(1469304755.538644) can0 024#520001F4420C8041
(1469304755.538873) can0 260#0E00000000000078
(1469304755.539581) can0 640#A8000057012E0000
(1469304755.541156) can0 263#00000000AE001A
(1469304755.541424) can0 63D#9900444558534B00
(1469304755.542248) can0 1C4#093D2A080000FF44
(1469304755.543676) can0 0AA#1A6F1A6F1A6F1A6F
(1469304755.543759) can0 351#00000000
(1469304755.549594) can0 020#0000072B
(1469304755.549677) can0 0BA#060000C4
(1469304755.550001) can0 224#0000000000000008
(1469304755.550325) can0 025#000000027000009F
(1469304755.550597) can0 680#D800010000000000
(1469304755.550798) can0 024#520001FF42088048
(1469304755.551304) can0 1C8#80
(1469304755.554476) can0 440#4202001101000000
(1469304755.555726) can0 0AA#1A6F1A6F1A6F1A6F
(1469304755.558872) can0 260#0E00000000000078
(1469304755.559700) can0 1D0#12C2090000AC0062
(1469304755.560654) can0 2C1#0800C50473C600D5
(1469304755.561606) can0 020#0000072B
(1469304755.561903) can0 0B4#00000000020000BE
(1469304755.562087) can0 223#000000000000002D
(1469304755.562375) can0 025#000000027000009F
(1469304755.562627) can0 024#520002054206804D
(1469304755.563743) can0 394#4300
(1469304755.565845) can0 263#00000000AE001A
(1469304755.566672) can0 610#2080006480FFFD60
(1469304755.566874) can0 1C4#09412A080000FF48
(1469304755.567756) can0 0AA#1A6F1A6F1A6F1A6F
(1469304755.567776) can0 1C8#80
(1469304755.568820) can0 262#000000016A
(1469304755.572616) can0 4AC#18024005000002E4
(1469304755.573665) can0 020#0000072B
(1469304755.573748) can0 0BA#060000C4
(1469304755.574089) can0 224#0000000000000008
(1469304755.574291) can0 025#000000027000009F
(1469304755.574622) can0 024#5200020642088050
(1469304755.576150) can0 361#002C000000000000
(1469304755.577922) can0 3A0#0091000000000070
(1469304755.578646) can0 611#21800020000062D4
(1469304755.578885) can0 260#0E00000000000078
(1469304755.579731) can0 0AA#1A6F1A6F1A6F1A6F
(1469304755.579917) can0 1AA#0000000000B1
(1469304755.584157) can0 1C8#80
(1469304755.585719) can0 020#0000072B
(1469304755.585922) can0 0B4#00000000020000BE
(1469304755.586174) can0 223#000000000000002D
(1469304755.586423) can0 025#000000027000009F
(1469304755.586643) can0 024#520002014208804B
(1469304755.590474) can0 263#00000000AE001A
(1469304755.591460) can0 1C4#09492A080000FF50
(1469304755.591528) can0 354#01
(1469304755.591775) can0 0AA#1A6F1A6F1A6F1A6F
(1469304755.592403) can0 3D3#0444
(1469304755.592632) can0 1D0#12B9090000AC0059
(1469304755.593565) can0 2C1#0800C203EEC6004C
(1469304755.594466) can0 620#1000FFFFB0500080
(1469304755.597713) can0 020#0000072B
(1469304755.597802) can0 0BA#060000C4
(1469304755.598153) can0 224#0000000000000008
(1469304755.598352) can0 025#000000027000009F
(1469304755.598651) can0 024#520001FA420A8045
(1469304755.598874) can0 260#0E00000000000078
(1469304755.600548) can0 1C8#80
(1469304755.601671) can0 3F9#5198260100000014
(1469304755.603690) can0 351#00000000
(1469304755.603883) can0 0AA#1A6F1A6F1A6F1A6F
(1469304755.608766) can0 262#000000016A
(1469304755.609762) can0 020#0000072B
(1469304755.609959) can0 0B4#00000000020000BE
(1469304755.610220) can0 223#000000000000002D
(1469304755.610523) can0 025#000000027000009F
(1469304755.610695) can0 024#520001F6420A8041
(1469304755.611521) can0 4C6#0700030000000000
(1469304755.615071) can0 263#00000000AE001A
(1469304755.615880) can0 0AA#1A6F1A6F1A6F1A6F
(1469304755.616065) can0 3B7#583B000000000008
(1469304755.616309) can0 1C4#09442A080000FF4B
(1469304755.616989) can0 1C8#80
(1469304755.618875) can0 260#0E00000000000078
(1469304755.621795) can0 020#0000072B
(1469304755.621879) can0 0BA#060000C4
(1469304755.622165) can0 224#0000000000000008
(1469304755.622488) can0 025#000000027000009F
(1469304755.622689) can0 024#520001F6420A8041
(1469304755.622706) can0 3D0#00
(1469304755.625350) can0 1D0#12AC090000AC004C
(1469304755.626349) can0 2C1#0800C6036EC600D0
(1469304755.627903) can0 0AA#1A6F1A6F1A6F1A6F
(1469304755.628031) can0 1AA#0000000000B1
(1469304755.633568) can0 38A#0804000000
(1469304755.633768) can0 4C8#0900000000000000
(1469304755.633843) can0 020#0000072B
(1469304755.634213) can0 0B4#00000000020000BE
(1469304755.634414) can0 025#000000027000009F
(1469304755.634652) can0 024#520001FB42088044
(1469304755.634696) can0 1C8#80
(1469304755.635039) can0 223#000000000000002D
(1469304755.638898) can0 260#0E00000000000078
(1469304755.639700) can0 263#00000000AE001A
(1469304755.640051) can0 0AA#1A6F1A6F1A6F1A6F
(1469304755.640679) can0 1C4#093C2A080000FF43
(1469304755.641732) can0 361#0026000000000000
(1469304755.643823) can0 3BC#0020000000000000
(1469304755.645845) can0 399#00000000000000
(1469304755.645977) can0 020#0000072B
(1469304755.646161) can0 0BA#060000C4
(1469304755.646437) can0 224#0000000000000008
(1469304755.646676) can0 024#5200020042068048
(1469304755.646926) can0 025#000000027000009F
(1469304755.648793) can0 262#000000016A
(1469304755.649814) can0 1C8#80
(1469304755.650610) can0 442#4302000001000000
(1469304755.652109) can0 0AA#1A6F1A6F1A6F1A6F
(1469304755.658068) can0 020#0000072B
(1469304755.658301) can0 0B4#00000000020000BE
(1469304755.658552) can0 025#000000027000009F
(1469304755.658776) can0 024#520002034206804B
(1469304755.659024) can0 1D0#1293090000AC0033
(1469304755.659273) can0 223#000000000000002D
(1469304755.659522) can0 260#0E00000000000078
(1469304755.659757) can0 2C1#0800C802FEC60061
(1469304755.663724) can0 351#00000000
(1469304755.664169) can0 0AA#1A6F1A6F1A6F1A6F
(1469304755.664358) can0 263#00000000AE001A
(1469304755.664407) can0 423#00
(1469304755.665348) can0 1C4#09302A080000FF37
(1469304755.666238) can0 1C8#80
(1469304755.670120) can0 020#0000072B
(1469304755.670204) can0 0BA#060000C4
(1469304755.670528) can0 224#0000000000000008
(1469304755.670758) can0 024#520002014208804B
(1469304755.671279) can0 025#000000027000009F
(1469304755.676227) can0 0AA#1A6F1A6F1A6F1A6F
(1469304755.676357) can0 1AA#0000000000B1
(1469304755.678797) can0 260#0E00000000000078
(1469304755.679931) can0 3A0#0091000000000070
(1469304755.682142) can0 020#0000072B
(1469304755.682359) can0 0B4#00000000020000BE
(1469304755.682610) can0 223#000000000000002D
(1469304755.682812) can0 024#520001FD420A8048
(1469304755.682858) can0 1C8#80
(1469304755.683365) can0 025#000000027000009F
(1469304755.688251) can0 0AA#1A6F1A6F1A6F1A6F
(1469304755.688718) can0 262#000000016A
(1469304755.688919) can0 263#00000000AE001A
(1469304755.689948) can0 1C4#092E2A080000FF35
(1469304755.690996) can0 1D0#126D090000AC000D
(1469304755.691952) can0 2C1#0800CC029DC60004
(1469304755.694215) can0 020#0000072B
(1469304755.694299) can0 0BA#060000C4
(1469304755.694648) can0 224#0000000000000008
(1469304755.694849) can0 024#520001F8420A8043
(1469304755.695244) can0 025#000000027000009F
(1469304755.698852) can0 260#0E00000000000078
(1469304755.699036) can0 1C8#80
(1469304755.700301) can0 0AA#1A6F1A6F1A6F1A6F
(1469304755.706271) can0 020#0000072B
(1469304755.706580) can0 0B4#00000000020000BE
(1469304755.706709) can0 024#520001F8420A8043
(1469304755.706974) can0 223#000000000000002D
(1469304755.707344) can0 025#000000027000009F
(1469304755.707548) can0 361#0022000000000000
(1469304755.712356) can0 0AA#1A6F1A6F1A6F1A6F
(1469304755.713572) can0 263#00000000AE001A
(1469304755.714571) can0 1C4#09252A080000FF2C
(1469304755.715463) can0 1C8#80
(1469304755.718299) can0 020#0000072B
(1469304755.718376) can0 0BA#060000C4
(1469304755.718725) can0 024#520001FA42088043
(1469304755.718930) can0 224#0000000000000008
(1469304755.719175) can0 260#0E00000000000078
(1469304755.719421) can0 025#000000027000009F
(1469304755.723648) can0 351#00000000
(1469304755.723851) can0 1D0#1254090000AC00F4
(1469304755.724422) can0 0AA#1A6F1A6F1A6F1A6F
(1469304755.724557) can0 1AA#0000000000B1
(1469304755.724825) can0 2C1#0800D20246C600B3
(1469304755.728722) can0 262#000000016A
(1469304755.730343) can0 020#0000072B
(1469304755.730548) can0 0B4#00000000020000BE
(1469304755.730800) can0 024#520001FD42088046
(1469304755.731046) can0 223#000000000000002D
(1469304755.731296) can0 025#000000027000009F
(1469304755.731819) can0 1C8#80
(1469304755.736453) can0 0AA#1A6F1A6F1A6F1A6F
(1469304755.738146) can0 263#00000000AE001A
(1469304755.738775) can0 260#0E00000000000078
(1469304755.739196) can0 1C4#09162A080000FF1D
(1469304755.742369) can0 020#0000072B
(1469304755.742506) can0 0BA#060000C4
(1469304755.742751) can0 224#0000000000000008
(1469304755.743149) can0 025#000000027000009F
(1469304755.743606) can0 024#520002004208804A
(1469304755.748291) can0 1C8#80
(1469304755.748548) can0 0AA#1A6F1A6F1A6F1A6F
(1469304755.749996) can0 443#4002002F06000000
(1469304755.754417) can0 020#0000072B
(1469304755.754622) can0 0B4#00000000020000BE
(1469304755.754876) can0 223#000000000000002D
(1469304755.755247) can0 025#000000027000009F
(1469304755.755675) can0 024#52000200420A804C
(1469304755.756621) can0 1D0#1235090000AC00D5
(1469304755.757598) can0 2C1#0800DC01F6C6006C
(1469304755.758846) can0 260#0E00000000000078
(1469304755.760574) can0 0AA#1A6F1A6F1A6F1A6F
(1469304755.762774) can0 263#00000000AE001A
(1469304755.763754) can0 1C4#08F62A080000FFFC
(1469304755.764687) can0 1C8#80
(1469304755.766441) can0 020#0000072B
(1469304755.766524) can0 0BA#060000C4
(1469304755.766889) can0 224#0000000000000008
(1469304755.767130) can0 025#000000027000009F
(1469304755.767651) can0 024#520001FD420A8048
(1469304755.768745) can0 262#000000016A
(1469304755.772574) can0 0AA#1A6F1A6F1A6F1A6F
(1469304755.772657) can0 1AA#0000000000B1
(1469304755.773006) can0 361#001E000000000000
(1469304755.778471) can0 020#0000072B
(1469304755.778714) can0 0B4#00000000020000BE
(1469304755.778970) can0 223#000000000000002D
(1469304755.779172) can0 025#000000027000009F
(1469304755.779451) can0 260#0E00000000000078
(1469304755.779689) can0 024#520001FA420C8047
(1469304755.779950) can0 3A0#0091000000000070
(1469304755.781017) can0 1C8#80
(1469304755.782605) can0 3B1#00000D0A00080000
(1469304755.783577) can0 351#00000000
(1469304755.784582) can0 0AA#1A6F1A6F1A6F1A6F
(1469304755.787372) can0 263#00000000AE001A
(1469304755.788400) can0 1C4#08EE2A080000FFF4
(1469304755.788605) can0 620#1080FFFFB0500040
(1469304755.789447) can0 1D0#1208090000AC00A8
(1469304755.790424) can0 2C1#0800E701B4C70036
(1469304755.790489) can0 020#0000072B
(1469304755.790744) can0 0BA#060000C4
(1469304755.790967) can0 224#0000000000000008
(1469304755.791221) can0 025#000000027000009F
(1469304755.791619) can0 024#520001F8420A8043
(1469304755.796495) can0 354#01
(1469304755.796701) can0 0AA#1A6F1A6F1A6F1A6F
(1469304755.797562) can0 1C8#80
(1469304755.798723) can0 260#0E00000000000078
(1469304755.802569) can0 020#0000072B
(1469304755.802770) can0 0B4#00000000020000BE
(1469304755.803023) can0 223#000000000000002D
(1469304755.803253) can0 025#000000027000009F
(1469304755.803676) can0 024#520001FA42088043
(1469304755.808652) can0 0AA#1A6F1A6F1A6F1A6F
(1469304755.808736) can0 262#000000016A
(1469304755.809073) can0 4DC#1D00000200000000
(1469304755.812048) can0 263#00000000AE001A
(1469304755.813029) can0 1C4#08DA2A080000FFE0
(1469304755.813924) can0 1C8#80
(1469304755.814592) can0 020#0000072B
(1469304755.814677) can0 0BA#060000C4
(1469304755.815012) can0 224#0000000000000008
(1469304755.815218) can0 025#000000027000009F
(1469304755.815675) can0 024#520001FD42088046
(1469304755.818775) can0 260#0E00000000000078
(1469304755.820726) can0 0AA#1A6F1A6F1A6F1A6F
(1469304755.820855) can0 1AA#0000000000B1
(1469304755.822321) can0 1D0#11D0090000AC006F
(1469304755.823261) can0 2C1#0800F3017AC70008
(1469304755.826644) can0 020#0000072B
(1469304755.826877) can0 0B4#00000000020000BE
(1469304755.827107) can0 025#000000027000009F
(1469304755.827412) can0 223#000000000000002D
(1469304755.827638) can0 024#520001FF42088048
(1469304755.830387) can0 1C8#80
(1469304755.832775) can0 0AA#1A6F1A6F1A6F1A6F
(1469304755.836675) can0 263#00000000AE001A
(1469304755.837696) can0 1C4#08C22A080000FFC8
(1469304755.838696) can0 260#0E00000000000078
(1469304755.838779) can0 020#0000072B
(1469304755.839033) can0 0BA#060000C4
(1469304755.839236) can0 224#0000000000000008
(1469304755.839535) can0 025#00010002900000C0
(1469304755.839731) can0 024#520001FF42088048
(1469304755.839989) can0 361#001C000000000000
(1469304755.843554) can0 351#00000000
(1469304755.844760) can0 0AA#1A6F1A6F1A6F1A6F
(1469304755.846789) can0 1C8#80
(1469304755.848426) can0 440#4202001101000000
(1469304755.848555) can0 262#000000016A
(1469304755.850715) can0 020#0000072B
(1469304755.850972) can0 0B4#00000000020000BE
(1469304755.851174) can0 025#000000027000009F
(1469304755.851425) can0 223#000000000000002D
(1469304755.851676) can0 024#520001FD420A8048
(1469304755.855049) can0 1D0#11A3090000AC0042
(1469304755.856044) can0 2C1#0800F90144C700D8
(1469304755.856751) can0 0AA#1A6F1A6F1A6F1A6F
(1469304755.858126) can0 3F9#5198260100000014
(1469304755.858651) can0 260#0E00000000001D95
(1469304755.861023) can0 387#0000000000003F3F
(1469304755.861222) can0 263#00000000AE001A
(1469304755.862253) can0 1C4#08B72A080000FFBD
(1469304755.862688) can0 020#0000072B
(1469304755.862887) can0 0BA#060000C4
(1469304755.863117) can0 224#0000000000000008
(1469304755.863370) can0 025#000000027000009F
(1469304755.863449) can0 1C8#80
(1469304755.863732) can0 024#520001FB420A8046
(1469304755.863854) can0 394#4300
(1469304755.868842) can0 0AA#1A6F1A6F1A6F1A6F
(1469304755.868978) can0 1AA#0000000000B1
(1469304755.874785) can0 020#0000072B
(1469304755.874988) can0 0B4#00000000020000BE
(1469304755.875249) can0 025#000000027000009F
(1469304755.875560) can0 223#000000000000002D
(1469304755.875674) can0 024#520001FA420A8045
(1469304755.877883) can0 3A0#0091000000000070
(1469304755.878691) can0 260#0E00000000000078
(1469304755.878744) can0 3D0#00
(1469304755.879611) can0 1C8#80
(1469304755.881032) can0 0AA#1A6F1A6F1A6F1A6F
(1469304755.882658) can0 4DD#1E00000000000000
(1469304755.885896) can0 263#00000000AE001A
(1469304755.886962) can0 1C4#089F2A080000FFA5
(1469304755.887039) can0 020#0000072B
(1469304755.887294) can0 0BA#060000C4
(1469304755.887596) can0 224#0000000000000008
(1469304755.887740) can0 024#520001FB420A8046
(1469304755.888034) can0 1D0#116E090000AC000D
(1469304755.888274) can0 025#000000027000009F
(1469304755.888625) can0 262#000000016A
(1469304755.888977) can0 2C1#0801030111C800B1
(1469304755.891031) can0 389#0000000000000000
(1469304755.893083) can0 0AA#1A6F1A6F1A6F1A6F
(1469304755.896078) can0 1C8#80
(1469304755.898656) can0 260#0E00000000000078
(1469304755.899023) can0 020#0000072B
(1469304755.899272) can0 0B4#00000000020000BE
(1469304755.899556) can0 223#000000000000002D
(1469304755.899713) can0 024#520001FB42088044
(1469304755.900072) can0 025#000000027000009F
(1469304755.903509) can0 351#00000000
(1469304755.904384) can0 361#001A000000000000
(1469304755.905088) can0 0AA#1A6F1A6F1A6F1A6F
(1469304755.910541) can0 263#00000000AE001A
(1469304755.911049) can0 020#0000072B
(1469304755.911183) can0 0BA#060000C4
(1469304755.911551) can0 224#0000000000000008
(1469304755.911647) can0 024#520001FD42088046
(1469304755.911948) can0 1C4#088D2A080000FF93
(1469304755.912155) can0 025#000000027000009F
(1469304755.912482) can0 1C8#80
(1469304755.917175) can0 0AA#1A6F1A6F1A6F1A6F
(1469304755.917333) can0 1AA#0000000000B1
(1469304755.917624) can0 3B7#583B000000000008
(1469304755.918626) can0 260#08FFFE000000006F
(1469304755.920878) can0 1D0#113B090000AC00DA
(1469304755.921125) can0 38E#2020000000000000
(1469304755.921849) can0 2C1#08010C00EAC80092
(1469304755.923095) can0 020#0000072B
(1469304755.923306) can0 0B4#00000000020000BE
(1469304755.923544) can0 223#000000000000002D
(1469304755.923793) can0 024#520001FF42088048
(1469304755.924013) can0 025#000000027000009F
(1469304755.928377) can0 622#1280581000000000
(1469304755.928645) can0 262#000000016A
(1469304755.928940) can0 1C8#80
(1469304755.929216) can0 0AA#1A6F1A6F1A6F1A6F
(1469304755.935072) can0 020#0000072B
(1469304755.935233) can0 0BA#060000C4
(1469304755.935494) can0 224#0000000000000008
(1469304755.935760) can0 024#520001FF42088048
(1469304755.935994) can0 025#000000027000009F
(1469304755.936252) can0 263#00000000AE001A
(1469304755.936548) can0 1C4#08842A080000FF8A
(1469304755.938700) can0 260#08FFFF0000FFE554
(1469304755.941228) can0 0AA#1A6F1A6F1A6F1A6F
(1469304755.945365) can0 1C8#80
(1469304755.947144) can0 020#0000072B
(1469304755.947393) can0 0B4#00000000020000BE
(1469304755.947651) can0 223#000000000000002D
(1469304755.947899) can0 024#520001FD42088046
(1469304755.948128) can0 025#000000027000009F
(1469304755.950624) can0 442#4302000001000000
(1469304755.950999) can0 38F#0300000000000000
(1469304755.953251) can0 0AA#1A6F1A6F1A6F1A6F
(1469304755.953683) can0 1D0#1114090000AC00B3
(1469304755.954643) can0 2C1#08011200C7C80075
(1469304755.958674) can0 260#08FFFF0000FFE554
(1469304755.959147) can0 020#0000072B
(1469304755.959257) can0 0BA#060000C4
(1469304755.959602) can0 224#0000000000000008
(1469304755.959833) can0 024#520001FB420A8046
(1469304755.960073) can0 025#000000027000009F
(1469304755.960308) can0 263#00000000AE001A
(1469304755.960925) can0 1C4#08772A080000FF7D
(1469304755.961854) can0 380#C0A0400000004300
(1469304755.961868) can0 1C8#80
(1469304755.962212) can0 3B0#00B5005600180000
(1469304755.963510) can0 351#00000000
(1469304755.965202) can0 0AA#1A6F1A6F1A6F1A6F
(1469304755.965408) can0 1AA#0000000000B1
(1469304755.968482) can0 262#000000016A
(1469304755.970128) can0 361#0019000000000000
(1469304755.971118) can0 020#0000072B
(1469304755.971381) can0 0B4#00000000020000BE
(1469304755.971616) can0 024#520001FA420A8045
(1469304755.971871) can0 223#000000000000002D
(1469304755.972117) can0 025#000000027000009F
(1469304755.977235) can0 0AA#1A6F1A6F1A6F1A6F
(1469304755.978130) can0 1C8#80
(1469304755.978556) can0 260#08FFFF0000FFF160
(1469304755.979775) can0 3A0#0091000007000070
(1469304755.980951) can0 3A5#0000000000007EFC
(1469304755.983196) can0 020#0000072B
(1469304755.983337) can0 0BA#060000C4
(1469304755.983580) can0 224#0000000000000008
(1469304755.983828) can0 024#520001FB42088044
(1469304755.984069) can0 025#000000027000009F
(1469304755.984318) can0 6E1#A180000000100000
(1469304755.984539) can0 263#00000000AE001A
(1469304755.985483) can0 1C4#086A2A080000FF70
(1469304755.986509) can0 1D0#10F6090000AC0094
(1469304755.987474) can0 2C1#08011900AAC8005F
(1469304755.989275) can0 0AA#1A6F1A6F1A6F1A6F
(1469304755.994616) can0 1C8#80
(1469304755.995191) can0 020#0000072B
(1469304755.995502) can0 0B4#00000000020000BE
(1469304755.995689) can0 024#520001FD42088046
(1469304755.995913) can0 025#000000027000009F
(1469304755.996163) can0 223#000000000000002D
(1469304755.997798) can0 382#2338380000000000
(1469304755.998073) can0 381#0001019080000000
(1469304755.998599) can0 260#08FFFE0000FFF15F
(1469304756.001301) can0 0AA#1A6F1A6F1A6F1A6F
(1469304756.001790) can0 354#01
(1469304756.007231) can0 020#0000072B
(1469304756.007383) can0 0BA#060000C4
(1469304756.007649) can0 024#520001FF42088048
(1469304756.007898) can0 025#00010002900000C0
(1469304756.008147) can0 224#0000000000000008
(1469304756.008520) can0 262#000000016A
(1469304756.009096) can0 263#00000000AE001A
(1469304756.010125) can0 1C4#08572A080000FF5D
(1469304756.010949) can0 413#0101010900000000
(1469304756.011014) can0 1C8#80
(1469304756.013350) can0 0AA#1A6F1A6F1A6F1A6F
(1469304756.013522) can0 1AA#0000000000B1
(1469304756.018574) can0 260#08FFFE0000FFF15F
(1469304756.019293) can0 020#0000072B
(1469304756.019524) can0 0B4#00000000020000BE
(1469304756.019774) can0 024#520001FF42088048
(1469304756.020022) can0 025#000000027000009F
(1469304756.020272) can0 1D0#10D4090000AC0072
(1469304756.020499) can0 223#000000000000002D
(1469304756.020748) can0 2C1#0801A00090CD00D1
(1469304756.023493) can0 351#00000000
(1469304756.025400) can0 0AA#1A6F1A6F1A6F1A6F
(1469304756.027490) can0 1C8#80
(1469304756.031319) can0 020#0000072B
(1469304756.031474) can0 0BA#060000C4
(1469304756.031723) can0 024#520001FD420A8048
(1469304756.031972) can0 025#000000027000009F
(1469304756.032223) can0 224#0000000000000008
(1469304756.033747) can0 263#00000000AE001A
(1469304756.034775) can0 1C4#084729080000FF4C
(1469304756.035808) can0 361#0018000000000000
(1469304756.037426) can0 0AA#1A6F1A6F1A6F1A6F
(1469304756.038550) can0 260#08FFFE0000FFF15F
(1469304756.040950) can0 434#3F00000000000000
(1469304756.043369) can0 020#0000072B
(1469304756.043600) can0 0B4#00000000020000BE
(1469304756.043848) can0 025#000000027000009F
(1469304756.043937) can0 1C8#80
(1469304756.044211) can0 223#000000000000002D
(1469304756.044607) can0 024#520001FB420A8046
(1469304756.048522) can0 262#000000016A
(1469304756.049499) can0 0AA#1A6F1A6F1A6F1A6F
(1469304756.050924) can0 443#4002002F06000000
(1469304756.052225) can0 1D0#10AE090000AC004C
(1469304756.053200) can0 2C1#0801AB0074CD00C0
(1469304756.055394) can0 020#0000072B
(1469304756.055535) can0 0BA#060000C4
(1469304756.055784) can0 224#0000000000000008
(1469304756.056041) can0 025#000000027000009F
(1469304756.056607) can0 024#520001FB420A8046
(1469304756.058373) can0 263#00000000AE001A
(1469304756.058599) can0 260#08FFFE0000FFF15F
(1469304756.059399) can0 1C4#083B29080000FF40
(1469304756.060290) can0 1C8#80
(1469304756.061499) can0 0AA#1A6F1A6F1A6F1A6F
(1469304756.061669) can0 1AA#0000000000B1
(1469304756.067393) can0 020#0000072B
(1469304756.067650) can0 0B4#00000000020000BE
(1469304756.067873) can0 025#000000027000009F
(1469304756.068122) can0 223#000000000000002D
(1469304756.068372) can0 610#2000006480FFFD60
(1469304756.068624) can0 024#520001FB420A8046
(1469304756.069281) can0 6E2#A28000FEFEFEFEFE
(1469304756.070932) can0 435#0F0505FFE00FE003
(1469304756.072633) can0 4AC#2800600100000324
(1469304756.073474) can0 0AA#1A6F1A6F1A6F1A6F
(1469304756.076688) can0 1C8#80
(1469304756.078561) can0 260#08FFFF0000FFF160
(1469304756.078798) can0 3A0#0091000007000070
(1469304756.079539) can0 020#0000072B
(1469304756.079646) can0 0BA#060000C4
(1469304756.079919) can0 224#0000000000000008
(1469304756.080160) can0 025#00010002900000C0
(1469304756.080697) can0 024#520001FD42088046
(1469304756.082697) can0 3B1#00000D0900080000
(1469304756.083042) can0 263#00000000AE001A
(1469304756.083398) can0 351#00000000
(1469304756.084002) can0 1C4#083729080000FF3C
(1469304756.085049) can0 1D0#108B090000AC0029
(1469304756.085548) can0 0AA#1A6F1A6F1A6F1A6F
(1469304756.086021) can0 2C1#0801AC006BCD00B8
(1469304756.088401) can0 620#1000FFFFB0500040
(1469304756.088532) can0 262#000000016A
(1469304756.091590) can0 020#0000072B
(1469304756.091793) can0 0B4#00000000020000BE
(1469304756.092018) can0 025#000000027000009F
(1469304756.092266) can0 223#000000000000002D
(1469304756.092725) can0 024#520001FD42088046
(1469304756.093142) can0 1C8#80
(1469304756.097609) can0 0AA#1A6F1A6F1A6F1A6F
(1469304756.098573) can0 260#08FFFF0000FFF160
(1469304756.101026) can0 436#0000000000000000
(1469304756.101574) can0 361#0018000000000000
(1469304756.103592) can0 020#0000072B
(1469304756.103722) can0 0BA#060000C4
(1469304756.103987) can0 025#000000027000009F
(1469304756.104232) can0 224#0000000000000008
(1469304756.104621) can0 024#520001FF42088048
(1469304756.107630) can0 263#00000000AE001A
(1469304756.108696) can0 1C4#082129080000FF26
(1469304756.109695) can0 0AA#1A6F1A6F1A6F1A6F
(1469304756.109831) can0 1AA#0000000000B1
(1469304756.109945) can0 1C8#80
(1469304756.114757) can0 3F9#5198260100000014
(1469304756.115619) can0 020#0000072B
(1469304756.115830) can0 0B4#00000000020000BE
(1469304756.116075) can0 025#000000027000009F
(1469304756.116299) can0 223#000000000000002D
(1469304756.116721) can0 024#520001FD420A8048
(1469304756.117814) can0 3D3#0298
(1469304756.118053) can0 1D0#1063090000AC0001
(1469304756.118555) can0 260#08FFFF0000FFF160
(1469304756.118850) can0 2C1#0801B90067CD00C1
(1469304756.121665) can0 0AA#1A6F1A6F1A6F1A6F
(1469304756.125944) can0 1C8#80
(1469304756.127546) can0 020#0000072B
(1469304756.127767) can0 0BA#060000C4
(1469304756.128016) can0 224#0000000000000008
(1469304756.128267) can0 025#000000027000009F
(1469304756.128415) can0 262#000000016A
(1469304756.128698) can0 024#520001FB420A8046
(1469304756.130979) can0 437#FCFFFFFFFFFFFFFF
(1469304756.132325) can0 263#00000000AE001A
(1469304756.133346) can0 1C4#081029080000FF15
(1469304756.133745) can0 0AA#1A6F1A6F1A6F1A6F
(1469304756.135191) can0 3D0#00
(1469304756.138597) can0 260#08FFFE0000FFF15F
(1469304756.139671) can0 020#0000072B
(1469304756.139900) can0 0B4#00000000020000BE
(1469304756.140129) can0 223#000000000000002D
(1469304756.140698) can0 024#520001FB420A8046
(1469304756.140900) can0 025#00010002900000C0
(1469304756.142440) can0 1C8#80
(1469304756.143441) can0 351#00000000
(1469304756.145800) can0 0AA#1A6F1A6F1A6F1A6F
(1469304756.150799) can0 1D0#1039090000AC00D7
(1469304756.151777) can0 2C1#0801C70069CE00D2
(1469304756.151837) can0 020#0000072B
(1469304756.152103) can0 0BA#060000C4
(1469304756.152307) can0 224#0000000000000008
(1469304756.152724) can0 024#520001FB42088044
(1469304756.152923) can0 025#000000027000009F
(1469304756.154347) can0 440#4202001101000000
(1469304756.156948) can0 263#00000000AE001A
(1469304756.157775) can0 0AA#1A6F1A6F1A6F1A6F
(1469304756.157932) can0 1AA#0000000000B1
(1469304756.158262) can0 1C4#080029080000FF05
(1469304756.158571) can0 260#08FFFE0000FFF15F
(1469304756.158847) can0 1C8#80
(1469304756.163318) can0 394#4300
(1469304756.163743) can0 020#0000072B
(1469304756.163985) can0 0B4#00000000020000BE
(1469304756.164206) can0 223#000000000000002D
(1469304756.164695) can0 024#520001FD42088046
(1469304756.164900) can0 025#000000027000009F
(1469304756.167175) can0 361#0018000000000000
(1469304756.168570) can0 262#000000016A
(1469304756.169995) can0 0AA#1A6F1A6F1A6F1A6F
(1469304756.175266) can0 1C8#80
(1469304756.175953) can0 020#0000072B
(1469304756.176030) can0 0BA#05FD00C0
(1469304756.176319) can0 224#0000000000000008
(1469304756.176677) can0 024#520001FD42088046
(1469304756.176927) can0 025#000000027000009F
(1469304756.178572) can0 260#08FFFF0000FFF160
(1469304756.180874) can0 3A0#0091000007000070
(1469304756.181570) can0 263#00000000AE001A
(1469304756.182069) can0 0AA#1A6F1A6F1A6F1A6F
(1469304756.182574) can0 1C4#07FF29080000FF03
(1469304756.183622) can0 1D0#100C090000AC00AA
(1469304756.184574) can0 2C1#0801C70069CE00D2
(1469304756.187992) can0 020#0000072B
(1469304756.188174) can0 0B4#00000000000000BC
(1469304756.188448) can0 223#000000000000002D
(1469304756.188699) can0 024#520001FD42088046
(1469304756.188948) can0 025#000000027000009F
(1469304756.191669) can0 1C8#80
(1469304756.194096) can0 0AA#1A6F1A6F1A6F1A6F
(1469304756.198572) can0 260#08FFFF0000FFF160
(1469304756.200018) can0 020#0000072B
(1469304756.200101) can0 0BA#05FD00C0
(1469304756.200461) can0 224#0000000000000008
(1469304756.200686) can0 024#020001FD420A80F8
(1469304756.200982) can0 025#000000027000009F
(1469304756.203366) can0 351#00000000
(1469304756.206126) can0 0AA#1A6F1A6F1A6F1A6F
(1469304756.206256) can0 1AA#0000000000B1
(1469304756.206524) can0 263#00000000AE001A
(1469304756.207146) can0 1C4#07F429080000FFF8
(1469304756.207194) can0 354#01
(1469304756.208022) can0 1C8#80
(1469304756.208392) can0 262#000000016A
(1469304756.212046) can0 020#0000072B
(1469304756.212280) can0 0B4#00000000000000BC
(1469304756.212585) can0 223#000000000000002D
(1469304756.212771) can0 024#020001FD420A80F8
(1469304756.212999) can0 025#000000027000009F
(1469304756.216501) can0 1D0#0FF9090000AC0096
(1469304756.217427) can0 2C1#080151006CCA005B
(1469304756.218148) can0 0AA#1A6F1A6F1A6F1A6F
(1469304756.218348) can0 3B7#583B000000000008
(1469304756.218581) can0 260#08FFFF0000FFF160
(1469304756.224100) can0 020#0000072B
(1469304756.224182) can0 0BA#05FD00C0
(1469304756.224570) can0 224#0000000000000008
(1469304756.224708) can0 024#020001FD420A80F8
(1469304756.224974) can0 025#000000027000009F
(1469304756.225020) can0 1C8#80
(1469304756.230199) can0 0AA#1A6F1A6F1A6F1A6F
(1469304756.230800) can0 263#00000000AF001B
(1469304756.231807) can0 1C4#07EB29080000FFEF
(1469304756.232889) can0 361#0017000000000000
(1469304756.236114) can0 020#0000072B
(1469304756.236313) can0 0B4#00000000000000BC
(1469304756.236570) can0 223#000000000000002D
(1469304756.236814) can0 024#020001FB420880F4
(1469304756.237038) can0 025#000000027000009F
(1469304756.238521) can0 260#08FFFE0000FFF15F
(1469304756.240958) can0 1C8#80
(1469304756.242192) can0 0AA#1A6F1A6F1A6F1A6F
(1469304756.248138) can0 020#0000072B
(1469304756.248230) can0 0BA#05FB00BE
(1469304756.248521) can0 224#0000000000000008
(1469304756.248775) can0 024#020001FB420880F4
(1469304756.249064) can0 025#000000027000009F
(1469304756.249156) can0 262#000000016A
(1469304756.249489) can0 1D0#0FE1090000AC007E
(1469304756.250268) can0 2C1#08015F006ECA006B
(1469304756.250615) can0 442#4302000001000000
(1469304756.254244) can0 0AA#1A6F1A6F1A6F1A6F
(1469304756.254411) can0 1AA#0000000000B1
(1469304756.255466) can0 263#00000000AF001B
(1469304756.256571) can0 1C4#07DD29080000FFE1
(1469304756.257342) can0 1C8#80
(1469304756.258528) can0 260#08FFFF0000FFE554
(1469304756.260213) can0 020#0000072B
(1469304756.260414) can0 0B4#00000000000000BC
(1469304756.260669) can0 223#000000000000002D
(1469304756.260892) can0 024#020001FB420880F4
(1469304756.261194) can0 025#000000027000009F
(1469304756.263360) can0 351#00000000
(1469304756.266294) can0 0AA#1A6F1A6F1A6F1A6F
(1469304756.272243) can0 020#0000072B
(1469304756.272335) can0 0BA#05FB00BE
(1469304756.272666) can0 224#0000000000000008
(1469304756.272864) can0 024#020001FD420880F6
(1469304756.273166) can0 025#000000027000009F
(1469304756.273783) can0 1C8#80
(1469304756.278344) can0 0AA#1A6F1A6F1A6F1A6F
(1469304756.278515) can0 260#08FFFE0000FFF462
(1469304756.279851) can0 3A0#0091000007000070
(1469304756.280038) can0 263#00000000AE001A
(1469304756.281119) can0 1C4#07DB29080000FFDF
(1469304756.282141) can0 1D0#0FC7090000AC0064
(1469304756.283116) can0 2C1#080161006ECB006E
(1469304756.284263) can0 020#0000072B
(1469304756.284576) can0 0B4#00000000000000BC
(1469304756.284715) can0 024#020001FD420880F6
(1469304756.284970) can0 025#000000027000009F
(1469304756.285225) can0 223#000000000000002D
(1469304756.288528) can0 262#000000016A
(1469304756.290205) can0 1C8#80
(1469304756.290403) can0 0AA#1A6F1A6F1A6F1A6F
(1469304756.296293) can0 020#0000072B
(1469304756.296386) can0 0BA#05FD00C0
(1469304756.296716) can0 224#0000000000000008
(1469304756.296914) can0 024#020001FD420A80F8
(1469304756.297170) can0 025#000000027000009F
(1469304756.298453) can0 260#08FFFF0000FFE554
(1469304756.298743) can0 361#0017000000000000
(1469304756.302421) can0 0AA#1A6F1A6F1A6F1A6F
(1469304756.302563) can0 1AA#0000000000B1
(1469304756.304693) can0 263#00000000AF001B
(1469304756.305717) can0 1C4#07CF29080000FFD3
(1469304756.306610) can0 1C8#80
(1469304756.306749) can0 3BB#0000AE00
(1469304756.308316) can0 020#0000072B
(1469304756.308568) can0 0B4#00000000000000BC
(1469304756.308815) can0 024#020001FD420A80F8
(1469304756.309064) can0 025#000000027000009F
(1469304756.309312) can0 223#000000000000002D
(1469304756.314443) can0 0AA#1A6F1A6F1A6F1A6F
(1469304756.314967) can0 1D0#0FBB090000AC0058
(1469304756.315944) can0 2C1#0801710069CB0079
(1469304756.318423) can0 260#08FFFF0000FFF160
(1469304756.320361) can0 020#0000072B
(1469304756.320506) can0 0BA#05FD00C0
(1469304756.320805) can0 024#020001FD420880F6
(1469304756.321007) can0 025#000000027000009F
(1469304756.321303) can0 224#0000000000000008
(1469304756.322992) can0 1C8#80
(1469304756.323229) can0 351#00000000
(1469304756.326491) can0 0AA#1A6F1A6F1A6F1A6F
(1469304756.328302) can0 262#000000016A
(1469304756.329271) can0 263#00000000AE001A
(1469304756.330344) can0 1C4#07C829080000FFCC
(1469304756.332437) can0 020#0000072B
(1469304756.332643) can0 0B4#00000000000000BC
(1469304756.332894) can0 024#020001FB420880F4
(1469304756.333147) can0 025#000000027000009F
(1469304756.333450) can0 223#000000000000002D
(1469304756.338443) can0 260#08FFFE0000FFF15F
(1469304756.338614) can0 0AA#1A6F1A6F1A6F1A6F
(1469304756.339429) can0 1C8#80
(1469304756.344466) can0 020#0000072B
(1469304756.344558) can0 0BA#05FB00BE
(1469304756.344909) can0 224#0000000000000008
(1469304756.345641) can0 025#000000027000009F
(1469304756.345813) can0 024#020001FB420880F4
(1469304756.347795) can0 1D0#0F9D090000AC003A
(1469304756.348727) can0 2C1#08017D0063CB007F
(1469304756.350566) can0 0AA#1A6F1A6F1A6F1A6F
(1469304756.350712) can0 1AA#0000000000B1
(1469304756.350968) can0 443#4002002F06000000
(1469304756.353943) can0 263#00000000AE001A
(1469304756.354968) can0 1C4#07BC29080000FFC0
(1469304756.355796) can0 1C8#80
(1469304756.356474) can0 020#0000072B
(1469304756.356699) can0 0B4#00000000000000BC
(1469304756.356946) can0 223#000000000000002D
(1469304756.357648) can0 025#000000027000009F
(1469304756.357894) can0 024#020001FB420880F4
(1469304756.358444) can0 260#08FFFE0000FFE553
(1469304756.362558) can0 0AA#1A6F1A6F1A6F1A6F
(1469304756.364218) can0 361#0017000000000000
(1469304756.368300) can0 262#000000016A
(1469304756.368510) can0 020#0000072B
(1469304756.368650) can0 0BA#05FB00BE
(1469304756.368926) can0 224#0000000000000008
(1469304756.369566) can0 025#000000027000009F
(1469304756.369815) can0 024#020001FD420880F6
(1469304756.371365) can0 3F9#5198260100000014
(1469304756.372260) can0 1C8#80
(1469304756.374642) can0 0AA#1A6F1A6F1A6F1A6F
(1469304756.378443) can0 260#08FFFE0000FFF15F
(1469304756.378614) can0 263#00000000AF001B
(1469304756.378875) can0 3A0#0091000007000070
(1469304756.379522) can0 1C4#07AC29080000FFB0
(1469304756.380620) can0 1D0#0F7C090000AC0019
(1469304756.380691) can0 020#0000072B
(1469304756.381037) can0 0B4#00000000000000BC
(1469304756.381241) can0 223#000000000000002D
(1469304756.381526) can0 4C3#0300000100000000
(1469304756.381742) can0 024#020001FF420A80FA
(1469304756.381979) can0 025#000000027000009F
(1469304756.382196) can0 2C1#08018F0062CC0091
(1469304756.383373) can0 351#00000000
(1469304756.386658) can0 0AA#1A6F1A6F1A6F1A6F
(1469304756.388324) can0 620#1000FFFFB0500040
(1469304756.388642) can0 1C8#80
(1469304756.391740) can0 3D0#00
(1469304756.392618) can0 020#0000072B
(1469304756.392701) can0 0BA#05FF00C2
(1469304756.393057) can0 224#0000000000000008
(1469304756.393597) can0 025#000000027000009F
(1469304756.393802) can0 024#020001FD420A80F8
(1469304756.398448) can0 260#08FFFE0000FFE553
(1469304756.398678) can0 0AA#1A6F1A6F1A6F1A6F
(1469304756.398898) can0 1AA#0000000000B1
(1469304756.403171) can0 263#00000000AF001B
(1469304756.404198) can0 1C4#079F29080000FFA3
(1469304756.404689) can0 020#0000072B
(1469304756.404893) can0 0B4#00000000000000BC
(1469304756.405144) can0 223#000000000000002D
(1469304756.405188) can0 1C8#80
(1469304756.405645) can0 025#000000027000009F
(1469304756.405849) can0 024#020001FB420880F4
(1469304756.408419) can0 262#000000016A
(1469304756.410788) can0 0AA#1A6F1A6F1A6F1A6F
(1469304756.412266) can0 354#01
(1469304756.413445) can0 1D0#0F5F090000AC00FC
(1469304756.414422) can0 2C1#0801A10061CD00A3
(1469304756.416721) can0 020#0000072B
(1469304756.416906) can0 0BA#05FB00BE
(1469304756.417141) can0 224#0000000000000008
(1469304756.417572) can0 025#000000027000009F
(1469304756.417774) can0 024#020001FB420880F4
(1469304756.418398) can0 260#08FFFE0000FFF15F
(1469304756.421487) can0 1C8#80
(1469304756.422973) can0 0AA#1A6F1A6F1A6F1A6F
(1469304756.427800) can0 263#00000000AF001B
(1469304756.428797) can0 1C4#078C29080000FF90
(1469304756.428880) can0 020#0000072B
(1469304756.429167) can0 0B4#00000000000000BC
(1469304756.429420) can0 223#000000000000002D
(1469304756.429675) can0 025#000000027000009F
(1469304756.429947) can0 024#020001FB420880F4
(1469304756.430147) can0 361#0017000000000000
(1469304756.435052) can0 0AA#1A6F1A6F1A6F1A6F
(1469304756.437914) can0 1C8#80
(1469304756.438386) can0 260#08FFFE0000FFF15F
(1469304756.440952) can0 020#0000072B
(1469304756.441073) can0 0BA#05FB00BE
(1469304756.441362) can0 224#0000000000000008
(1469304756.441599) can0 025#000000027000009F
(1469304756.441848) can0 024#020001FB420880F4
(1469304756.443239) can0 351#00000000
(1469304756.446252) can0 1D0#0F35090000AC00D2
(1469304756.447046) can0 0AA#1A6F1A6F1A6F1A6F
(1469304756.447180) can0 1AA#0000000000B1
(1469304756.447451) can0 2C1#0801AC005FCD00AC
(1469304756.448301) can0 262#000000016A
(1469304756.452396) can0 263#00000000AF001B
(1469304756.452965) can0 020#0000072B
(1469304756.453207) can0 0B4#00000000000000BC
(1469304756.453429) can0 1C4#078629080000FF8A
(1469304756.453724) can0 025#000000027000009F
(1469304756.453926) can0 024#020001FD420880F6
(1469304756.454151) can0 223#000000000000002D
(1469304756.454399) can0 440#4202001101000000
(1469304756.454621) can0 4C1#0100000500000000
(1469304756.454716) can0 1C8#80
(1469304756.458371) can0 260#08FFFE0000FFEE5C
(1469304756.459026) can0 0AA#1A6F1A6F1A6F1A6F
(1469304756.463141) can0 394#4300
(1469304756.465019) can0 020#0000072B
(1469304756.465102) can0 0BA#05FD00C0
(1469304756.465438) can0 224#0000000000000008
(1469304756.465659) can0 025#000000027000009F
(1469304756.465885) can0 024#020001FD420A80F8
(1469304756.470765) can0 1C8#80
(1469304756.471065) can0 0AA#1A6F1A6F1A6F1A6F
(1469304756.477074) can0 263#00000000AF001B
(1469304756.477156) can0 020#0000072B
(1469304756.477491) can0 0B4#00000000000000BC
(1469304756.477697) can0 025#000000027000009F
(1469304756.477950) can0 024#020001FD420880F6
(1469304756.478172) can0 1C4#077929080000FF7D
(1469304756.478425) can0 223#000000000000002D
(1469304756.478682) can0 260#08FFFE0000FFF15F
(1469304756.478925) can0 3A0#0091000007000070
(1469304756.479151) can0 1D0#0F18090000AC00B5
(1469304756.479399) can0 621#1100000000000000
(1469304756.480037) can0 2C1#0801BC005DCD00BA
(1469304756.483127) can0 0AA#1A6F1A6F1A6F1A6F
(1469304756.487168) can0 1C8#80
(1469304756.488323) can0 623#1900000000000000
(1469304756.488406) can0 262#000000016A
(1469304756.489117) can0 020#0000072B
(1469304756.489201) can0 0BA#05FD00C0
(1469304756.489571) can0 025#000000027000009F
(1469304756.489773) can0 024#020001FB420880F4
(1469304756.490000) can0 224#0000000000000008
(1469304756.495247) can0 0AA#1A6F1A6F1A6F1A6F
(1469304756.495381) can0 1AA#0000000000B1
(1469304756.495660) can0 361#0017000000000000
(1469304756.497298) can0 624#1A00414949400000
(1469304756.498372) can0 260#08FFFE0000FFF15F
(1469304756.501193) can0 020#0000072B
(1469304756.501398) can0 0B4#00000000000000BC
(1469304756.501612) can0 025#000000027000009F
(1469304756.501886) can0 024#020001FB420880F4
(1469304756.502144) can0 223#000000000000002D
(1469304756.502371) can0 263#00000000AF001B
(1469304756.502948) can0 1C4#076F29080000FF73
(1469304756.503174) can0 351#00000000
(1469304756.503616) can0 1C8#80
(1469304756.506251) can0 626#1C00300000000000
(1469304756.507297) can0 0AA#1A6F1A6F1A6F1A6F
(1469304756.511946) can0 1D0#0EF9090000AC0095
(1469304756.512949) can0 2C1#0801C70060CE00C9
(1469304756.513226) can0 020#0000072B
(1469304756.513351) can0 0BA#05FB00BE
(1469304756.513627) can0 224#0000000000000008
(1469304756.513936) can0 024#020001FD420880F6
(1469304756.514138) can0 025#000000027000009F
(1469304756.514379) can0 420#00000000FB0180A8
(1469304756.515255) can0 638#1300180100000000
(1469304756.518399) can0 260#08FFFE0000FFF15F
(1469304756.519322) can0 0AA#1A6F1A6F1A6F1A6F
(1469304756.519525) can0 3B7#583B000000000008
(1469304756.520006) can0 1C8#80
(1469304756.524294) can0 63C#98005A5245172060
(1469304756.525236) can0 020#0000072B
(1469304756.525567) can0 0B4#00000000000000BC
(1469304756.525662) can0 025#000000027000009F
(1469304756.525991) can0 024#020001FD420880F6
(1469304756.526189) can0 223#000000000000002D
(1469304756.526417) can0 263#00000000AF001B
(1469304756.527343) can0 1C4#075E29080000FF62
(1469304756.528347) can0 262#000000016A
(1469304756.531368) can0 0AA#1A6F1A6F1A6F1A6F
(1469304756.533292) can0 63D#9900444558534B00
(1469304756.536484) can0 1C8#80
(1469304756.537310) can0 020#0000072B
(1469304756.537405) can0 0BA#05FD00C0
(1469304756.537742) can0 224#0000000000000008
(1469304756.537940) can0 024#020001FF420880F8
(1469304756.538289) can0 260#08FFFF0000FFE554
(1469304756.538533) can0 025#000000027000009F
(1469304756.541620) can0 640#A8000057012E0000
(1469304756.542260) can0 680#D800010000000000
(1469304756.543417) can0 0AA#1A6F1A6F1A6F1A6F
(1469304756.543600) can0 1AA#0000000000B1
(1469304756.544816) can0 1D0#0ED9090000AC0075
(1469304756.545792) can0 2C1#0801E20060CF00E5
(1469304756.549340) can0 020#0000072B
(1469304756.549583) can0 0B4#00000000000000BC
(1469304756.549841) can0 024#020001FF420A80FA
(1469304756.550040) can0 223#000000000000002D
(1469304756.550594) can0 025#000000027000009F
(1469304756.550789) can0 442#4302000001000000
(1469304756.551017) can0 263#00000000AF001B
(1469304756.551974) can0 1C4#074C29080000FF50
(1469304756.552821) can0 1C8#80
(1469304756.555441) can0 0AA#1A6F1A6F1A6F1A6F
(1469304756.558319) can0 260#08FFFE0000FFE553
(1469304756.561243) can0 361#0017000000000000
(1469304756.561321) can0 020#0000072B
(1469304756.561517) can0 0BA#05FF00C2
(1469304756.561810) can0 024#020001FD420A80F8
(1469304756.562010) can0 224#0000000000000008
(1469304756.562501) can0 025#000000027000009F
(1469304756.563164) can0 351#00000000
(1469304756.567605) can0 0AA#1A6F1A6F1A6F1A6F
(1469304756.568196) can0 262#000000016A
(1469304756.568624) can0 610#2000006480FFFD60
(1469304756.569286) can0 1C8#80
(1469304756.570647) can0 4C6#0700030000000000
(1469304756.572735) can0 4AC#4800A00100000324
(1469304756.573441) can0 020#0000072B
(1469304756.573648) can0 0B4#00000000000000BC
(1469304756.573901) can0 024#020001FD420880F6
(1469304756.574147) can0 223#000000000000002D
(1469304756.574571) can0 025#000000027000009F
(1469304756.575599) can0 263#00000000AF001B
(1469304756.576598) can0 1C4#074529080000FF49
(1469304756.577647) can0 1D0#0EB2090000AC004E
(1469304756.578372) can0 260#08FFFE0000FFF462
(1469304756.578574) can0 2C1#0801EA0064CF00F1
(1469304756.579526) can0 0AA#1A6F1A6F1A6F1A6F
(1469304756.579772) can0 3A0#0091000007000070
(1469304756.580573) can0 611#21000020000062D4
(1469304756.582713) can0 3B1#00000D0500080000
(1469304756.585500) can0 020#0000072B
(1469304756.585585) can0 0BA#05FD00C0
(1469304756.585751) can0 1C8#80
(1469304756.586006) can0 224#0000000000000008
(1469304756.586427) can0 025#000000027000009F
(1469304756.586773) can0 024#020001FB420880F4
(1469304756.591605) can0 0AA#1A6F1A6F1A6F1A6F
(1469304756.591735) can0 1AA#0000000000B1
(1469304756.597541) can0 020#0000072B
(1469304756.597725) can0 0B4#00000000000000BC
(1469304756.598020) can0 223#000000000000002D
(1469304756.598223) can0 260#08FFFE0000FFF15F
(1469304756.598533) can0 025#000000027000009F
(1469304756.598728) can0 024#020001FB420880F4
(1469304756.600136) can0 263#00000000AF001B
(1469304756.601153) can0 1C4#073829080000FF3C
(1469304756.602049) can0 1C8#80
(1469304756.603601) can0 0AA#1A6F1A6F1A6F1A6F
(1469304756.608203) can0 262#000000016A
(1469304756.609567) can0 020#0000072B
(1469304756.609633) can0 0BA#05FB00BE
(1469304756.609982) can0 224#0000000000000008
(1469304756.610407) can0 025#00010002900000C0
(1469304756.610608) can0 1D0#0E8D090000AC0029
(1469304756.610855) can0 024#020001FD420880F6
(1469304756.611383) can0 2C1#0801FA0068CF0005
(1469304756.613161) can0 4C8#0900000000000000
(1469304756.615650) can0 0AA#1A6F1A6F1A6F1A6F
(1469304756.617463) can0 354#01
(1469304756.618301) can0 260#08FFFE0000FFE553
(1469304756.618527) can0 1C8#80
(1469304756.621568) can0 020#0000072B
(1469304756.621796) can0 0B4#00000000000000BC
(1469304756.622019) can0 223#000000000000002D
(1469304756.622417) can0 025#000000027000009F
(1469304756.622734) can0 024#020001FD420880F6
(1469304756.623109) can0 351#00000000
(1469304756.624797) can0 263#00000000AF001B
(1469304756.625823) can0 1C4#072D29080000FF31
(1469304756.626871) can0 361#0017000000000000
(1469304756.627650) can0 0AA#1A6F1A6F1A6F1A6F
(1469304756.627853) can0 3F9#5198260100000014
(1469304756.633606) can0 020#0000072B
(1469304756.633682) can0 0BA#05FD00C0
(1469304756.634015) can0 224#0000000000000008
(1469304756.634435) can0 025#000000027000009F
(1469304756.634776) can0 024#020001FD420880F6
(1469304756.634854) can0 1C8#80
(1469304756.638300) can0 260#08FFFE0000FFF15F
(1469304756.639682) can0 0AA#1A6F1A6F1A6F1A6F
(1469304756.639812) can0 1AA#0000000000B1
(1469304756.643140) can0 3D3#01B5
(1469304756.643369) can0 1D0#0E6A090000AC0006
(1469304756.644249) can0 2C1#0802030071D00019
(1469304756.645643) can0 020#0000072B
(1469304756.645846) can0 0B4#00000000000000BC
(1469304756.646094) can0 223#000000000000002D
(1469304756.646405) can0 025#000000027000009F
(1469304756.646800) can0 024#020001FD420880F6
(1469304756.648278) can0 262#000000016A
(1469304756.648304) can0 3D0#00
(1469304756.649422) can0 263#00000000AF001B
(1469304756.650445) can0 1C4#071929080000FF1D
(1469304756.650956) can0 443#4002002F06000000
(1469304756.651293) can0 1C8#80
(1469304756.651706) can0 0AA#1A6F1A6F1A6F1A6F
(1469304756.657671) can0 020#0000072B
(1469304756.657756) can0 0BA#05FD00C0
(1469304756.658088) can0 224#0000000000000008
(1469304756.658290) can0 260#08FFFE0000FFE553
(1469304756.658552) can0 025#000000027000009F
(1469304756.658771) can0 024#020001FB420880F4
(1469304756.663749) can0 0AA#1A6F1A6F1A6F1A6F
(1469304756.667741) can0 1C8#80
(1469304756.669868) can0 020#0000072B
(1469304756.670072) can0 0B4#00000000000000BC
(1469304756.670326) can0 025#000000027000009F
(1469304756.670575) can0 223#000000000000002D
(1469304756.670825) can0 024#020001FB420A80F6
(1469304756.671384) can0 423#00
(1469304756.673969) can0 263#00000000AF001B
(1469304756.675047) can0 1C4#070F29080000FF13
(1469304756.675977) can0 0AA#1A6F1A6F1A6F1A6F
(1469304756.676164) can0 1D0#0E49090000AC00E5
(1469304756.677050) can0 2C1#08025B0077D20079
(1469304756.678296) can0 260#08FFFE0000FFE553
(1469304756.678797) can0 3A0#0091000007000070
(1469304756.681920) can0 020#0000072B
(1469304756.682004) can0 0BA#05FB00BE
(1469304756.682313) can0 025#000000027000009F
(1469304756.682553) can0 224#0000000000000008
(1469304756.682801) can0 024#020001FB420880F4
(1469304756.683020) can0 351#00000000
(1469304756.684128) can0 1C8#80
(1469304756.688030) can0 0AA#1A6F1A6F1A6F1A6F
(1469304756.688160) can0 1AA#0000000000B1
(1469304756.688344) can0 262#000000016A
(1469304756.688625) can0 620#1000FFFFB0500040
(1469304756.692503) can0 361#0018000000000000
(1469304756.693904) can0 020#0000072B
(1469304756.694128) can0 0B4#00000000000000BC
(1469304756.694446) can0 025#000000027000009F
(1469304756.694650) can0 223#000000000000002D
(1469304756.694876) can0 024#020001FD420880F6
(1469304756.695122) can0 3BC#0020000000000000
(1469304756.696599) can0 399#00000000000000
(1469304756.698297) can0 260#08FFFE0000FFE553
(1469304756.698645) can0 263#00000000AF001B
(1469304756.699676) can0 1C4#070229080000FF06
(1469304756.700021) can0 0AA#1A6F1A6F1A6F1A6F
(1469304756.700563) can0 1C8#80
(1469304756.705943) can0 020#0000072B
(1469304756.706026) can0 0BA#05FD00C0
(1469304756.706388) can0 025#000000027000009F
(1469304756.706590) can0 224#0000000000000008
(1469304756.706827) can0 024#020001FD420A80F8
(1469304756.708926) can0 1D0#0E25090000AC00C1
(1469304756.709896) can0 2C1#080224007DD10047
(1469304756.712075) can0 0AA#1A6F1A6F1A6F1A6F
(1469304756.716966) can0 1C8#80
(1469304756.717993) can0 020#0000072B
(1469304756.718199) can0 0B4#00000000000000BC
(1469304756.718448) can0 025#000000027000009F
(1469304756.718668) can0 223#000000000000002D
(1469304756.718926) can0 024#020001FD420880F6
(1469304756.719174) can0 260#08FFFE0000FFE553
(1469304756.723274) can0 263#00000000AF001B
(1469304756.724055) can0 0AA#1A6F1A6F1A6F1A6F
(1469304756.724302) can0 1C4#06F129080000FFF4
(1469304756.728146) can0 262#000000016A
(1469304756.730017) can0 020#0000072B
(1469304756.730100) can0 0BA#05FD00C0
(1469304756.730462) can0 224#0000000000000008
(1469304756.730664) can0 025#000000027000009F
(1469304756.730902) can0 024#020001FB420A80F6
(1469304756.733417) can0 1C8#80
(1469304756.736132) can0 0AA#1A6F1A6F1A6F1A6F
(1469304756.736263) can0 1AA#0000000000B1
(1469304756.738223) can0 260#08FFFE0000FFE553
(1469304756.741725) can0 1D0#0DFF090000AC009A
(1469304756.742067) can0 020#0000072B
(1469304756.742269) can0 0B4#00000000000000BC
(1469304756.742525) can0 025#000000027000009F
(1469304756.742773) can0 024#020001FB420880F4
(1469304756.743003) can0 223#000000000000002D
(1469304756.743256) can0 2C1#08022F0088D1005D
(1469304756.743398) can0 351#00000000
(1469304756.747874) can0 263#00000000AF001B
(1469304756.748188) can0 0AA#1A6F1A6F1A6F1A6F
(1469304756.748898) can0 1C4#06E929080000FFEC
(1469304756.749787) can0 1C8#80
(1469304756.754095) can0 020#0000072B
(1469304756.754179) can0 0BA#05FB00BE
(1469304756.754528) can0 224#0000000000000008
(1469304756.754732) can0 025#000000027000009F
(1469304756.754957) can0 024#020001FB420880F4
(1469304756.755204) can0 440#4202001101000000
(1469304756.758110) can0 361#0018000000000000
(1469304756.758402) can0 260#08FFFF0000FFEB5A
(1469304756.760199) can0 0AA#1A6F1A6F1A6F1A6F
(1469304756.762967) can0 394#4300
(1469304756.766141) can0 020#0000072B
(1469304756.766344) can0 0B4#00000000000000BC
(1469304756.766401) can0 1C8#80
(1469304756.766773) can0 223#000000000000002D
(1469304756.766974) can0 024#020001FD420880F6
(1469304756.767281) can0 025#000000027000009F
(1469304756.768179) can0 262#000000016A
(1469304756.772247) can0 0AA#1A6F1A6F1A6F1A6F
(1469304756.772450) can0 263#00000000AF001B
(1469304756.773571) can0 1C4#06DE29080000FFE1
(1469304756.774500) can0 1D0#0DDC090000AC0077
(1469304756.775614) can0 2C1#0802390090D1006F
(1469304756.778192) can0 260#08FFFE0000FFF15F
(1469304756.778271) can0 020#0000072B
(1469304756.778561) can0 0BA#05FD00C0
(1469304756.778732) can0 224#0000000000000008
(1469304756.779035) can0 024#020001FD420A80F8
(1469304756.779206) can0 025#000000027000009F
(1469304756.780795) can0 3A0#0091000007000070
(1469304756.782607) can0 1C8#80
(1469304756.784261) can0 0AA#1A6F1A6F1A6F1A6F
(1469304756.784564) can0 1AA#0000000000B1
(1469304756.790262) can0 020#0000072B
(1469304756.790521) can0 0B4#00000000000000BC
(1469304756.790777) can0 223#000000000000002D
(1469304756.790963) can0 024#020001FD420880F6
(1469304756.791250) can0 025#000000027000009F
(1469304756.796344) can0 0AA#1A6F1A6F1A6F1A6F
(1469304756.797091) can0 263#00000000AF001B
(1469304756.798120) can0 1C4#06D329080000FFD6
(1469304756.798314) can0 260#08FFFE0000FFF15F
(1469304756.799032) can0 1C8#80
(1469304756.802289) can0 020#0000072B
(1469304756.802382) can0 0BA#05FD00C0
(1469304756.802669) can0 224#0000000000000008
(1469304756.802888) can0 024#020001FD420880F6
(1469304756.803024) can0 351#00000000
(1469304756.803309) can0 025#000000027000009F
(1469304756.807368) can0 1D0#0DC2090000AC005D
(1469304756.808119) can0 262#000000016A
(1469304756.808323) can0 2C1#0802450098D20084
(1469304756.808529) can0 0AA#1A6F1A6F1A6F1A6F
(1469304756.810796) can0 383#0100010000000000
(1469304756.811104) can0 4DC#1D00000200000000
(1469304756.814317) can0 020#0000072B
(1469304756.814514) can0 0B4#00000000000000BC
(1469304756.814774) can0 024#020001FB420880F4
(1469304756.814993) can0 223#000000000000002D
(1469304756.815267) can0 025#000000027000009F
(1469304756.815322) can0 1C8#80
(1469304756.815602) can0 38A#0804000000
(1469304756.818203) can0 260#08FFFE0000FFF15F
(1469304756.820425) can0 0AA#1A6F1A6F1A6F1A6F
(1469304756.820612) can0 3B7#583B000000000008
(1469304756.821720) can0 263#00000000AF001B
(1469304756.822748) can0 1C4#06C429080000FFC7
(1469304756.822763) can0 354#01
(1469304756.823737) can0 361#0018000000000000
(1469304756.826340) can0 020#0000072B
(1469304756.826411) can0 0BA#05FB00BE
(1469304756.826771) can0 224#0000000000000008
(1469304756.826971) can0 024#020001FB420880F4
(1469304756.827200) can0 025#000000027000009F
(1469304756.831847) can0 1C8#80
(1469304756.832421) can0 0AA#1A6F1A6F1A6F1A6F
(1469304756.832557) can0 1AA#0000000000B1
(1469304756.838101) can0 260#08FFFF0000FFEB5A
(1469304756.838327) can0 020#0000072B
(1469304756.838624) can0 0B4#00000000000000BC
(1469304756.838828) can0 024#020001FB420A80F6
(1469304756.839059) can0 223#000000000000002D
(1469304756.839299) can0 025#000000027000009F
(1469304756.840202) can0 1D0#0DA2090000AC003D
(1469304756.841173) can0 2C1#08025900A0D200A0
(1469304756.844447) can0 0AA#1A6F1A6F1A6F1A6F
(1469304756.846349) can0 263#00000000AF001B
(1469304756.847371) can0 1C4#06AF29080000FFB2
(1469304756.848075) can0 262#000000016A
(1469304756.848200) can0 1C8#80
(1469304756.850391) can0 020#0000072B
(1469304756.850474) can0 0BA#05FB00BE
(1469304756.850815) can0 024#020001FD420880F6
(1469304756.851017) can0 224#0000000000000008
(1469304756.851268) can0 025#000000027000009F
(1469304756.851523) can0 442#4302000001000000
(1469304756.856497) can0 0AA#1A6F1A6F1A6F1A6F
(1469304756.858174) can0 260#08FFFE0000FFF15F
(1469304756.861001) can0 387#0000000000003F3F
(1469304756.862439) can0 020#0000072B
(1469304756.862651) can0 0B4#00000000000000BC
(1469304756.862897) can0 024#020001FD420880F6
(1469304756.863118) can0 223#000000000000002D
(1469304756.863368) can0 025#000000027000009F
(1469304756.863483) can0 351#00000000
(1469304756.864661) can0 1C8#80
(1469304756.868577) can0 0AA#1A6F1A6F1A6F1A6F
(1469304756.870946) can0 263#00000000AF001B
(1469304756.871976) can0 1C4#06A029080000FFA3
(1469304756.873023) can0 1D0#0D7B090000AC0016
(1469304756.873996) can0 2C1#08027F00AAD300D1
(1469304756.874464) can0 020#0000072B
(1469304756.874546) can0 0BA#05FD00C0
(1469304756.874822) can0 024#020001FD420880F6
(1469304756.875078) can0 224#0000000000000008
(1469304756.875332) can0 025#000000027000009F
(1469304756.878169) can0 260#08FFFF0000FFEE5D
(1469304756.879708) can0 3A0#0091000007000070
(1469304756.880561) can0 0AA#1A6F1A6F1A6F1A6F
(1469304756.880721) can0 1AA#0000000000B1
(1469304756.881043) can0 1C8#80
(1469304756.884263) can0 3F9#5198260100000014
(1469304756.886522) can0 020#0000072B
(1469304756.886716) can0 0B4#00000000000000BC
(1469304756.887001) can0 024#020001FD420880F6
(1469304756.887224) can0 025#000000027000009F
(1469304756.887560) can0 223#000000000000002D
(1469304756.888104) can0 262#000000016A
(1469304756.889434) can0 361#0018000000000000
(1469304756.890985) can0 389#0000000000000000
(1469304756.892621) can0 0AA#1A6F1A6F1A6F1A6F
(1469304756.892822) can0 4DD#1E00000000000000
(1469304756.895599) can0 263#00000000AF001B
(1469304756.896508) can0 1C4#068729080000FF8A
(1469304756.897473) can0 1C8#80
(1469304756.898083) can0 260#08FFFF0000FFF160
(1469304756.898551) can0 020#0000072B
(1469304756.898660) can0 0BA#05FD00C0
(1469304756.898926) can0 224#0000000000000008
(1469304756.899172) can0 025#000000027000009F
(1469304756.899763) can0 024#020001FB420880F4
(1469304756.904592) can0 0AA#1A6F1A6F1A6F1A6F
(1469304756.904666) can0 3D0#00
(1469304756.905766) can0 1D0#0D50090000AC00EB
(1469304756.906772) can0 2C1#0802FD00B5D7005E
(1469304756.910604) can0 020#0000072B
(1469304756.910825) can0 0B4#00000000000000BC
(1469304756.911100) can0 223#000000000000002D
(1469304756.911367) can0 025#000000027000009F
(1469304756.911792) can0 024#020001FB420880F4
(1469304756.913838) can0 1C8#80
(1469304756.916696) can0 0AA#1A6F1A6F1A6F1A6F
(1469304756.918084) can0 260#08FFFE0000FFF15F
(1469304756.920159) can0 263#00000000AF001B
(1469304756.920983) can0 38E#2020000000000000
(1469304756.921231) can0 1C4#067429080000FF77
(1469304756.922801) can0 020#0000072B
(1469304756.922907) can0 0BA#05FB00BE
(1469304756.923220) can0 025#000000027000009F
(1469304756.923471) can0 224#0000000000000008
(1469304756.923541) can0 351#00000000
(1469304756.923847) can0 024#020001FB420880F4
(1469304756.928035) can0 262#000000016A
(1469304756.928285) can0 622#1200581000000000
(1469304756.928882) can0 0AA#1A6F1A6F1A6F1A6F
(1469304756.929032) can0 1AA#0000000000B1
(1469304756.930298) can0 1C8#80
(1469304756.934752) can0 020#0000072B
(1469304756.935109) can0 0B4#00000000000000BC
(1469304756.935241) can0 025#000000027000009F
(1469304756.935500) can0 223#000000000000002D
(1469304756.935742) can0 024#020001FD420A80F8
(1469304756.938061) can0 260#08FFFF0000FFE554
(1469304756.938659) can0 1D0#0D1E090000AC00B9
(1469304756.939609) can0 2C1#0802CE00BFD60038
(1469304756.940907) can0 0AA#1A6F1A6F1A6F1A6F
(1469304756.944783) can0 263#00000000AF001B
(1469304756.945744) can0 1C4#066A29080000FF6D
(1469304756.946660) can0 1C8#80
(1469304756.946824) can0 020#0000072B
(1469304756.946973) can0 0BA#05FD00C0
(1469304756.947282) can0 224#0000000000000008
(1469304756.947557) can0 025#000000027000009F
(1469304756.947773) can0 024#020001FD420880F6
(1469304756.950999) can0 443#4002002F06000000
(1469304756.951202) can0 38F#0300000000000000
(1469304756.952976) can0 0AA#1A6F1A6F1A6F1A6F
(1469304756.955124) can0 361#0019000000000000
(1469304756.958048) can0 260#08FFFE0000FFEE5C
(1469304756.958889) can0 020#0000072B
(1469304756.959097) can0 0B4#00000000000000BC
(1469304756.959352) can0 025#000000027000009F
(1469304756.959608) can0 223#000000000000002D
(1469304756.959853) can0 024#020001FD420A80F8
(1469304756.960772) can0 380#C0A0400000004300
(1469304756.961082) can0 3B0#00B5005600180000
(1469304756.963090) can0 1C8#80
(1469304756.964910) can0 0AA#1A6F1A6F1A6F1A6F
(1469304756.967886) can0 262#000000016A
(1469304756.969356) can0 263#00000000AF001B
(1469304756.970371) can0 1C4#066629080000FF69
(1469304756.970866) can0 020#0000072B
(1469304756.970986) can0 0BA#05FD00C0
(1469304756.971273) can0 224#0000000000000008
(1469304756.971496) can0 1D0#0CEF090000AC0089
(1469304756.971737) can0 024#020001FD420880F6
(1469304756.971984) can0 025#000000027000009F
(1469304756.972438) can0 2C1#08029800CFD40010
(1469304756.977000) can0 0AA#1A6F1A6F1A6F1A6F
(1469304756.977192) can0 1AA#0000000000B1
(1469304756.978016) can0 260#08FFFE0000FFE553
(1469304756.978767) can0 3A0#0091000007000070
(1469304756.979613) can0 1C8#80
(1469304756.980992) can0 3A5#0000000000007EFC
(1469304756.982863) can0 351#00000000
(1469304756.982957) can0 020#0000072B
(1469304756.983278) can0 0B4#00000000000000BC
(1469304756.983552) can0 223#000000000000002D
(1469304756.983752) can0 6E1#A180000000100000
(1469304756.983967) can0 024#020001FD420880F6
(1469304756.984220) can0 025#000000027000009F
(1469304756.989072) can0 0AA#1A6F1A6F1A6F1A6F
(1469304756.992256) can0 620#1000FFFFB0500040
(1469304756.994096) can0 263#00000000AF001B
(1469304756.995016) can0 020#0000072B
(1469304756.995086) can0 0BA#05FD00C0
(1469304756.995438) can0 1C4#065D29080000FF60
(1469304756.995644) can0 224#0000000000000008
(1469304756.995876) can0 024#020001FB420880F4
(1469304756.996121) can0 025#000000027000009F
(1469304756.996169) can0 1C8#80
(1469304756.998097) can0 260#08FFFE0000FFE553
(1469304757.001127) can0 0AA#1A6F1A6F1A6F1A6F
(1469304757.004374) can0 1D0#0CC9090000AC0063
(1469304757.005348) can0 2C1#0802A300DCD50029
(1469304757.007045) can0 020#0000072B
(1469304757.007247) can0 0B4#00000000000000BC
(1469304757.007531) can0 223#000000000000002D
(1469304757.007698) can0 024#020001FB420A80F6
(1469304757.008013) can0 262#000000016A
(1469304757.008223) can0 025#000000027000009F
(1469304757.010991) can0 413#0101010900000000
(1469304757.012409) can0 1C8#80
(1469304757.013169) can0 0AA#1A6F1A6F1A6F1A6F
(1469304757.017980) can0 260#08FFFF0000FFE554
(1469304757.018718) can0 263#00000000AF001B
(1469304757.019108) can0 020#0000072B
(1469304757.019185) can0 0BA#05FB00BE
(1469304757.019565) can0 224#0000000000000008
(1469304757.019766) can0 1C4#064F29080000FF52
(1469304757.019970) can0 024#020001FB420A80F6
(1469304757.020217) can0 025#000000027000009F
(1469304757.020765) can0 361#0019000000000000
(1469304757.025219) can0 0AA#1A6F1A6F1A6F1A6F
(1469304757.025389) can0 1AA#0000000000B1
(1469304757.027785) can0 354#01
(1469304757.028832) can0 1C8#80
(1469304757.031136) can0 020#0000072B
(1469304757.031394) can0 0B4#00000000000000BC
(1469304757.031607) can0 223#000000000000002D
(1469304757.031890) can0 024#020001FD420880F6
(1469304757.032100) can0 025#000000027000009F
(1469304757.037171) can0 1D0#0CB3090000AC004D
(1469304757.037359) can0 0AA#1A6F1A6F1A6F1A6F
(1469304757.038052) can0 260#08FFFF0000FFF160
(1469304757.038229) can0 2C1#0802B600E8D50048
(1469304757.040994) can0 434#3F00000000000000
(1469304757.042836) can0 351#00000000
(1469304757.043185) can0 020#0000072B
