(1469304681.127277) can0 440#40008011010F0F0F
(1469304681.129465) can0 442#42008000010F0F0F
(1469304681.227364) can0 440#4001801101000000
(1469304681.227536) can0 620#1080FFFF80500080
(1469304681.228486) can0 442#4201800001000000
(1469304681.321341) can0 440#4212001101000000
(1469304681.321536) can0 442#4002000001000000
(1469304681.421314) can0 440#4212001101000000
(1469304681.450463) can0 610#2000006480FFFD60
(1469304681.451335) can0 621#1100000000000000
(1469304681.460337) can0 622#1200481000000000
(1469304681.462461) can0 611#21000020000062D4
(1469304681.469339) can0 623#1900000000000000
(1469304681.478312) can0 624#1A00414949400000
(1469304681.487337) can0 626#1C00300000000000
(1469304681.496313) can0 638#1300180100000000
(1469304681.505343) can0 63C#98005A5245172060
(1469304681.514313) can0 620#1080FFFF90500080
(1469304681.519461) can0 442#4002000001000000
(1469304681.521089) can0 443#4300802F060F0F0F
(1469304681.523285) can0 63D#9900444558534B00
(1469304681.528464) can0 618#2200000080000000
(1469304681.532312) can0 680#D800010000000000
(1469304681.543460) can0 619#230000000C003A80
(1469304681.555465) can0 61A#2400000000014F60
(1469304681.567360) can0 6E1#A100030000F00000
(1469304681.567540) can0 61C#2600000000000000
(1469304681.567730) can0 020#0000072B
(1469304681.576290) can0 6E2#A200CCFEFEFEFEFE
(1469304681.579461) can0 640#A8000000012F0000
(1469304681.579807) can0 020#0000072B
(1469304681.580007) can0 0B4#00000000020000BE
(1469304681.580263) can0 223#0008000000000035
(1469304681.580519) can0 420#0000000000008AB6
(1469304681.591806) can0 020#0000072B
(1469304681.591899) can0 0BA#06008044
(1469304681.592222) can0 224#0000000000000048
(1469304681.592426) can0 4C3#0300000100000000
(1469304681.597936) can0 0AA#1A6F1A6F1A6F1A6F
(1469304681.598082) can0 1AA#0000000000B1
(1469304681.603887) can0 020#0000072B
(1469304681.604079) can0 0B4#00000000020000BE
(1469304681.604331) can0 223#0008000000000035
(1469304681.610141) can0 0AA#9A6F9A6F9A6F9A6F
(1469304681.616064) can0 020#0000072B
(1469304681.616159) can0 0BA#06008044
(1469304681.616564) can0 224#0000000000000048
(1469304681.621088) can0 443#4301802F06000000
(1469304681.621284) can0 440#4202001101000000
(1469304681.622162) can0 0AA#1A6F1A6F1A6F1A6F
(1469304681.628105) can0 020#0000072B
(1469304681.628308) can0 0B4#00000000020000BE
(1469304681.628564) can0 223#0008000000000035
(1469304681.634184) can0 0AA#1A6F1A6F1A6F1A6F
(1469304681.635409) can0 263#0000000001006D
(1469304681.636490) can0 1C4#0000000000003E0B
(1469304681.640133) can0 020#0000072B
(1469304681.640225) can0 0BA#06008044
(1469304681.640558) can0 224#0000000000000048
(1469304681.644554) can0 354#00
(1469304681.645550) can0 1C8#00
(1469304681.646223) can0 0AA#1A6F1A6F1A6F1A6F
(1469304681.646371) can0 1AA#0000000000B1
(1469304681.652132) can0 020#0000072B
(1469304681.652362) can0 0B4#00000000020000BE
(1469304681.652673) can0 223#0008000000000035
(1469304681.653884) can0 1D0#00000100000000DA
(1469304681.654887) can0 2C1#08FFD412A1BE0017
(1469304681.655086) can0 3F9#5198260100000014
(1469304681.656289) can0 620#1080FFFFA0500080
(1469304681.658193) can0 0AA#1A6F1A6F1A6F1A6F
(1469304681.660036) can0 263#00000000AF001B
(1469304681.661089) can0 1C4#000029000000FFF5
(1469304681.661950) can0 1C8#00
(1469304681.664163) can0 020#0000072B
(1469304681.664255) can0 0BA#06008044
(1469304681.664609) can0 224#0000000000000048
(1469304681.665184) can0 4C1#0100000500000000
(1469304681.670261) can0 0AA#1A6F1A6F1A6F1A6F
(1469304681.670573) can0 361#00A0000700000000
(1469304681.672363) can0 3BC#0020000000000000
(1469304681.673303) can0 3BB#8000AF00
(1469304681.674383) can0 399#00000000000000
(1469304681.675251) can0 3D0#00
(1469304681.676209) can0 020#0000072B
(1469304681.676439) can0 0B4#00000000020000BE
(1469304681.676679) can0 223#0008000000000035
(1469304681.678347) can0 1C8#00
(1469304681.679432) can0 38A#1C04000000
(1469304681.682313) can0 0AA#1A6F1A6F1A6F1A6F
(1469304681.684638) can0 263#00000000AF001B
(1469304681.685687) can0 1C4#000029000000FFF5
(1469304681.686713) can0 1D0#0000010000AC0086
(1469304681.687714) can0 2C1#08FFD412A1BE0017
(1469304681.688258) can0 020#0000072B
(1469304681.688354) can0 0BA#06008044
(1469304681.688641) can0 224#0000000000000048
(1469304681.694388) can0 0AA#1A6F1A6F1A6F1A6F
(1469304681.694533) can0 1AA#0000000000B1
(1469304681.694720) can0 1C8#00
(1469304681.700306) can0 020#0000072B
(1469304681.700510) can0 0B4#00000000020000BE
(1469304681.700762) can0 223#0008000000000035
(1469304681.702435) can0 260#0E00000000000078
(1469304681.706386) can0 0AA#1A6F1A6F1A6F1A6F
(1469304681.707206) can0 351#00000000
(1469304681.709259) can0 263#00000000AF001B
(1469304681.710309) can0 1C4#000029000000FFF5
(1469304681.711178) can0 1C8#00
(1469304681.712288) can0 262#000000016A
(1469304681.712381) can0 020#0000072B
(1469304681.712619) can0 0BA#06008044
(1469304681.712847) can0 224#0000000000000048
(1469304681.717289) can0 4C8#0900000000000000
(1469304681.718410) can0 0AA#1A6F1A6F1A6F1A6F
(1469304681.719561) can0 1D0#0000010000AC0086
(1469304681.720460) can0 442#4302000001000000
(1469304681.720635) can0 2C1#08FFD412A1BE0017
(1469304681.722387) can0 260#0E00000000000078
(1469304681.724354) can0 020#0000072B
(1469304681.724564) can0 0B4#00000000020000BE
(1469304681.724815) can0 223#0008000000000035
(1469304681.725058) can0 025#000000027000009F
(1469304681.727179) can0 394#4300
(1469304681.727600) can0 1C8#00
(1469304681.730461) can0 0AA#1A6F1A6F1A6F1A6F
(1469304681.733864) can0 263#00000000AF001B
(1469304681.734935) can0 1C4#000029000000FFF5
(1469304681.735938) can0 361#00A0000700000000
(1469304681.736378) can0 020#0000072B
(1469304681.736470) can0 0BA#06008044
(1469304681.736829) can0 224#0000000000000048
(1469304681.737001) can0 025#000000027000009F
(1469304681.742162) can0 4C6#0700030000000000
(1469304681.742393) can0 260#0E00000000000078
(1469304681.742584) can0 0AA#1A6F1A6F1A6F1A6F
(1469304681.742834) can0 1AA#0000000000B1
(1469304681.744011) can0 1C8#00
(1469304681.747001) can0 423#00
(1469304681.748410) can0 020#0000072B
(1469304681.748646) can0 0B4#00000000020000BE
(1469304681.748867) can0 223#0008000000000035
(1469304681.749169) can0 025#000000027000009F
(1469304681.752364) can0 1D0#0000010000AC0086
(1469304681.752506) can0 262#000000016A
(1469304681.753334) can0 2C1#08FFD412A1BE0017
(1469304681.754551) can0 0AA#1A6F1A6F1A6F1A6F
(1469304681.758488) can0 263#00000000AF001B
(1469304681.759524) can0 1C4#000029000000FFF5
(1469304681.760464) can0 020#0000072B
(1469304681.760538) can0 0BA#06008044
(1469304681.760669) can0 1C8#00
(1469304681.760944) can0 025#000000027000009F
(1469304681.761255) can0 224#0000000000000048
(1469304681.762386) can0 260#0E00000000000078
(1469304681.766566) can0 0AA#1A6F1A6F1A6F1A6F
(1469304681.767179) can0 351#00000000
(1469304681.772481) can0 020#0000072B
(1469304681.772721) can0 0B4#00000000020000BE
(1469304681.773027) can0 025#000000027000009F
(1469304681.773210) can0 223#0008000000000035
(1469304681.776829) can0 1C8#00
(1469304681.778586) can0 0AA#1A6F1A6F1A6F1A6F
(1469304681.782337) can0 260#0E00000000000078
(1469304681.783112) can0 263#00000000AF001B
(1469304681.784163) can0 1C4#00A529000000FF9A
(1469304681.784555) can0 020#0000072B
(1469304681.784631) can0 0BA#06008044
(1469304681.784948) can0 224#0000000000000048
(1469304681.785154) can0 025#000000027000009F
(1469304681.785456) can0 1D0#0000010000AC0086
(1469304681.786160) can0 2C1#08FFD412A1BE0017
(1469304681.790609) can0 0AA#1A6F1A6F1A6F1A6F
(1469304681.790757) can0 1AA#0000000000B1
(1469304681.791013) can0 3B7#583B000000000008
(1469304681.792242) can0 262#000000016A
(1469304681.793225) can0 1C8#00
(1469304681.796557) can0 020#0000072B
(1469304681.796758) can0 0B4#00000000020000BE
(1469304681.797012) can0 025#000000027000009F
(1469304681.797269) can0 223#0008000000000035
(1469304681.801587) can0 361#00A0000700000000
(1469304681.802332) can0 260#0E00000000000078
(1469304681.802646) can0 0AA#1A6F1A6F1A6F1A6F
(1469304681.807720) can0 263#00000000AF001B
(1469304681.808580) can0 020#0000072B
(1469304681.808672) can0 0BA#06008044
(1469304681.809005) can0 025#000000027000009F
(1469304681.809200) can0 1C4#00C729000000FFBC
(1469304681.809533) can0 224#0000000000000048
(1469304681.809560) can0 1C8#00
(1469304681.814686) can0 0AA#1A6F1A6F1A6F1A6F
(1469304681.817988) can0 1D0#0000010000AC0086
(1469304681.818984) can0 2C1#08059112A1EC0008
(1469304681.819459) can0 610#2080006480FFFD60
(1469304681.820089) can0 443#4002002F06000000
(1469304681.820605) can0 020#0000072B
(1469304681.820809) can0 0B4#00000000020000BE
(1469304681.821063) can0 025#000000027000009F
(1469304681.821313) can0 223#0008000000000035
(1469304681.822387) can0 260#0E00000000000078
(1469304681.826052) can0 1C8#00
(1469304681.826711) can0 0AA#1A6F1A6F1A6F1A6F
(1469304681.827131) can0 351#00000000
(1469304681.831437) can0 611#21800020000062D4
(1469304681.832208) can0 262#000000016A
(1469304681.832384) can0 263#00000000AF001B
(1469304681.832577) can0 020#0000072B
(1469304681.832744) can0 0BA#06008044
(1469304681.833030) can0 224#0000000000000048
(1469304681.833333) can0 025#000000027000009F
(1469304681.833511) can0 1C4#010929000000FFFF
(1469304681.838689) can0 0AA#1A6F1A6F1A6F1A6F
(1469304681.838880) can0 1AA#0000000000B1
(1469304681.842241) can0 260#0E00000000000078
(1469304681.842405) can0 1C8#00
(1469304681.843462) can0 618#2280000080000000
(1469304681.844682) can0 020#0000072B
(1469304681.844883) can0 0B4#00000000020000BE
(1469304681.845138) can0 025#000000027000009F
(1469304681.845394) can0 223#0008000000000035
(1469304681.849656) can0 354#07
(1469304681.850745) can0 0AA#1A6F1A6F1A6F1A6F
(1469304681.850974) can0 1D0#0000010000AC0086
(1469304681.851790) can0 2C1#08059112A1EC0008
(1469304681.855439) can0 619#238000000C003A80
(1469304681.856704) can0 020#0000072B
(1469304681.856799) can0 0BA#06008044
(1469304681.857127) can0 224#0000000000000048
(1469304681.857299) can0 263#00000000AF001B
(1469304681.857860) can0 025#000000027000009F
(1469304681.858034) can0 1C4#010F29000000FF05
(1469304681.858851) can0 1C8#00
(1469304681.862337) can0 260#0E00000000000078
(1469304681.862714) can0 0AA#1A6F1A6F1A6F1A6F
(1469304681.867234) can0 361#00A0000100000000
(1469304681.867410) can0 61A#2480000000014F60
(1469304681.868732) can0 020#0000072B
(1469304681.868963) can0 0B4#00000000020000BE
(1469304681.869266) can0 223#0008000000000035
(1469304681.869909) can0 025#000000027000009F
(1469304681.872168) can0 262#000000016A
(1469304681.874834) can0 0AA#1A6F1A6F1A6F1A6F
(1469304681.875305) can0 1C8#00
(1469304681.879485) can0 61C#2680000000000000
(1469304681.880804) can0 020#0000072B
(1469304681.880899) can0 0BA#06008044
(1469304681.881179) can0 224#0000000000000048
(1469304681.881585) can0 263#00000000AF001B
(1469304681.881786) can0 025#000000027000009F
(1469304681.882306) can0 260#0E00000000000078
(1469304681.882623) can0 1C4#010229000000FFF8
(1469304681.883663) can0 1D0#0000010000AC0086
(1469304681.884610) can0 2C1#08059112A1EC0008
(1469304681.886909) can0 0AA#1A6F1A6F1A6F1A6F
(1469304681.887057) can0 1AA#0000000000B1
(1469304681.887226) can0 351#00000000
(1469304681.891705) can0 1C8#00
(1469304681.892855) can0 020#0000072B
(1469304681.893099) can0 0B4#00000000020000BE
(1469304681.893359) can0 223#0008000000000035
(1469304681.893889) can0 025#000000027000009F
(1469304681.899112) can0 0AA#1A6F1A6F1A6F1A6F
(1469304681.902287) can0 260#0E00000000000078
(1469304681.905058) can0 020#0000072B
(1469304681.905124) can0 0BA#06008044
(1469304681.905410) can0 224#0000000000000048
(1469304681.905641) can0 383#0100010000000000
(1469304681.905947) can0 025#000000027000009F
(1469304681.906138) can0 381#0000000080000000
(1469304681.906365) can0 263#00000000AF001B
(1469304681.906613) can0 4DC#1D00000200000000
(1469304681.907145) can0 1C4#00F429000000FFE9
(1469304681.908010) can0 1C8#00
(1469304681.911069) can0 0AA#1A6F1A6F1A6F1A6F
(1469304681.911305) can0 3F9#5198260100000014
(1469304681.912120) can0 262#000000016A
(1469304681.916409) can0 1D0#0000010000AC0086
(1469304681.917080) can0 020#0000072B
(1469304681.917324) can0 0B4#00000000020000BE
(1469304681.917595) can0 223#0008000000000035
(1469304681.917784) can0 2C1#08059112A1EC0008
(1469304681.918038) can0 025#000000027000009F
(1469304681.921189) can0 440#4202001101000000
(1469304681.922309) can0 260#0E00000000000078
(1469304681.923187) can0 0AA#1A6F1A6F1A6F1A6F
(1469304681.924555) can0 1C8#00
(1469304681.929135) can0 020#0000072B
(1469304681.929229) can0 0BA#06008044
(1469304681.929559) can0 224#0000000000000048
(1469304681.929733) can0 025#000000027000009F
(1469304681.930120) can0 387#0000000000003F3F
(1469304681.930810) can0 263#00000000AF001B
(1469304681.931811) can0 1C4#010329000000FFF9
(1469304681.931884) can0 3D0#00
(1469304681.932890) can0 361#00A0000100000000
(1469304681.935234) can0 0AA#1A6F1A6F1A6F1A6F
(1469304681.935382) can0 1AA#0000000000B1
(1469304681.940927) can0 1C8#00
(1469304681.941120) can0 020#0000072B
(1469304681.941397) can0 0B4#00000000020000BE
(1469304681.941657) can0 223#0008000000000035
(1469304681.941899) can0 025#000000027000009F
(1469304681.942258) can0 260#0E00000000000078
(1469304681.947083) can0 351#00000000
(1469304681.947254) can0 0AA#1A6F1A6F1A6F1A6F
(1469304681.949291) can0 1D0#0000010000AC0086
(1469304681.950261) can0 2C1#08059112A1EC0008
(1469304681.952123) can0 262#000000016A
(1469304681.952760) can0 4DD#1E00000000000000
(1469304681.953204) can0 020#0000072B
(1469304681.953297) can0 0BA#06008044
(1469304681.953635) can0 224#0000000000000048
(1469304681.953835) can0 025#000000027000009F
(1469304681.955438) can0 263#00000000AF001B
(1469304681.956238) can0 620#1000FFFFA0500080
(1469304681.956435) can0 1C4#010C29000000FF02
(1469304681.957348) can0 1C8#00
(1469304681.959335) can0 0AA#1A6F1A6F1A6F1A6F
(1469304681.961094) can0 389#0000000000000000
(1469304681.962209) can0 260#0E00000000000078
(1469304681.965235) can0 020#0000072B
(1469304681.965562) can0 0B4#00000000020000BE
(1469304681.965710) can0 025#000000027000009F
(1469304681.965962) can0 223#0008000000000035
(1469304681.971341) can0 0AA#1A6F1A6F1A6F1A6F
(1469304681.972763) can0 024#5E0009FA4A08805F
(1469304681.973774) can0 1C8#00
(1469304681.977288) can0 020#0000072B
(1469304681.977373) can0 0BA#06008044
(1469304681.977676) can0 224#0000000000000048
(1469304681.977924) can0 025#000000027000009F
(1469304681.980058) can0 263#00000000AF001B
(1469304681.981085) can0 1C4#011F29000000FF15
(1469304681.982134) can0 1D0#0000010000AC0086
(1469304681.982335) can0 260#0E00000000000078
(1469304681.983088) can0 2C1#08059212A2EC000A
(1469304681.983402) can0 0AA#1A6F1A6F1A6F1A6F
(1469304681.983541) can0 1AA#0000000000B1
(1469304681.984720) can0 024#5E0009F84A08805D
(1469304681.989332) can0 020#0000072B
(1469304681.989535) can0 0B4#00000000020000BE
(1469304681.989791) can0 025#000000027000009F
(1469304681.990038) can0 223#0008000000000035
(1469304681.990284) can0 38E#2020000000000000
(1469304681.990342) can0 1C8#00
(1469304681.992136) can0 262#000000016A
(1469304681.995412) can0 0AA#1A6F1A6F1A6F1A6F
(1469304681.996763) can0 024#5E0009FB4A088060
(1469304681.998560) can0 361#00A0000000000000
(1469304682.001321) can0 020#0000072B
(1469304682.001501) can0 0BA#060000C4
(1469304682.001754) can0 025#000000027000009F
(1469304682.001978) can0 224#0000000000000048
(1469304682.002303) can0 260#0E00000000000078
(1469304682.004663) can0 263#00000000AF001B
(1469304682.005706) can0 1C4#015329000000FF49
(1469304682.006529) can0 1C8#00
(1469304682.006991) can0 351#00000000
(1469304682.007481) can0 0AA#1A6F1A6F1A6F1A6F
(1469304682.008693) can0 024#5E0009FF4A088064
(1469304682.013355) can0 020#0000072B
(1469304682.013685) can0 0B4#00000000020000BE
(1469304682.013884) can0 025#000000027000009F
(1469304682.014139) can0 223#0008000000000035
(1469304682.014935) can0 1D0#0030010000AC00B6
(1469304682.015918) can0 2C1#08059212A2EC000A
(1469304682.019561) can0 0AA#1A6F1A6F1A6F1A6F
(1469304682.020440) can0 442#4302000001000000
(1469304682.020765) can0 024#5E000A004A088066
(1469304682.021113) can0 38F#0300000000000000
(1469304682.022216) can0 260#0E00000000000078
(1469304682.022988) can0 1C8#00
(1469304682.025465) can0 020#0000072B
(1469304682.025531) can0 0BA#060000C4
(1469304682.025882) can0 224#0000000000000048
(1469304682.026086) can0 025#000000027000009F
(1469304682.026984) can0 394#4300
(1469304682.029291) can0 263#00000000AF001B
(1469304682.030314) can0 1C4#015329000000FF49
(1469304682.031609) can0 0AA#1A6F1A6F1A6F1A6F
(1469304682.031689) can0 1AA#0000000000B1
(1469304682.032130) can0 262#000000016A
(1469304682.032763) can0 024#5E0009FF4A0A8066
(1469304682.037481) can0 020#0000072B
(1469304682.037777) can0 0B4#00000000020000BE
(1469304682.037968) can0 025#000000027000009F
(1469304682.038193) can0 223#0008000000000035
(1469304682.039402) can0 1C8#00
(1469304682.042216) can0 260#0E00000000000078
(1469304682.043613) can0 0AA#1A6F1A6F1A6F1A6F
(1469304682.044760) can0 024#5E0009FB4A0A8062
(1469304682.047768) can0 1D0#00E6010000AC006C
(1469304682.048660) can0 2C1#08059412A4EC000E
(1469304682.049556) can0 020#0000072B
(1469304682.049621) can0 0BA#060000C4
(1469304682.049972) can0 224#0000000000000048
(1469304682.050684) can0 025#000000027000009F
(1469304682.051083) can0 3A5#0000000000007EFC
(1469304682.053886) can0 263#00000000AF001B
(1469304682.054915) can0 1C4#016B29000000FF61
(1469304682.054939) can0 354#07
(1469304682.055612) can0 0AA#1A6F1A6F1A6F1A6F
(1469304682.055739) can0 1C8#00
(1469304682.056788) can0 024#5E0009F84A0A805F
(1469304682.058486) can0 382#3838380000000000
(1469304682.061558) can0 020#0000072B
(1469304682.061803) can0 0B4#00000000020000BE
(1469304682.062070) can0 223#0008000000000035
(1469304682.062287) can0 260#0E00000000000078
(1469304682.062734) can0 025#000000027000009F
(1469304682.064166) can0 361#00A0000000000000
(1469304682.067032) can0 351#00000000
(1469304682.067663) can0 0AA#1A6F1A6F1A6F1A6F
(1469304682.068785) can0 024#5E0009F64A0A805D
(1469304682.072116) can0 262#000000016A
(1469304682.072139) can0 1C8#00
(1469304682.073605) can0 020#0000072B
(1469304682.073683) can0 0BA#060000C4
(1469304682.074048) can0 224#0000000000000048
(1469304682.074660) can0 025#000000027000009F
(1469304682.078564) can0 263#00000000AF001B
(1469304682.079603) can0 1C4#01B529000000FFAB
(1469304682.079698) can0 0AA#1A6F1A6F1A6F1A6F
(1469304682.079914) can0 1AA#0000000000B1
(1469304682.080559) can0 1D0#0165010000AC00EC
(1469304682.080758) can0 024#5E0009FA4A08805F
(1469304682.081067) can0 413#0101010900000000
(1469304682.081560) can0 2C1#08059112A5EC000C
(1469304682.082209) can0 260#0E00000000000078
(1469304682.085655) can0 020#0000072B
(1469304682.085893) can0 0B4#00000000020000BE
(1469304682.086200) can0 223#0008000000000035
(1469304682.086711) can0 025#000000027000009F
(1469304682.088657) can0 1C8#00
(1469304682.091741) can0 0AA#1A6F1A6F1A6F1A6F
(1469304682.091934) can0 3B7#583B000000000008
(1469304682.092786) can0 024#5E000A004A068064
(1469304682.096219) can0 6E1#A180000000100000
(1469304682.097680) can0 020#0000072B
(1469304682.097773) can0 0BA#060000C4
(1469304682.098101) can0 224#0000000000000048
(1469304682.098636) can0 025#000000027000009F
(1469304682.102165) can0 260#0E00000000000078
(1469304682.103133) can0 263#00000000AF001B
(1469304682.103763) can0 0AA#1A6F1A6F1A6F1A6F
(1469304682.104135) can0 1C4#034229080000FF42
(1469304682.104814) can0 024#5E000A054A08806B
(1469304682.105000) can0 1C8#80
(1469304682.109682) can0 020#0000072B
(1469304682.109911) can0 0B4#00000000020000BE
(1469304682.110217) can0 223#0008000000000035
(1469304682.110716) can0 025#000000027000009F
(1469304682.111086) can0 434#3F00000000000000
(1469304682.112117) can0 262#000000016A
(1469304682.113411) can0 1D0#02B2010000AC003A
(1469304682.114322) can0 2C1#0805940A6AEC00CC
(1469304682.115815) can0 0AA#1A6F1A6F1A6F1A6F
(1469304682.116811) can0 024#5E000A034A0C806D
(1469304682.121087) can0 443#4002002F06000000
(1469304682.121454) can0 1C8#80
(1469304682.121690) can0 020#0000072B
(1469304682.121848) can0 0BA#060000C4
(1469304682.122172) can0 224#0000000000000048
(1469304682.122370) can0 260#0E00000000000078
(1469304682.122613) can0 025#000000027000009F
(1469304682.126980) can0 351#00000000
(1469304682.127745) can0 263#00000000AF001B
(1469304682.127913) can0 0AA#1A6F1A6F1A6F1A6F
(1469304682.128136) can0 1AA#0000000000B1
(1469304682.128786) can0 1C4#03A029080000FFA0
(1469304682.128959) can0 024#5E0009FD4A0C8066
(1469304682.129774) can0 361#0054000000000000
(1469304682.133788) can0 020#0000072B
(1469304682.133977) can0 0B4#00000000020000BE
(1469304682.134232) can0 223#0008000000000035
(1469304682.134644) can0 025#00010002900000C0
(1469304682.137878) can0 1C8#80
(1469304682.140023) can0 0AA#1A6F1A6F1A6F1A6F
(1469304682.140812) can0 024#5E0009F34A088058
(1469304682.141123) can0 435#0F0505FFE00FE003
(1469304682.142134) can0 260#0E00000000000078
(1469304682.145980) can0 020#0000072B
(1469304682.146059) can0 0BA#060000C4
(1469304682.146401) can0 224#0000000000000048
(1469304682.146585) can0 025#000000027000009F
(1469304682.146670) can0 3D3#013A
(1469304682.147025) can0 1D0#050A010000AC0095
(1469304682.147225) can0 6E2#A28000FEFEFEFEFE
(1469304682.147514) can0 2C1#0805680A65EB009A
(1469304682.152032) can0 262#000000016A
(1469304682.152209) can0 0AA#1A6F1A6F1A6F1A6F
(1469304682.152436) can0 263#00000000AF001B
(1469304682.152811) can0 024#5E0009EF4A088054
(1469304682.153009) can0 3B1#00000E0A00080000
(1469304682.153238) can0 4AC#0802200500000004
(1469304682.153514) can0 1C4#045429080000FF55
(1469304682.154276) can0 1C8#80
(1469304682.158032) can0 020#0000072B
(1469304682.158233) can0 0B4#00000000020000BE
(1469304682.158514) can0 223#0008000000000035
(1469304682.158745) can0 025#000000027000009F
(1469304682.162160) can0 260#0E00000000000078
(1469304682.164112) can0 0AA#1A6F1A6F1A6F1A6F
(1469304682.164811) can0 024#5E0009F44A0A805B
(1469304682.167715) can0 3F9#5198260100000014
(1469304682.170030) can0 020#0000072B
(1469304682.170124) can0 0BA#060000C4
(1469304682.170409) can0 224#0000000000000048
(1469304682.170723) can0 025#000000027000009F
(1469304682.170741) can0 1C8#80
(1469304682.171099) can0 436#0000000000000000
(1469304682.176143) can0 0AA#1A6F1A6F1A6F1A6F
(1469304682.176287) can0 1AA#0000000000B1
(1469304682.176812) can0 024#5E000201420C805B
(1469304682.176983) can0 263#00000000AF001B
(1469304682.178012) can0 1C4#04BC29080000FFBD
(1469304682.179036) can0 1D0#072C010000AC00B9
(1469304682.180014) can0 2C1#0804AB0A57E500C8
(1469304682.182163) can0 260#0E00000000000078
(1469304682.182238) can0 020#0000072B
(1469304682.182561) can0 0B4#00000000020000BE
(1469304682.182761) can0 025#000000027000009F
(1469304682.183013) can0 223#000000000000002D
(1469304682.186956) can0 351#00000000
(1469304682.187024) can0 1C8#80
(1469304682.188082) can0 3D0#00
(1469304682.188277) can0 0AA#1A6F1A6F1A6F1A6F
(1469304682.188812) can0 024#5E0002084208805E
(1469304682.192042) can0 262#000000016A
(1469304682.194134) can0 020#0000072B
(1469304682.194231) can0 0BA#060000C4
(1469304682.194559) can0 224#0000000000000048
(1469304682.194758) can0 025#000000027000009F
(1469304682.195423) can0 361#0051000000000000
(1469304682.200239) can0 0AA#1A6F1A6F1A6F1A6F
(1469304682.200775) can0 024#5E0002084206805C
(1469304682.201111) can0 437#FCFFFFFFFFFFFFFF
(1469304682.201584) can0 263#00000000AF001B
(1469304682.202109) can0 260#0E00000000000078
(1469304682.202610) can0 1C4#04CE29080000FFCF
(1469304682.203551) can0 1C8#80
(1469304682.205464) can0 3B0#00B4000000000000
(1469304682.206181) can0 020#0000072B
(1469304682.206383) can0 0B4#00000000020000BE
(1469304682.206641) can0 025#000000027000009F
(1469304682.206889) can0 223#000000000000002D
(1469304682.211863) can0 1D0#08E8010000AC0076
(1469304682.212284) can0 0AA#1A6F1A6F1A6F1A6F
(1469304682.212809) can0 024#5E00020142088057
(1469304682.213010) can0 2C1#08048809EFE4003B
(1469304682.218204) can0 020#0000072B
(1469304682.218297) can0 0BA#060000C4
(1469304682.218634) can0 025#000000027000009F
(1469304682.218834) can0 224#0000000000000048
(1469304682.219907) can0 1C8#80
(1469304682.221143) can0 440#4202001101000000
(1469304682.222088) can0 260#0E00000000000078
(1469304682.224294) can0 0AA#1A6F1A6F1A6F1A6F
(1469304682.224507) can0 1AA#0000000000B1
(1469304682.224763) can0 024#5E0001F4420A804B
(1469304682.226209) can0 263#00000000AF001B
(1469304682.227216) can0 1C4#054D29080000FF4F
(1469304682.230234) can0 020#0000072B
(1469304682.230429) can0 0B4#00000000020000BE
(1469304682.230689) can0 025#00010002900000C0
(1469304682.230945) can0 223#000000000000002D
(1469304682.231131) can0 384#F0F000000000
(1469304682.232059) can0 262#000000016A
(1469304682.236316) can0 0AA#1A6F1A6F1A6F1A6F
(1469304682.236334) can0 1C8#80
(1469304682.236811) can0 024#5E0001EC4206803F
(1469304682.242038) can0 260#0E00000000000078
(1469304682.242204) can0 020#0000072B
(1469304682.242368) can0 0BA#060000C4
(1469304682.242636) can0 025#000000027000009F
(1469304682.242946) can0 224#0000000000000048
(1469304682.244688) can0 1D0#0A2D010000AC00BD
(1469304682.245635) can0 2C1#08037C0A06DB003D
(1469304682.246930) can0 351#00000000
(1469304682.248363) can0 0AA#1A6F1A6F1A6F1A6F
(1469304682.248812) can0 024#5E0001EF42058041
(1469304682.250810) can0 263#00000000AF001B
(1469304682.251838) can0 1C4#05D929080000FFDB
(1469304682.252726) can0 1C8#80
(1469304682.254282) can0 020#0000072B
(1469304682.254525) can0 0B4#00000000020000BE
(1469304682.254748) can0 025#000000027000009F
(1469304682.255052) can0 223#000000000000002D
(1469304682.256198) can0 620#1000FFFFA0500080
(1469304682.259433) can0 380#0000000000008000
(1469304682.259904) can0 354#01
(1469304682.260378) can0 0AA#1A6F1A6F1A6F1A6F
(1469304682.260812) can0 024#5E0001FB420A8052
(1469304682.261087) can0 361#004D000000000000
(1469304682.261255) can0 386#000000070003
(1469304682.262016) can0 260#0E00000000000078
(1469304682.266257) can0 020#0000072B
(1469304682.266420) can0 0BA#060000C4
(1469304682.266684) can0 224#0000000000000048
(1469304682.267484) can0 025#000000027000009F
(1469304682.269151) can0 1C8#80
(1469304682.271989) can0 262#000000016A
(1469304682.272411) can0 0AA#1A6F1A6F1A6F1A6F
(1469304682.272583) can0 1AA#0000000000B1
(1469304682.272813) can0 024#5E000206420D8061
(1469304682.274435) can0 3A0#008F00000000006C
(1469304682.275435) can0 263#00000000AF001B
(1469304682.276462) can0 1C4#067829080000FF7B
(1469304682.277489) can0 1D0#0BAD010000AC003E
(1469304682.278356) can0 020#0000072B
(1469304682.278600) can0 0B4#00000000020000BE
(1469304682.278859) can0 223#000000000000002D
(1469304682.279058) can0 2C1#0802CA09ABD60029
(1469304682.279513) can0 025#000000027000009F
(1469304682.282071) can0 260#0E00000000000078
(1469304682.284493) can0 0AA#1A6F1A6F1A6F1A6F
(1469304682.284841) can0 024#5600020C420D805F
(1469304682.285556) can0 1C8#80
(1469304682.290439) can0 020#0000072B
(1469304682.290523) can0 0BA#060000C4
(1469304682.290884) can0 224#0000000000000048
(1469304682.290969) can0 3E6#0000000000
(1469304682.291478) can0 025#000000027000009F
(1469304682.296564) can0 0AA#1A6F1A6F1A6F1A6F
(1469304682.296809) can0 024#56000206420A8056
(1469304682.300036) can0 263#00000000AF001B
(1469304682.301059) can0 1C4#072129080000FF25
(1469304682.302064) can0 260#0E00000000000078
(1469304682.302078) can0 1C8#80
(1469304682.302553) can0 020#0000072B
(1469304682.302726) can0 0B4#00000000020000BE
(1469304682.302957) can0 223#000000000000002D
(1469304682.303517) can0 025#000000027000009F
(1469304682.306851) can0 351#00000000
(1469304682.308612) can0 0AA#1A6F1A6F1A6F1A6F
(1469304682.308802) can0 024#560001FB42058045
(1469304682.310336) can0 1D0#0D63010000AC00F6
(1469304682.311285) can0 2C1#0801FB0939CF00E0
(1469304682.311984) can0 262#000000016A
(1469304682.314554) can0 020#0000072B
(1469304682.314622) can0 0BA#060000C4
(1469304682.314918) can0 224#0000000000000048
(1469304682.315446) can0 025#000000027000009F
(1469304682.318375) can0 1C8#80
(1469304682.320446) can0 442#4302000001000000
(1469304682.320638) can0 610#2000006480FFFD60
(1469304682.320865) can0 024#560001EF42038037
(1469304682.321086) can0 0AA#1A6F1A6F1A6F1A6F
(1469304682.321308) can0 1AA#0000000000B1
(1469304682.321539) can0 3E7#00000000000000
(1469304682.321966) can0 260#0E00000000000078
(1469304682.324620) can0 263#00000000AF001B
(1469304682.325637) can0 1C4#078329080000FF87
(1469304682.326556) can0 020#0000072B
(1469304682.326889) can0 0B4#00000000020000BE
(1469304682.327083) can0 223#000000000000002D
(1469304682.327305) can0 361#0046000000000000
(1469304682.327585) can0 025#000000027000009F
(1469304682.327665) can0 394#4300
(1469304682.332664) can0 0AA#1A6F1A6F1A6F1A6F
(1469304682.332892) can0 024#560001EC42058036
(1469304682.334830) can0 3BB#0000AF00
(1469304682.334892) can0 1C8#80
(1469304682.338633) can0 020#0000072B
(1469304682.338716) can0 0BA#060000C4
(1469304682.339071) can0 224#0000000000000008
(1469304682.339421) can0 025#000000027000009F
(1469304682.342040) can0 260#0E00000000000078
(1469304682.343134) can0 1D0#0EF8090000AC0094
(1469304682.344092) can0 2C1#08017508ABCB00C7
(1469304682.344734) can0 0AA#1A6F1A6F1A6F1A6F
(1469304682.344948) can0 024#560001F4420C8045
(1469304682.349262) can0 263#00000000AF001B
(1469304682.350286) can0 1C4#07EB29080000FFEF
(1469304682.350654) can0 020#0000072B
(1469304682.350912) can0 0B4#00000000020000BE
(1469304682.351146) can0 223#000000000000002D
(1469304682.351170) can0 1C8#80
(1469304682.351603) can0 025#000000027000009F
(1469304682.351740) can0 3E8#0000000000000000
(1469304682.351924) can0 262#000000016A
(1469304682.356733) can0 0AA#1A6F1A6F1A6F1A6F
(1469304682.356955) can0 024#56000201420F8056
(1469304682.361998) can0 260#0E00000000000078
(1469304682.362690) can0 020#0000072B
(1469304682.362826) can0 0BA#060000C4
(1469304682.363140) can0 224#0000000000000008
(1469304682.363394) can0 025#000000027000009F
(1469304682.363848) can0 024#52000206420F8057
(1469304682.366841) can0 351#00000000
(1469304682.367144) can0 620#1080FFFFB0500080
(1469304682.367617) can0 1C8#80
(1469304682.368820) can0 0AA#1A6F1A6F1A6F1A6F
(1469304682.368971) can0 1AA#0000000000B1
(1469304682.373893) can0 263#00000000AF001B
(1469304682.374921) can0 1C4#084A29080000FF4F
(1469304682.375055) can0 020#0000072B
(1469304682.375294) can0 0B4#00000000020000BE
(1469304682.375597) can0 025#000000027000009F
(1469304682.375851) can0 223#000000000000002D
(1469304682.376037) can0 024#5200020C420C805A
(1469304682.376318) can0 1D0#100C090000AC00AA
(1469304682.376945) can0 2C1#08012A07F5C900C3
(1469304682.379420) can0 3A0#008F00000000006C
(1469304682.381023) can0 0AA#1A6F1A6F1A6F1A6F
(1469304682.381277) can0 3E9#0000000000000000
(1469304682.381994) can0 260#0E00000000000078
(1469304682.384018) can0 1C8#80
(1469304682.386964) can0 020#0000072B
(1469304682.387101) can0 0BA#060000C4
(1469304682.387346) can0 025#000000027000009F
(1469304682.387650) can0 224#0000000000000008
(1469304682.387839) can0 024#520002054206804D
(1469304682.391885) can0 262#000000016A
(1469304682.392374) can0 361#003F000000000000
(1469304682.393046) can0 0AA#1A6F1A6F1A6F1A6F
(1469304682.393258) can0 3B7#583B000000000008
(1469304682.398545) can0 263#00000000AF001B
(1469304682.398962) can0 020#0000072B
(1469304682.399238) can0 0B4#00000000020000BE
(1469304682.399512) can0 025#000000027000009F
(1469304682.399681) can0 1C4#089929080000FF9E
(1469304682.399891) can0 024#520001FA42058040
(1469304682.400140) can0 223#000000000000002D
(1469304682.400354) can0 1C8#80
(1469304682.401993) can0 260#0E00000000000078
(1469304682.405059) can0 0AA#1A6F1A6F1A6F1A6F
(1469304682.408782) can0 1D0#10F6090000AC0094
(1469304682.409756) can0 2C1#0800FF0719C700B9
(1469304682.410410) can0 610#2080006480FFFD60
(1469304682.411002) can0 020#0000072B
(1469304682.411126) can0 0BA#060000C4
(1469304682.411435) can0 025#000000027000009F
(1469304682.411643) can0 224#0000000000000008
(1469304682.411905) can0 024#520001EF42068036
(1469304682.416848) can0 1C8#80
(1469304682.417055) can0 0AA#1A6F1A6F1A6F1A6F
(1469304682.417316) can0 1AA#0000000000B1
(1469304682.421057) can0 443#4002002F06000000
(1469304682.421933) can0 260#0E00000000000078
(1469304682.422407) can0 618#2280000080000000
(1469304682.423024) can0 020#0000072B
(1469304682.423235) can0 0B4#00000000020000BE
(1469304682.423529) can0 025#00010002900000C0
(1469304682.423718) can0 223#000000000000002D
(1469304682.424012) can0 024#520001EF420A803A
(1469304682.424157) can0 263#00000000AF001B
(1469304682.424681) can0 1C4#08D429080000FFD9
(1469304682.424890) can0 3F9#5198260100000014
(1469304682.426813) can0 351#00000000
(1469304682.429130) can0 0AA#1A6F1A6F1A6F1A6F
(1469304682.431833) can0 262#000000016A
(1469304682.433275) can0 1C8#80
(1469304682.434405) can0 619#238000000C003A80
(1469304682.435050) can0 020#0000072B
(1469304682.435178) can0 0BA#060000C4
(1469304682.435529) can0 025#000000027000009F
(1469304682.435681) can0 224#0000000000000008
(1469304682.435913) can0 024#520001F8420D8046
(1469304682.441181) can0 0AA#1A6F1A6F1A6F1A6F
(1469304682.441605) can0 1D0#11B3090000AC0052
(1469304682.441923) can0 260#0E00000000000078
(1469304682.442581) can0 2C1#0800DE0647C600C4
(1469304682.444521) can0 3D0#00
(1469304682.446404) can0 61A#2480000000014F60
(1469304682.447076) can0 020#0000072B
(1469304682.447315) can0 0B4#00000000020000BE
(1469304682.447585) can0 025#000000027000009F
(1469304682.447793) can0 223#000000000000002D
(1469304682.448084) can0 024#52000203420C8051
(1469304682.448265) can0 263#00000000AF001B
(1469304682.448737) can0 1C4#091829080000FF1E
(1469304682.449628) can0 1C8#80
(1469304682.451096) can0 621#1100000000000000
(1469304682.453182) can0 0AA#1A6F1A6F1A6F1A6F
(1469304682.458030) can0 361#0036000000000000
(1469304682.458404) can0 61C#2680000000000000
(1469304682.459076) can0 020#0000072B
(1469304682.459203) can0 0BA#060000C4
(1469304682.459530) can0 025#000000027000009F
(1469304682.459712) can0 224#0000000000000008
(1469304682.460001) can0 024#5200020A42068052
(1469304682.460215) can0 622#1200481000000000
(1469304682.461911) can0 260#0E00000000000078
(1469304682.465178) can0 0AA#1A6F1A6F1A6F1A6F
(1469304682.465335) can0 1AA#0000000000B1
(1469304682.465476) can0 354#01
(1469304682.466084) can0 1C8#80
(1469304682.469128) can0 623#1900000000000000
(1469304682.471122) can0 020#0000072B
(1469304682.471331) can0 0B4#00000000020000BE
(1469304682.471633) can0 223#000000000000002D
(1469304682.471811) can0 024#520002084205804F
(1469304682.471982) can0 262#000000016A
(1469304682.472375) can0 263#00000000AF001B
(1469304682.472563) can0 025#00010002900000C0
(1469304682.473339) can0 1C4#093D29080000FF43
(1469304682.474384) can0 1D0#1261090000AC0001
(1469304682.475401) can0 3A0#008F00000000006C
(1469304682.475592) can0 2C1#0800C50588C600EB
(1469304682.477160) can0 0AA#1A6F1A6F1A6F1A6F
(1469304682.478101) can0 624#1A00414949400000
(1469304682.481878) can0 260#0E00000000000078
(1469304682.482518) can0 1C8#80
(1469304682.483165) can0 020#0000072B
(1469304682.483284) can0 0BA#060000C4
(1469304682.483604) can0 224#0000000000000008
(1469304682.483813) can0 024#520001FF42068046
(1469304682.484290) can0 025#000000027000009F
(1469304682.486729) can0 351#00000000
(1469304682.487126) can0 626#1C00300000000000
(1469304682.489279) can0 0AA#1A6F1A6F1A6F1A6F
(1469304682.495222) can0 020#0000072B
(1469304682.495535) can0 0B4#00000000020000BE
(1469304682.495701) can0 223#000000000000002D
(1469304682.495954) can0 024#520001F4420A803F
(1469304682.496246) can0 638#1300180100000000
(1469304682.496506) can0 025#000000027000009F
(1469304682.496985) can0 263#00000000AF001B
(1469304682.498005) can0 1C4#095C29080000FF62
(1469304682.498935) can0 1C8#80
(1469304682.501348) can0 0AA#1A6F1A6F1A6F1A6F
(1469304682.501946) can0 260#0E00000000000078
(1469304682.505122) can0 63C#98005A5245172060
(1469304682.507345) can0 1D0#12CD090000AC006D
(1469304682.507493) can0 020#0000072B
(1469304682.507661) can0 0BA#060000C4
(1469304682.507885) can0 024#520001F1420C803E
(1469304682.508184) can0 224#0000000000000008
(1469304682.508433) can0 025#000000027000009F
(1469304682.508680) can0 2C1#0800B704DCC5002F
(1469304682.511872) can0 262#000000016A
(1469304682.513394) can0 0AA#1A6F1A6F1A6F1A6F
(1469304682.513544) can0 1AA#0000000000B1
(1469304682.514115) can0 63D#9900444558534B00
(1469304682.515383) can0 1C8#80
(1469304682.519340) can0 020#0000072B
(1469304682.519621) can0 0B4#00000000020000BE
(1469304682.519867) can0 223#000000000000002D
(1469304682.520067) can0 024#520001F6420A8041
(1469304682.520341) can0 025#000000027000009F
(1469304682.521145) can0 440#4202001101000000
(1469304682.521694) can0 263#00000000B0001C
(1469304682.521946) can0 260#0E00000000000078
(1469304682.522718) can0 1C4#096829080000FF6E
(1469304682.523142) can0 680#D800010000000000
(1469304682.523745) can0 361#002E000000000000
(1469304682.525470) can0 0AA#1A6F1A6F1A6F1A6F
(1469304682.525719) can0 4C3#0300000100000000
(1469304682.531388) can0 020#0000072B
(1469304682.531480) can0 0BA#060000C4
(1469304682.531834) can0 224#0000000000000008
(1469304682.532013) can0 024#520002004208804A
(1469304682.532247) can0 025#000000027000009F
(1469304682.532341) can0 1C8#80
(1469304682.537470) can0 0AA#1A6F1A6F1A6F1A6F
(1469304682.540167) can0 1D0#130C090000AC00AD
(1469304682.541143) can0 2C1#0800B30443C50092
(1469304682.541892) can0 260#0E00000000000078
(1469304682.543438) can0 020#0000072B
(1469304682.543704) can0 0B4#00000000020000BE
(1469304682.543896) can0 024#520002054206804D
(1469304682.544180) can0 223#000000000000002D
(1469304682.544432) can0 025#000000027000009F
(1469304682.546293) can0 263#00000000AF001B
(1469304682.546761) can0 351#00000000
(1469304682.547315) can0 1C4#096329080000FF69
(1469304682.548211) can0 1C8#80
(1469304682.549545) can0 0AA#1A6F1A6F1A6F1A6F
(1469304682.551817) can0 262#000000016A
(1469304682.555464) can0 020#0000072B
(1469304682.555611) can0 0BA#060000C4
(1469304682.555845) can0 224#0000000000000008
(1469304682.556136) can0 024#520002064205804D
(1469304682.556385) can0 025#000000027000009F
(1469304682.561545) can0 0AA#1A6F1A6F1A6F1A6F
(1469304682.561739) can0 1AA#0000000000B1
(1469304682.562016) can0 260#0E00000000000078
(1469304682.564612) can0 1C8#80
(1469304682.567462) can0 020#0000072B
(1469304682.567745) can0 0B4#00000000020000BE
(1469304682.567944) can0 024#520002004208804A
(1469304682.568216) can0 223#000000000000002D
(1469304682.568465) can0 025#000000027000009F
(1469304682.569387) can0 640#A8000057012F0000
(1469304682.570918) can0 263#00000000AF001B
(1469304682.571949) can0 1C4#097429080000FF7A
(1469304682.572967) can0 1D0#130C090000AC00AD
(1469304682.573568) can0 0AA#1A6F1A6F1A6F1A6F
(1469304682.573941) can0 2C1#0800AE03B7C50000
(1469304682.579539) can0 020#0000072B
(1469304682.579627) can0 0BA#060000C4
(1469304682.579931) can0 024#520001FA420C8047
(1469304682.580205) can0 224#0000000000000008
(1469304682.580412) can0 025#000000027000009F
(1469304682.580708) can0 3A0#008F00000000006C
(1469304682.581032) can0 1C8#80
(1469304682.581893) can0 260#0E00000000000078
(1469304682.585622) can0 0AA#1A6F1A6F1A6F1A6F
(1469304682.585803) can0 420#00000000FB0182AA
(1469304682.589419) can0 361#0028000000000000
(1469304682.591589) can0 020#0000072B
(1469304682.591796) can0 0B4#00000000020000BE
(1469304682.592066) can0 024#520001F4420C8041
(1469304682.592315) can0 025#000000027000009F
(1469304682.592569) can0 223#000000000000002D
(1469304682.592704) can0 262#000000016A
(1469304682.595578) can0 263#00000000AF001B
(1469304682.596591) can0 1C4#096A29080000FF70
(1469304682.597563) can0 38A#0804000000
(1469304682.597745) can0 0AA#1A6F1A6F1A6F1A6F
(1469304682.597841) can0 1C8#80
(1469304682.598620) can0 4C1#0100000500000000
(1469304682.601847) can0 260#0E00000000000078
(1469304682.603590) can0 020#0000072B
(1469304682.603724) can0 0BA#060000C4
(1469304682.603995) can0 224#0000000000000008
(1469304682.604283) can0 025#000000027000009F
(1469304682.604869) can0 024#520001F6420A8041
(1469304682.605843) can0 1D0#12FA090000AC009A
(1469304682.606714) can0 351#00000000
(1469304682.606966) can0 2C1#0800B3033FC5008D
(1469304682.609696) can0 0AA#1A6F1A6F1A6F1A6F
(1469304682.609846) can0 1AA#0000000000B1
(1469304682.613887) can0 1C8#80
(1469304682.615615) can0 020#0000072B
(1469304682.615886) can0 0B4#00000000020000BE
(1469304682.616079) can0 223#000000000000002D
(1469304682.616339) can0 025#000000027000009F
(1469304682.616846) can0 024#520001FD42088046
(1469304682.620169) can0 263#00000000AF001B
(1469304682.620419) can0 442#4302000001000000
(1469304682.621219) can0 1C4#096129080000FF67
(1469304682.621745) can0 0AA#1A6F1A6F1A6F1A6F
(1469304682.621994) can0 260#0E00000000000078
(1469304682.626609) can0 394#4300
(1469304682.627695) can0 020#0000072B
(1469304682.627840) can0 0BA#060000C4
(1469304682.628118) can0 025#000000027000009F
(1469304682.628403) can0 224#0000000000000008
(1469304682.628872) can0 024#520002034206804B
(1469304682.630308) can0 1C8#80
(1469304682.631791) can0 262#000000016A
(1469304682.633970) can0 0AA#1A6F1A6F1A6F1A6F
(1469304682.638647) can0 1D0#12E4090000AC0084
(1469304682.639626) can0 2C1#0800B102CDC50018
(1469304682.639916) can0 020#0000072B
(1469304682.640127) can0 0B4#00000000020000BE
(1469304682.640371) can0 025#000000027000009F
(1469304682.640669) can0 223#000000000000002D
(1469304682.640868) can0 024#520002034206804B
(1469304682.641418) can0 610#2080006480FFFD60
(1469304682.641893) can0 260#0E00000000000078
(1469304682.644794) can0 263#00000000AF001B
(1469304682.645818) can0 1C4#096729080000FF6D
(1469304682.646018) can0 0AA#1A6F1A6F1A6F1A6F
(1469304682.646712) can0 1C8#80
(1469304682.651939) can0 020#0000072B
(1469304682.652069) can0 0BA#060000C4
(1469304682.652310) can0 224#0000000000000008
(1469304682.652618) can0 025#000000027000009F
(1469304682.652866) can0 024#520002004208804A
(1469304682.653117) can0 4AC#1802400500000304
(1469304682.653416) can0 611#21800020000062D4
(1469304682.655072) can0 361#0023000000000000
(1469304682.658019) can0 0AA#1A6F1A6F1A6F1A6F
(1469304682.658217) can0 1AA#0000000000B1
(1469304682.661795) can0 260#0E00000000000078
(1469304682.663133) can0 1C8#80
(1469304682.663940) can0 020#0000072B
(1469304682.664212) can0 0B4#00000000020000BE
(1469304682.664460) can0 223#000000000000002D
(1469304682.664869) can0 024#520001FB420A8046
(1469304682.665167) can0 025#000000027000009F
(1469304682.666639) can0 351#00000000
(1469304682.667091) can0 620#1000FFFFB0500080
(1469304682.669420) can0 263#00000000B0001C
(1469304682.670042) can0 0AA#1A6F1A6F1A6F1A6F
(1469304682.670442) can0 1C4#095B29080000FF61
(1469304682.670632) can0 354#01
(1469304682.671355) can0 3D3#04C5
(1469304682.671584) can0 1D0#12CF090000AC006F
(1469304682.671741) can0 262#000000016A
(1469304682.672396) can0 2C1#0800B8026EC500C0
(1469304682.675950) can0 020#0000072B
(1469304682.676099) can0 0BA#060000C4
(1469304682.676410) can0 224#0000000000000008
(1469304682.676668) can0 3A0#008F00000000006C
(1469304682.676908) can0 024#520001F8420C8045
(1469304682.677103) can0 025#000000027000009F
(1469304682.679500) can0 1C8#80
(1469304682.680662) can0 3F9#5198260100000014
(1469304682.681836) can0 260#0E00000000000078
(1469304682.682149) can0 0AA#1A6F1A6F1A6F1A6F
(1469304682.688041) can0 020#0000072B
(1469304682.688235) can0 0B4#00000000020000BE
(1469304682.688515) can0 223#000000000000002D
(1469304682.688911) can0 024#520001F8420A8043
(1469304682.689108) can0 025#000000027000009F
(1469304682.694039) can0 263#00000000AF001B
(1469304682.694210) can0 0AA#1A6F1A6F1A6F1A6F
(1469304682.694521) can0 3B7#583B000000000008
(1469304682.695059) can0 1C4#095229080000FF58
(1469304682.695954) can0 1C8#80
(1469304682.696735) can0 4C8#0900000000000000
(1469304682.700084) can0 020#0000072B
(1469304682.700179) can0 0BA#060000C4
(1469304682.700562) can0 224#0000000000000008
(1469304682.700886) can0 024#520001FB42088044
(1469304682.701084) can0 025#000000027000009F
(1469304682.701152) can0 3D0#00
(1469304682.701825) can0 260#0E00000000000078
(1469304682.702309) can0 4C6#0700030000000000
(1469304682.704344) can0 1D0#12B4090000AC0054
(1469304682.705314) can0 2C1#0800B90216C50069
(1469304682.706185) can0 0AA#1A6F1A6F1A6F1A6F
(1469304682.706332) can0 1AA#0000000000B1
(1469304682.711684) can0 262#000000016A
(1469304682.712132) can0 020#0000072B
(1469304682.712326) can0 0B4#00000000020000BE
(1469304682.712393) can0 1C8#80
(1469304682.712738) can0 223#000000000000002D
(1469304682.712935) can0 024#520001FF42068046
(1469304682.713188) can0 025#000000027000009F
(1469304682.718238) can0 0AA#1A6F1A6F1A6F1A6F
(1469304682.718710) can0 263#00000000AF001B
(1469304682.719744) can0 1C4#093E29080000FF44
(1469304682.720089) can0 443#4002002F06000000
(1469304682.720787) can0 361#001F000000000000
(1469304682.721813) can0 260#0E00000000000078
(1469304682.722836) can0 3BC#0020000000000000
(1469304682.724159) can0 020#0000072B
(1469304682.724254) can0 0BA#060000C4
(1469304682.724587) can0 224#0000000000000008
(1469304682.724817) can0 399#00000000000000
(1469304682.725119) can0 024#5200020042068048
(1469304682.725311) can0 025#000000027000009F
(1469304682.726653) can0 351#00000000
(1469304682.728855) can0 1C8#80
(1469304682.730235) can0 0AA#1A6F1A6F1A6F1A6F
(1469304682.736188) can0 020#0000072B
(1469304682.736383) can0 0B4#00000000020000BE
(1469304682.736640) can0 223#000000000000002D
(1469304682.736886) can0 024#520002004208804A
(1469304682.737146) can0 025#000000027000009F
(1469304682.737369) can0 1D0#1298090000AC0038
(1469304682.738164) can0 2C1#0800CA01CAC6002E
(1469304682.741865) can0 260#0E00000000000078
(1469304682.742273) can0 0AA#1A6F1A6F1A6F1A6F
(1469304682.743334) can0 263#00000000AF001B
(1469304682.744367) can0 1C4#092529080000FF2B
(1469304682.745250) can0 1C8#80
(1469304682.748230) can0 020#0000072B
(1469304682.748325) can0 0BA#060000C4
(1469304682.748662) can0 224#0000000000000008
(1469304682.748860) can0 024#520001FB420A8046
(1469304682.749112) can0 025#000000027000009F
(1469304682.751739) can0 262#000000016A
(1469304682.754336) can0 0AA#1A6F1A6F1A6F1A6F
(1469304682.754507) can0 1AA#0000000000B1
(1469304682.755105) can0 423#00
(1469304682.760258) can0 020#0000072B
(1469304682.760573) can0 0B4#00000000020000BE
(1469304682.760715) can0 223#000000000000002D
(1469304682.760965) can0 024#520001FA420A8045
(1469304682.761208) can0 025#000000027000009F
(1469304682.761816) can0 260#0E00000000000078
(1469304682.761834) can0 1C8#80
(1469304682.766391) can0 0AA#1A6F1A6F1A6F1A6F
(1469304682.767963) can0 263#00000000AF001B
(1469304682.769011) can0 1C4#090D29080000FF13
(1469304682.770059) can0 1D0#125C090000AC00FC
(1469304682.771035) can0 2C1#0800D6018AC600FA
(1469304682.772334) can0 020#0000072B
(1469304682.772505) can0 0BA#060000C4
(1469304682.772724) can0 224#0000000000000008
(1469304682.772953) can0 024#520001FA42088043
(1469304682.773208) can0 025#000000027000009F
(1469304682.778079) can0 1C8#80
(1469304682.778400) can0 3A0#008F00000000006C
(1469304682.778560) can0 0AA#1A6F1A6F1A6F1A6F
(1469304682.781738) can0 260#0E00000000000078
(1469304682.784388) can0 020#0000072B
(1469304682.784586) can0 0B4#00000000020000BE
(1469304682.784837) can0 223#000000000000002D
(1469304682.785093) can0 024#520001FA42088043
(1469304682.785396) can0 025#000000027000009F
(1469304682.786521) can0 361#001C000000000000
(1469304682.786657) can0 351#00000000
(1469304682.790449) can0 0AA#1A6F1A6F1A6F1A6F
(1469304682.791659) can0 262#000000016A
(1469304682.792660) can0 263#00000000AF001B
(1469304682.793687) can0 1C4#08FE29080000FF03
(1469304682.794575) can0 1C8#80
(1469304682.796432) can0 020#0000072B
(1469304682.796514) can0 0BA#060000C4
(1469304682.796860) can0 224#0000000000000008
(1469304682.797033) can0 024#520001FD42068044
(1469304682.797289) can0 025#000000027000009F
(1469304682.801789) can0 260#0E00000000000078
(1469304682.802500) can0 0AA#1A6F1A6F1A6F1A6F
(1469304682.802660) can0 1AA#0000000000B1
(1469304682.802984) can0 1D0#1220090000AC00C0
(1469304682.803902) can0 2C1#0800DE014EC600C6
(1469304682.808421) can0 020#0000072B
(1469304682.808712) can0 0B4#00000000020000BE
(1469304682.808910) can0 024#520001FD42068044
(1469304682.809164) can0 025#000000027000009F
(1469304682.809412) can0 223#000000000000002D
(1469304682.811054) can0 1C8#80
(1469304682.814561) can0 0AA#1A6F1A6F1A6F1A6F
(1469304682.817368) can0 263#00000000B0001C
(1469304682.818360) can0 1C4#08F029080000FFF5
(1469304682.820561) can0 020#0000072B
(1469304682.820591) can0 0BA#060000C4
(1469304682.820946) can0 224#0000000000000008
(1469304682.821121) can0 024#520001FD42088046
(1469304682.821375) can0 025#000000027000009F
(1469304682.821612) can0 440#4202001101000000
(1469304682.821931) can0 260#0E00000000001D95
(1469304682.826589) can0 0AA#1A6F1A6F1A6F1A6F
(1469304682.827481) can0 1C8#80
(1469304682.831641) can0 262#000000016A
(1469304682.832555) can0 020#0000072B
(1469304682.832729) can0 0B4#00000000020000BE
(1469304682.832956) can0 024#520001FD420A8048
(1469304682.833202) can0 025#000000027000009F
(1469304682.833522) can0 223#000000000000002D
(1469304682.835816) can0 1D0#11EF090000AC008E
(1469304682.836785) can0 2C1#0800E5011EC7009E
(1469304682.838615) can0 0AA#1A6F1A6F1A6F1A6F
(1469304682.841738) can0 260#0E00000000000078
(1469304682.841909) can0 263#00000000AF001B
(1469304682.842985) can0 1C4#08DD29080000FFE2
(1469304682.843904) can0 1C8#80
(1469304682.844579) can0 020#0000072B
(1469304682.844658) can0 0BA#060000C4
(1469304682.845003) can0 024#520001FB420A8046
(1469304682.845177) can0 025#000000027000009F
(1469304682.845431) can0 224#0000000000000008
(1469304682.846560) can0 351#00000000
(1469304682.850643) can0 0AA#1A6F1A6F1A6F1A6F
(1469304682.850843) can0 1AA#0000000000B1
(1469304682.852240) can0 361#001A000000000000
(1469304682.856632) can0 020#0000072B
(1469304682.856829) can0 0B4#00000000020000BE
(1469304682.857082) can0 024#520001FB42088044
(1469304682.857330) can0 025#000000027000009F
(1469304682.857602) can0 223#000000000000002D
(1469304682.860278) can0 1C8#80
(1469304682.861757) can0 260#0E00000000000078
(1469304682.862658) can0 0AA#1A6F1A6F1A6F1A6F
(1469304682.862981) can0 3B1#00000D0A00080000
(1469304682.866583) can0 263#00000000B0001C
(1469304682.867080) can0 620#1080FFFFB0500040
(1469304682.867532) can0 1C4#08C729080000FFCC
(1469304682.868579) can0 1D0#11C1090000AC0060
(1469304682.868740) can0 020#0000072B
(1469304682.868908) can0 0BA#060000C4
(1469304682.869159) can0 224#0000000000000008
(1469304682.869547) can0 2C1#0800F200F2C7007E
(1469304682.869818) can0 024#520001FB42088044
(1469304682.870066) can0 025#000000027000009F
(1469304682.871640) can0 262#000000016A
(1469304682.874936) can0 0AA#1A6F1A6F1A6F1A6F
(1469304682.875653) can0 354#01
(1469304682.876699) can0 1C8#80
(1469304682.877381) can0 3A0#008F00000000006C
(1469304682.880888) can0 020#0000072B
(1469304682.881117) can0 0B4#00000000020000BE
(1469304682.881421) can0 223#000000000000002D
(1469304682.881651) can0 260#08FFFF0000000070
(1469304682.881953) can0 024#520001FB42088044
(1469304682.882135) can0 025#000000027000009F
(1469304682.886986) can0 0AA#1A6F1A6F1A6F1A6F
(1469304682.891186) can0 263#00000000B0001C
(1469304682.892214) can0 1C4#08B029080000FFB5
(1469304682.892930) can0 020#0000072B
(1469304682.893025) can0 0BA#060000C4
(1469304682.893146) can0 1C8#80
(1469304682.893419) can0 224#0000000000000008
(1469304682.893884) can0 025#000000027000009F
(1469304682.894117) can0 024#520001FD42088046
(1469304682.899013) can0 0AA#1A6F1A6F1A6F1A6F
(1469304682.899182) can0 1AA#0000000000B1
(1469304682.901485) can0 1D0#118F090000AC002E
(1469304682.901682) can0 260#08FFFF0000FFE554
(1469304682.902385) can0 2C1#0800FB00C9C7005E
(1469304682.904959) can0 020#0000072B
(1469304682.905159) can0 0B4#00000000020000BE
(1469304682.905382) can0 223#000000000000002D
(1469304682.905936) can0 024#520001FF42088048
(1469304682.906077) can0 025#000000027000009F
(1469304682.906587) can0 351#00000000
(1469304682.907310) can0 4DC#1D00000200000000
(1469304682.909465) can0 1C8#80
(1469304682.910995) can0 622#1280581000000000
(1469304682.911205) can0 0AA#1A6F1A6F1A6F1A6F
(1469304682.911481) can0 262#000000016A
(1469304682.915730) can0 263#00000000B0001C
(1469304682.916834) can0 1C4#089429080000FF99
(1469304682.916908) can0 020#0000072B
(1469304682.917161) can0 0BA#060000C4
(1469304682.917371) can0 224#0000000000000008
(1469304682.917886) can0 361#0019000000000000
(1469304682.918059) can0 024#520001FF420A804A
(1469304682.918313) can0 025#000000027000009F
(1469304682.920411) can0 442#4302000001000000
(1469304682.921764) can0 260#08FFFF0000FFE554
(1469304682.923112) can0 0AA#1A6F1A6F1A6F1A6F
(1469304682.925952) can0 1C8#80
(1469304682.926444) can0 394#4300
(1469304682.929057) can0 020#0000072B
(1469304682.929257) can0 0B4#00000000020000BE
(1469304682.929515) can0 223#000000000000002D
(1469304682.929933) can0 024#520001FD420A8048
(1469304682.930133) can0 025#000000027000009F
(1469304682.931086) can0 387#0000000000003F3F
(1469304682.934313) can0 1D0#114B090000AC00EA
(1469304682.935160) can0 0AA#1A6F1A6F1A6F1A6F
(1469304682.935359) can0 2C1#08010B00A8C8004F
(1469304682.937363) can0 3F9#5198260100000014
(1469304682.940437) can0 263#00000000B0001C
(1469304682.941106) can0 020#0000072B
(1469304682.941202) can0 0BA#060000C4
(1469304682.941560) can0 1C4#087929080000FF7E
(1469304682.941734) can0 224#0000000000000008
(1469304682.941967) can0 024#520001FB420A8046
(1469304682.942210) can0 025#000000027000009F
(1469304682.942563) can0 260#08FFFF0000FFF160
(1469304682.942583) can0 1C8#80
(1469304682.947213) can0 0AA#1A6F1A6F1A6F1A6F
(1469304682.947357) can0 1AA#0000000000B1
(1469304682.949367) can0 380#C0A0400000004300
(1469304682.949643) can0 3B0#00B4005600180000
(1469304682.951612) can0 262#000000016A
(1469304682.953130) can0 020#0000072B
(1469304682.953334) can0 0B4#00000000020000BE
(1469304682.953591) can0 223#000000000000002D
(1469304682.953936) can0 025#000000027000009F
(1469304682.954135) can0 024#520001FA420A8045
(1469304682.957730) can0 3D0#00
(1469304682.958777) can0 1C8#80
(1469304682.959228) can0 0AA#1A6F1A6F1A6F1A6F
(1469304682.961090) can0 389#0000000000000000
(1469304682.961637) can0 260#08FFFE0000FFF15F
(1469304682.962937) can0 4DD#1E00000000000000
(1469304682.965064) can0 263#00000000B0001C
(1469304682.965168) can0 020#0000072B
(1469304682.965327) can0 0BA#060000C4
(1469304682.965615) can0 224#0000000000000008
(1469304682.965922) can0 025#000000027000009F
(1469304682.966111) can0 024#520001FB420A8046
(1469304682.966338) can0 1C4#086F29080000FF74
(1469304682.966497) can0 351#00000000
(1469304682.967085) can0 1D0#1113090000AC00B2
(1469304682.968063) can0 2C1#080112008CC8003A
(1469304682.971217) can0 0AA#1A6F1A6F1A6F1A6F
(1469304682.975202) can0 1C8#80
(1469304682.977186) can0 020#0000072B
(1469304682.977422) can0 0B4#00000000020000BE
(1469304682.977648) can0 223#000000000000002D
(1469304682.977921) can0 025#000000027000009F
(1469304682.978133) can0 024#520001FB42088044
(1469304682.979362) can0 3A0#008F00000700006C
(1469304682.981738) can0 260#08FFFE0000FFF15F
(1469304682.983288) can0 0AA#1A6F1A6F1A6F1A6F
(1469304682.983520) can0 361#0018000000000000
(1469304682.985360) can0 382#2338380000000000
(1469304682.985685) can0 381#0001019080000000
(1469304682.989208) can0 020#0000072B
(1469304682.989282) can0 0BA#060000C4
(1469304682.989636) can0 224#0000000000000008
(1469304682.989835) can0 025#000000027000009F
(1469304682.990063) can0 024#520001FD42088046
(1469304682.990283) can0 263#00000000B0001C
(1469304682.990835) can0 1C4#085A29080000FF5F
(1469304682.991045) can0 38E#2020000000000000
(1469304682.991618) can0 262#000000016A
(1469304682.991648) can0 1C8#80
(1469304682.995285) can0 0AA#1A6F1A6F1A6F1A6F
(1469304682.995431) can0 1AA#0000000000B1
(1469304682.995748) can0 3B7#583B000000000008
(1469304682.999965) can0 1D0#10DA090000AC0078
(1469304683.000937) can0 2C1#08019C0072CC00AE
(1469304683.001180) can0 020#0000072B
(1469304683.001492) can0 0B4#00000000020000BE
(1469304683.001661) can0 223#000000000000002D
(1469304683.001913) can0 025#000000027000009F
(1469304683.002163) can0 024#520001FF42088048
(1469304683.002406) can0 260#08FFFF0000FFF160
(1469304683.007286) can0 0AA#1A6F1A6F1A6F1A6F
(1469304683.008006) can0 1C8#80
(1469304683.013258) can0 020#0000072B
(1469304683.013332) can0 0BA#060000C4
(1469304683.013685) can0 224#0000000000000008
(1469304683.013860) can0 025#000000027000009F
(1469304683.014113) can0 024#520001FD42088046
(1469304683.014333) can0 263#00000000B0001C
(1469304683.015310) can0 1C4#083E29080000FF43
(1469304683.019360) can0 0AA#1A6F1A6F1A6F1A6F
(1469304683.021067) can0 443#4002002F06000000
(1469304683.021262) can0 38F#0300000000000000
(1469304683.021574) can0 260#08FFFF0000FFF160
(1469304683.024434) can0 1C8#80
(1469304683.025304) can0 020#0000072B
(1469304683.025550) can0 0B4#00000000020000BE
(1469304683.025812) can0 223#000000000000002D
(1469304683.026009) can0 024#520001FD420A8048
(1469304683.026263) can0 025#000000027000009F
(1469304683.026422) can0 351#00000000
(1469304683.031374) can0 0AA#1A6F1A6F1A6F1A6F
(1469304683.031532) can0 262#000000016A
(1469304683.032762) can0 1D0#10A4090000AC0042
(1469304683.033762) can0 2C1#0801A70063CD00AB
(1469304683.037332) can0 020#0000072B
(1469304683.037504) can0 0BA#060000C4
(1469304683.037733) can0 224#0000000000000008
(1469304683.037953) can0 024#520001FB420A8046
(1469304683.038205) can0 025#000000027000009F
(1469304683.038912) can0 263#00000000B0001C
(1469304683.039948) can0 1C4#083229080000FF37
(1469304683.040825) can0 1C8#80
(1469304683.041663) can0 260#08FFFF0000FFF160
(1469304683.043435) can0 0AA#1A6F1A6F1A6F1A6F
(1469304683.043622) can0 1AA#0000000000B1
(1469304683.049191) can0 361#0017000000000000
(1469304683.049335) can0 020#0000072B
(1469304683.049616) can0 0B4#00000000020000BE
(1469304683.049843) can0 025#000000027000009F
(1469304683.050143) can0 024#520001FB420A8046
(1469304683.050333) can0 223#000000000000002D
(1469304683.050592) can0 3A5#0000000000007EFC
(1469304683.055489) can0 0AA#1A6F1A6F1A6F1A6F
(1469304683.057256) can0 1C8#80
(1469304683.061072) can0 6E1#A180000000100000
(1469304683.061386) can0 020#0000072B
(1469304683.061472) can0 0BA#060000C4
(1469304683.061800) can0 224#0000000000000008
(1469304683.062029) can0 024#520001FB42088044
(1469304683.062275) can0 025#000000027000009F
(1469304683.062581) can0 260#08FFFF0000FFF160
(1469304683.063564) can0 263#00000000B0001C
(1469304683.064568) can0 1C4#082B29080000FF30
(1469304683.065618) can0 1D0#106D090000AC000B
(1469304683.066531) can0 2C1#0801AF005CCD00AC
(1469304683.067488) can0 0AA#1A6F1A6F1A6F1A6F
(1469304683.071565) can0 262#000000016A
(1469304683.073430) can0 020#0000072B
(1469304683.073646) can0 0B4#00000000020000BE
(1469304683.073935) can0 025#000000027000009F
(1469304683.074147) can0 024#520001FD42088046
(1469304683.074196) can0 1C8#80
(1469304683.074560) can0 223#000000000000002D
(1469304683.078360) can0 3A0#008F00000700006C
(1469304683.079559) can0 0AA#1A6F1A6F1A6F1A6F
(1469304683.080839) can0 354#01
(1469304683.081113) can0 413#0101010900000000
(1469304683.081548) can0 260#0800000000FFF162
(1469304683.085470) can0 020#0000072B
(1469304683.085613) can0 0BA#060000C4
(1469304683.085847) can0 224#0000000000000008
(1469304683.086113) can0 024#520001FF42088048
(1469304683.086388) can0 025#000000027000009F
(1469304683.086485) can0 351#00000000
(1469304683.088188) can0 263#00000000B0001C
(1469304683.089199) can0 1C4#082229080000FF27
(1469304683.090089) can0 1C8#80
(1469304683.091601) can0 0AA#1A6F1A6F1A6F1A6F
(1469304683.091753) can0 1AA#0000000000B1
(1469304683.097542) can0 020#0000072B
(1469304683.097736) can0 0B4#00000000020000BE
(1469304683.098020) can0 024#520001FF42088048
(1469304683.098274) can0 025#000000027000009F
(1469304683.098545) can0 223#000000000000002D
(1469304683.098699) can0 1D0#1052090000AC00F0
(1469304683.099472) can0 2C1#0801B70058CD00B0
(1469304683.101672) can0 260#08FFFF0000FFF160
(1469304683.103602) can0 0AA#1A6F1A6F1A6F1A6F
(1469304683.106561) can0 1C8#80
(1469304683.109542) can0 020#0000072B
(1469304683.109678) can0 0BA#060000C4
(1469304683.109912) can0 224#0000000000000008
(1469304683.110213) can0 024#520001FD420A8048
(1469304683.110468) can0 434#3F00000000000000
(1469304683.110773) can0 025#000000027000009F
(1469304683.111541) can0 262#000000016A
(1469304683.112845) can0 263#00000000B0001C
(1469304683.113869) can0 1C4#080B29080000FF10
(1469304683.114921) can0 361#0017000000000000
(1469304683.115622) can0 0AA#1A6F1A6F1A6F1A6F
(1469304683.121023) can0 440#4202001101000000
(1469304683.121548) can0 260#08FFFE0000FFF15F
(1469304683.121595) can0 020#0000072B
(1469304683.121940) can0 0B4#00000000020000BE
(1469304683.122130) can0 223#000000000000002D
(1469304683.122720) can0 025#000000027000009F
(1469304683.122952) can0 024#520001FB420A8046
(1469304683.123021) can0 1C8#80
(1469304683.127650) can0 0AA#1A6F1A6F1A6F1A6F
(1469304683.131349) can0 1D0#1038090000AC00D6
(1469304683.132325) can0 2C1#0801C40058CE00BE
(1469304683.133592) can0 020#0000072B
(1469304683.133684) can0 0BA#060000C4
(1469304683.133985) can0 024#520001FB42088044
(1469304683.134261) can0 224#0000000000000008
(1469304683.134745) can0 025#000000027000009F
(1469304683.137497) can0 263#00000000B0001C
(1469304683.138547) can0 1C4#080129080000FF06
(1469304683.139386) can0 1C8#80
(1469304683.139849) can0 0AA#1A6F1A6F1A6F1A6F
(1469304683.140031) can0 1AA#0000000000B1
(1469304683.140993) can0 435#0F0505FFE00FE003
(1469304683.141545) can0 260#08FFFF0000FFF160
(1469304683.142394) can0 610#2000006480FFFD60
(1469304683.145790) can0 020#0000072B
(1469304683.146064) can0 0B4#00000000020000BE
(1469304683.146318) can0 223#000000000000002D
(1469304683.146376) can0 351#00000000
(1469304683.146746) can0 025#000000027000009F
(1469304683.146932) can0 024#520001FB42068042
(1469304683.147175) can0 6E2#A28000FEFEFEFEFE
(1469304683.151501) can0 262#000000016A
(1469304683.151895) can0 0AA#1A6F1A6F1A6F1A6F
(1469304683.152946) can0 4AC#2800600100000324
(1469304683.155816) can0 1C8#80
(1469304683.157766) can0 020#0000072B
(1469304683.157942) can0 0BA#060000C4
(1469304683.158222) can0 224#0000000000000008
(1469304683.158670) can0 025#000000027000009F
(1469304683.158946) can0 024#520001FD42068044
(1469304683.161598) can0 260#08FFFF0000FFF160
(1469304683.162168) can0 263#00000000B0001C
(1469304683.162946) can0 3B1#00000D0900080000
(1469304683.163161) can0 1C4#07EF29080000FFF3
(1469304683.163923) can0 0AA#1A6F1A6F1A6F1A6F
(1469304683.164221) can0 1D0#100F090000AC00AD
(1469304683.165195) can0 2C1#0801D6005CCE00D4
(1469304683.167021) can0 620#1000FFFFB0500040
(1469304683.169844) can0 020#0000072B
(1469304683.170099) can0 0B4#00000000020000BE
(1469304683.170351) can0 223#000000000000002D
(1469304683.170721) can0 025#000000027000009F
(1469304683.170975) can0 024#520001FF42088048
(1469304683.171178) can0 436#0000000000000000
(1469304683.172249) can0 1C8#80
(1469304683.175890) can0 0AA#1A6F1A6F1A6F1A6F
(1469304683.180349) can0 3A0#008F00000700006C
(1469304683.180647) can0 361#0017000000000000
(1469304683.181471) can0 260#08FFFF0000FFF160
(1469304683.181865) can0 020#0000072B
(1469304683.182003) can0 0BA#060000C4
(1469304683.182270) can0 224#0000000000000008
(1469304683.182648) can0 025#000000027000009F
(1469304683.182905) can0 024#520001FF420A804A
(1469304683.186758) can0 263#00000000B0001C
(1469304683.187800) can0 1C4#07E429080000FFE8
(1469304683.187992) can0 0AA#1A6F1A6F1A6F1A6F
(1469304683.188187) can0 1AA#0000000000B1
(1469304683.188689) can0 1C8#80
(1469304683.191507) can0 262#000000016A
(1469304683.193923) can0 3F9#5198260100000014
(1469304683.193985) can0 020#0000072B
(1469304683.194340) can0 0B4#00000000020000BE
(1469304683.194545) can0 223#000000000000002D
(1469304683.194820) can0 025#000000027000009F
(1469304683.195074) can0 024#520001FD420A8048
(1469304683.196914) can0 3D3#0238
(1469304683.197186) can0 1D0#0FEB090000AC0088
(1469304683.198022) can0 2C1#0801E10063CF00E7
(1469304683.200028) can0 0AA#1A6F1A6F1A6F1A6F
(1469304683.201512) can0 260#08FFFF0000FFF160
(1469304683.202011) can0 437#FCFFFFFFFFFFFFFF
(1469304683.205088) can0 1C8#80
(1469304683.205990) can0 020#0000072B
(1469304683.206126) can0 0BA#060000C4
(1469304683.206364) can0 224#0000000000000008
(1469304683.206644) can0 025#000000027000009F
(1469304683.206779) can0 351#00000000
(1469304683.207020) can0 024#520001FB420A8046
(1469304683.211355) can0 263#00000000B0001C
(1469304683.212100) can0 0AA#1A6F1A6F1A6F1A6F
(1469304683.212420) can0 1C4#07CF29080000FFD3
(1469304683.214207) can0 3D0#00
(1469304683.218018) can0 020#0000072B
(1469304683.218295) can0 0B4#00000000020000BE
(1469304683.218557) can0 223#000000000000002D
(1469304683.218732) can0 025#000000027000009F
(1469304683.219018) can0 024#520001FB42088044
(1469304683.220399) can0 442#4302000001000000
(1469304683.221575) can0 260#08FFFF0000FFF160
(1469304683.221613) can0 1C8#80
(1469304683.224120) can0 0AA#1A6F1A6F1A6F1A6F
(1469304683.226264) can0 394#4300
(1469304683.229847) can0 1D0#0FC4090000AC0061
(1469304683.230031) can0 020#0000072B
(1469304683.230176) can0 0BA#060000C4
(1469304683.230547) can0 224#0000000000000008
(1469304683.230684) can0 025#000000027000009F
(1469304683.230926) can0 024#520001FB42088044
(1469304683.231166) can0 2C1#0801A30067CD00AB
(1469304683.231466) can0 262#000000016A
(1469304683.235997) can0 263#00000000B0001C
(1469304683.236191) can0 0AA#1A6F1A6F1A6F1A6F
(1469304683.236443) can0 1AA#0000000000B1
(1469304683.237021) can0 1C4#07C629080000FFCA
(1469304683.237911) can0 1C8#80
(1469304683.241498) can0 260#08FFFE0000FFF15F
(1469304683.242069) can0 020#0000072B
(1469304683.242323) can0 0B4#00000000020000BE
(1469304683.242576) can0 223#000000000000002D
(1469304683.242830) can0 025#000000027000009F
(1469304683.243085) can0 024#520001FD42088046
(1469304683.246273) can0 361#0017000000000000
(1469304683.248182) can0 0AA#1A6F1A6F1A6F1A6F
(1469304683.254094) can0 020#0000072B
(1469304683.254201) can0 0BA#060000C4
(1469304683.254310) can0 1C8#80
(1469304683.254633) can0 025#000000027000009F
(1469304683.254897) can0 224#0000000000000008
(1469304683.255157) can0 024#520001FD420A8048
(1469304683.260222) can0 0AA#1A6F1A6F1A6F1A6F
(1469304683.260622) can0 263#00000000B0001C
(1469304683.261469) can0 260#08FFFF0000FFF160
(1469304683.261724) can0 1C4#07C029080000FFC4
(1469304683.262670) can0 1D0#0F91090000AC002E
(1469304683.263654) can0 2C1#080177006CCB0082
(1469304683.266170) can0 020#0000072B
(1469304683.266432) can0 0B4#00000000000000BC
(1469304683.266688) can0 025#000000027000009F
(1469304683.266906) can0 223#000000000000002D
(1469304683.267161) can0 024#520001FD420A8048
(1469304683.267257) can0 351#00000000
(1469304683.270723) can0 1C8#80
(1469304683.271443) can0 262#000000016A
(1469304683.272274) can0 0AA#1A6F1A6F1A6F1A6F
(1469304683.276323) can0 3A0#008F00000700006C
(1469304683.278215) can0 020#0000072B
(1469304683.278354) can0 0BA#05FD00C0
(1469304683.278603) can0 224#0000000000000008
(1469304683.278896) can0 025#000000027000009F
(1469304683.279095) can0 024#520001FF420A804A
(1469304683.281547) can0 260#08FFFF0000FFF160
(1469304683.284324) can0 0AA#1A6F1A6F1A6F1A6F
(1469304683.284511) can0 1AA#0000000000B1
(1469304683.285268) can0 263#00000000B0001C
(1469304683.286278) can0 1C4#07B629080000FFBA
(1469304683.286294) can0 354#01
(1469304683.287160) can0 1C8#80
(1469304683.290240) can0 020#0000072B
(1469304683.290544) can0 0B4#00000000000000BC
(1469304683.290698) can0 025#000000027000009F
(1469304683.290949) can0 024#020001FD420A80F8
(1469304683.291246) can0 223#000000000000002D
(1469304683.295615) can0 1D0#0F7F090000AC001C
(1469304683.296365) can0 0AA#1A6F1A6F1A6F1A6F
(1469304683.296560) can0 2C1#080180006CCC008C
(1469304683.296789) can0 3B7#583B000000000008
(1469304683.301487) can0 260#08FFFF0000FFF160
(1469304683.302281) can0 020#0000072B
(1469304683.302374) can0 0BA#05FD00C0
(1469304683.302711) can0 224#0000000000000008
(1469304683.302909) can0 025#000000027000009F
(1469304683.303138) can0 024#020001FB420880F4
(1469304683.303609) can0 1C8#80
(1469304683.308312) can0 0AA#1A6F1A6F1A6F1A6F
(1469304683.309960) can0 263#00000000B0001C
(1469304683.310988) can0 1C4#07AA29080000FFAE
(1469304683.311430) can0 262#000000016A
(1469304683.312045) can0 361#0017000000000000
(1469304683.314329) can0 020#0000072B
(1469304683.314538) can0 0B4#00000000000000BC
(1469304683.314788) can0 025#000000027000009F
(1469304683.315004) can0 024#020001FB420880F4
(1469304683.315251) can0 223#000000000000002D
(1469304683.320101) can0 1C8#80
(1469304683.320448) can0 0AA#1A6F1A6F1A6F1A6F
(1469304683.321060) can0 443#4002002F06000000
(1469304683.321438) can0 260#08FFFF0000FFF160
(1469304683.326256) can0 351#00000000
(1469304683.326354) can0 020#0000072B
(1469304683.326604) can0 0BA#05FB00BE
(1469304683.326803) can0 224#0000000000000008
(1469304683.327059) can0 024#020001FB420880F4
(1469304683.327598) can0 025#000000027000009F
(1469304683.328443) can0 1D0#0F5F090000AC00FC
(1469304683.329410) can0 2C1#08019C006BCC00A7
(1469304683.332487) can0 0AA#1A6F1A6F1A6F1A6F
(1469304683.332633) can0 1AA#0000000000B1
(1469304683.334609) can0 263#00000000B0001C
(1469304683.335612) can0 1C4#079129080000FF95
(1469304683.336552) can0 1C8#80
(1469304683.338433) can0 020#0000072B
(1469304683.338636) can0 0B4#00000000000000BC
(1469304683.338887) can0 223#000000000000002D
(1469304683.339108) can0 024#020001FD420880F6
(1469304683.339589) can0 025#000000027000009F
(1469304683.341559) can0 260#08FFFE0000FFF15F
(1469304683.344564) can0 0AA#1A6F1A6F1A6F1A6F
(1469304683.350453) can0 020#0000072B
(1469304683.350534) can0 0BA#05FD00C0
(1469304683.350883) can0 224#0000000000000008
(1469304683.351059) can0 024#020001FF420A80FA
(1469304683.351310) can0 262#000000016A
(1469304683.351592) can0 025#000000027000009F
(1469304683.352924) can0 1C8#80
(1469304683.356563) can0 0AA#1A6F1A6F1A6F1A6F
(1469304683.359236) can0 263#00000000B0001C
(1469304683.360268) can0 1C4#078D29080000FF91
(1469304683.361285) can0 1D0#0F42090000AC00DF
(1469304683.361513) can0 260#08FFFF0000FFF160
(1469304683.362259) can0 2C1#0801A6006BCD00B2
(1469304683.362539) can0 020#0000072B
(1469304683.362705) can0 0B4#00000000000000BC
(1469304683.362957) can0 223#000000000000002D
(1469304683.363205) can0 024#020001FF420A80FA
(1469304683.363561) can0 025#000000027000009F
(1469304683.368619) can0 0AA#1A6F1A6F1A6F1A6F
(1469304683.369354) can0 1C8#80
(1469304683.374560) can0 020#0000072B
(1469304683.374645) can0 0BA#05FF00C2
(1469304683.375003) can0 224#0000000000000008
(1469304683.375207) can0 024#020001FF420880F8
(1469304683.375558) can0 025#000000027000009F
(1469304683.377714) can0 361#0017000000000000
(1469304683.378334) can0 3A0#008F00000700006C
(1469304683.380860) can0 0AA#1A6F1A6F1A6F1A6F
(1469304683.381034) can0 1AA#0000000000B1
(1469304683.381407) can0 260#08FFFE0000FFEE5C
(1469304683.383862) can0 263#00000000B0001C
(1469304683.384886) can0 1C4#078329080000FF87
(1469304683.385774) can0 1C8#80
(1469304683.385909) can0 3BB#0000B000
(1469304683.386193) can0 351#00000000
(1469304683.386803) can0 020#0000072B
(1469304683.387097) can0 0B4#00000000000000BC
(1469304683.387286) can0 223#000000000000002D
(1469304683.387514) can0 025#000000027000009F
(1469304683.387988) can0 024#020001FB420880F4
(1469304683.391370) can0 262#000000016A
(1469304683.392938) can0 0AA#1A6F1A6F1A6F1A6F
(1469304683.394138) can0 1D0#0F28090000AC00C5
(1469304683.395085) can0 2C1#0801B3006DCD00C1
(1469304683.398857) can0 020#0000072B
(1469304683.398935) can0 0BA#05FB00BE
(1469304683.399298) can0 224#0000000000000008
(1469304683.399528) can0 025#000000027000009F
(1469304683.399971) can0 024#020001FB420880F4
(1469304683.401451) can0 260#08FFFE0000FFF15F
(1469304683.402163) can0 1C8#80
(1469304683.404954) can0 0AA#1A6F1A6F1A6F1A6F
(1469304683.408549) can0 263#00000000B0001C
(1469304683.409550) can0 1C4#077F29080000FF83
(1469304683.410870) can0 020#0000072B
(1469304683.411141) can0 0B4#00000000000000BC
(1469304683.411400) can0 223#000000000000002D
(1469304683.411587) can0 025#000000027000009F
(1469304683.412021) can0 024#020001FB420880F4
(1469304683.416974) can0 0AA#1A6F1A6F1A6F1A6F
(1469304683.418588) can0 1C8#80
(1469304683.420974) can0 440#4202001101000000
(1469304683.421375) can0 260#08FFFE0000FFEE5C
(1469304683.422917) can0 020#0000072B
(1469304683.423059) can0 0BA#05FB00BE
(1469304683.423296) can0 224#0000000000000008
(1469304683.423617) can0 025#000000027000009F
(1469304683.424002) can0 024#020001FD420880F6
(1469304683.426948) can0 1D0#0F0B090000AC00A8
(1469304683.427926) can0 2C1#0801BC006CCD00C9
(1469304683.428998) can0 0AA#1A6F1A6F1A6F1A6F
(1469304683.429181) can0 1AA#0000000000B1
(1469304683.431343) can0 262#000000016A
(1469304683.433102) can0 263#00000000B0001C
(1469304683.434123) can0 1C4#076D29080000FF71
(1469304683.434943) can0 020#0000072B
(1469304683.435220) can0 0B4#00000000000000BC
(1469304683.435413) can0 025#000000027000009F
(1469304683.435465) can0 1C8#80
(1469304683.435815) can0 223#000000000000002D
(1469304683.436075) can0 024#020001FD420880F6
(1469304683.441051) can0 0AA#1A6F1A6F1A6F1A6F
(1469304683.441299) can0 260#08FFFE0000FFEE5C
(1469304683.443373) can0 361#0017000000000000
(1469304683.446195) can0 351#00000000
(1469304683.446993) can0 020#0000072B
(1469304683.447135) can0 0BA#05FD00C0
(1469304683.447370) can0 224#0000000000000008
(1469304683.447690) can0 025#000000027000009F
(1469304683.447999) can0 024#020001FD420880F6
(1469304683.450550) can0 3F9#5198260100000014
(1469304683.450971) can0 621#1100000000000000
(1469304683.451386) can0 1C8#80
(1469304683.453075) can0 0AA#1A6F1A6F1A6F1A6F
(1469304683.457746) can0 263#00000000B0001C
(1469304683.458749) can0 1C4#076529080000FF69
(1469304683.459015) can0 020#0000072B
(1469304683.459289) can0 0B4#00000000000000BC
(1469304683.459550) can0 025#000000027000009F
(1469304683.459734) can0 223#000000000000002D
(1469304683.460020) can0 024#020001FD420A80F8
(1469304683.460286) can0 1D0#0EEE090000AC008A
(1469304683.460550) can0 4C3#0300000100000000
(1469304683.460733) can0 2C1#0801CC006CCE00DA
(1469304683.460983) can0 623#1900000000000000
(1469304683.461491) can0 260#08FFFE0000FFF15F
(1469304683.465116) can0 0AA#1A6F1A6F1A6F1A6F
(1469304683.467866) can0 1C8#80
(1469304683.469974) can0 620#1000FFFFB0500040
(1469304683.470912) can0 3D0#00
(1469304683.471069) can0 020#0000072B
(1469304683.471239) can0 0BA#05FD00C0
(1469304683.471511) can0 224#0000000000000008
(1469304683.471781) can0 025#000000027000009F
(1469304683.472047) can0 024#020001FB420A80F6
(1469304683.472144) can0 262#000000016A
(1469304683.477168) can0 0AA#1A6F1A6F1A6F1A6F
(1469304683.477356) can0 1AA#0000000000B1
(1469304683.477604) can0 3A0#008F00000700006C
(1469304683.478972) can0 624#1A00414949400000
(1469304683.481326) can0 260#08FFFE0000FFF15F
(1469304683.482345) can0 263#00000000B0001C
(1469304683.483120) can0 020#0000072B
(1469304683.483381) can0 0B4#00000000000000BC
(1469304683.483644) can0 025#000000027000009F
(1469304683.483840) can0 1C4#075529080000FF59
(1469304683.484097) can0 024#020001FB420880F4
(1469304683.484357) can0 223#000000000000002D
(1469304683.484369) can0 1C8#80
(1469304683.487924) can0 626#1C00300000000000
(1469304683.489224) can0 0AA#1A6F1A6F1A6F1A6F
(1469304683.491438) can0 354#01
(1469304683.492623) can0 1D0#0EC3090000AC005F
(1469304683.493599) can0 2C1#0801DD006CCE00EB
(1469304683.495143) can0 020#0000072B
(1469304683.495284) can0 0BA#05FB00BE
(1469304683.495531) can0 224#0000000000000008
(1469304683.495799) can0 025#000000027000009F
(1469304683.496072) can0 024#020001FB420880F4
(1469304683.496974) can0 638#1300180100000000
(1469304683.500690) can0 1C8#80
(1469304683.501237) can0 0AA#1A6F1A6F1A6F1A6F
(1469304683.501547) can0 260#08FFFF0000FFEE5D
(1469304683.505951) can0 63C#98005A5245172060
(1469304683.506130) can0 351#00000000
(1469304683.506972) can0 263#00000000B0001C
(1469304683.507153) can0 020#0000072B
(1469304683.507445) can0 0B4#00000000000000BC
(1469304683.507656) can0 223#000000000000002D
(1469304683.507973) can0 1C4#074D29080000FF51
(1469304683.508231) can0 024#020001FD420880F6
(1469304683.508457) can0 025#000000027000009F
(1469304683.509008) can0 361#0017000000000000
(1469304683.511304) can0 262#000000016A
(1469304683.513298) can0 0AA#1A6F1A6F1A6F1A6F
(1469304683.514948) can0 63D#9900444558534B00
(1469304683.517090) can0 1C8#80
(1469304683.519243) can0 020#0000072B
(1469304683.519384) can0 0BA#05FD00C0
(1469304683.519637) can0 224#0000000000000008
(1469304683.520001) can0 024#020001FF420880F8
(1469304683.520325) can0 025#000000027000009F
(1469304683.520585) can0 442#4302000001000000
(1469304683.521399) can0 260#08FFFE0000FFEE5C
(1469304683.523975) can0 680#D800010000000000
(1469304683.525347) can0 0AA#1A6F1A6F1A6F1A6F
(1469304683.525533) can0 1AA#0000000000B1
(1469304683.525821) can0 1D0#0EAA090000AC0046
(1469304683.526112) can0 394#4300
(1469304683.526413) can0 2C1#0801E9006DCF00F9
(1469304683.531292) can0 020#0000072B
(1469304683.531556) can0 0B4#00000000000000BC
(1469304683.531774) can0 223#000000000000002D
(1469304683.532046) can0 024#020001FF420A80FA
(1469304683.532233) can0 263#00000000B0001C
(1469304683.532551) can0 025#000000027000009F
(1469304683.532712) can0 1C4#073A29080000FF3E
(1469304683.532977) can0 4C1#0100000500000000
(1469304683.533492) can0 1C8#80
(1469304683.537335) can0 0AA#1A6F1A6F1A6F1A6F
(1469304683.541301) can0 260#08FFFF0000FFE554
(1469304683.543342) can0 020#0000072B
(1469304683.543500) can0 0BA#05FF00C2
(1469304683.543728) can0 224#0000000000000008
(1469304683.543983) can0 024#020001FD420880F6
(1469304683.544338) can0 025#000000027000009F
(1469304683.549438) can0 0AA#1A6F1A6F1A6F1A6F
(1469304683.549927) can0 1C8#80
(1469304683.551283) can0 262#000000016A
(1469304683.555383) can0 020#0000072B
(1469304683.555628) can0 0B4#00000000000000BC
(1469304683.555835) can0 223#000000000000002D
(1469304683.556136) can0 024#020001FB420A80F6
(1469304683.556333) can0 025#000000027000009F
(1469304683.556563) can0 263#00000000B0001C
(1469304683.557237) can0 1C4#073129080000FF35
(1469304683.558268) can0 1D0#0E90090000AC002C
(1469304683.559261) can0 2C1#08023E006DD10051
(1469304683.561388) can0 260#08FFFE0000FFEE5C
(1469304683.561561) can0 0AA#1A6F1A6F1A6F1A6F
(1469304683.566140) can0 351#00000000
(1469304683.566295) can0 1C8#80
(1469304683.567430) can0 020#0000072B
(1469304683.567522) can0 0BA#05FB00BE
(1469304683.567862) can0 224#0000000000000008
(1469304683.568059) can0 024#020001FB420880F4
(1469304683.568306) can0 025#000000027000009F
(1469304683.571413) can0 640#A8000057012F0000
(1469304683.573562) can0 0AA#1A6F1A6F1A6F1A6F
(1469304683.573655) can0 1AA#0000000000B1
(1469304683.574684) can0 361#0017000000000000
(1469304683.579310) can0 3A0#008F00000700006C
(1469304683.579403) can0 020#0000072B
(1469304683.579737) can0 0B4#00000000000000BC
(1469304683.579935) can0 223#000000000000002D
(1469304683.580187) can0 024#020001FB420880F4
(1469304683.580441) can0 025#000000027000009F
(1469304683.580859) can0 263#00000000B0001C
(1469304683.581384) can0 260#08FFFF0000FFE554
(1469304683.581861) can0 1C4#072329080000FF27
(1469304683.582707) can0 1C8#80
(1469304683.585577) can0 0AA#1A6F1A6F1A6F1A6F
(1469304683.591112) can0 1D0#0E69090000AC0005
(1469304683.591256) can0 262#000000016A
(1469304683.591509) can0 020#0000072B
(1469304683.591642) can0 0BA#05FB00BE
(1469304683.591906) can0 224#0000000000000008
(1469304683.592152) can0 024#020001FD420A80F8
(1469304683.592400) can0 025#000000027000009F
(1469304683.592637) can0 2C1#08020A0071D00020
(1469304683.592883) can0 420#00000000FB0180A8
(1469304683.597559) can0 0AA#1A6F1A6F1A6F1A6F
(1469304683.597831) can0 3B7#583B000000000008
(1469304683.599176) can0 1C8#80
(1469304683.601288) can0 260#08FFFE0000FFEE5C
(1469304683.603532) can0 020#0000072B
(1469304683.603766) can0 0B4#00000000000000BC
(1469304683.603993) can0 024#020001FD420880F6
(1469304683.604299) can0 223#000000000000002D
(1469304683.604511) can0 025#000000027000009F
(1469304683.605458) can0 263#00000000B0001C
(1469304683.606485) can0 1C4#071529080000FF19
(1469304683.609811) can0 0AA#1A6F1A6F1A6F1A6F
(1469304683.615605) can0 1C8#80
(1469304683.615685) can0 020#0000072B
(1469304683.615937) can0 0BA#05FD00C0
(1469304683.616152) can0 224#0000000000000008
(1469304683.616399) can0 025#000000027000009F
(1469304683.617011) can0 024#020001FF420A80FA
(1469304683.621065) can0 443#4002002F06000000
(1469304683.621261) can0 260#08FFFF0000FFE554
(1469304683.621812) can0 0AA#1A6F1A6F1A6F1A6F
(1469304683.621982) can0 1AA#0000000000B1
(1469304683.623938) can0 1D0#0E47090000AC00E3
(1469304683.624885) can0 2C1#0802170074D00030
(1469304683.626130) can0 351#00000000
(1469304683.627763) can0 020#0000072B
(1469304683.627958) can0 0B4#00000000000000BC
(1469304683.628211) can0 025#000000027000009F
(1469304683.628560) can0 223#000000000000002D
(1469304683.629011) can0 024#020001FD420880F6
(1469304683.630084) can0 263#00000000B0001C
(1469304683.631113) can0 1C4#070929080000FF0D
(1469304683.631205) can0 262#000000016A
(1469304683.632011) can0 1C8#80
(1469304683.633792) can0 0AA#1A6F1A6F1A6F1A6F
(1469304683.639757) can0 020#0000072B
(1469304683.639851) can0 0BA#05FD00C0
(1469304683.640196) can0 224#0000000000000008
(1469304683.640396) can0 025#000000027000009F
(1469304683.640639) can0 361#0017000000000000
(1469304683.641035) can0 024#020001FB420A80F6
(1469304683.641269) can0 260#08FFFE0000FFEE5C
(1469304683.643413) can0 610#2000006480FFFD60
(1469304683.645862) can0 0AA#1A6F1A6F1A6F1A6F
(1469304683.648409) can0 1C8#80
(1469304683.651783) can0 020#0000072B
(1469304683.652020) can0 0B4#00000000000000BC
(1469304683.652325) can0 025#000000027000009F
(1469304683.652510) can0 223#000000000000002D
(1469304683.652978) can0 024#020001FB420880F4
(1469304683.653225) can0 4AC#4800A00100000324
(1469304683.654711) can0 263#00000000B0001C
(1469304683.655409) can0 611#21000020000062D4
(1469304683.655738) can0 1C4#06F929080000FFFC
(1469304683.656761) can0 1D0#0E1B090000AC00B7
(1469304683.657734) can0 2C1#0802290079D10048
(1469304683.657911) can0 0AA#1A6F1A6F1A6F1A6F
(1469304683.661287) can0 260#08FFFF0000FFE554
(1469304683.661519) can0 4C6#0700030000000000
(1469304683.663011) can0 3B1#00000D0500080000
(1469304683.663838) can0 020#0000072B
(1469304683.663931) can0 0BA#05FB00BE
(1469304683.664210) can0 224#0000000000000008
(1469304683.664519) can0 025#000000027000009F
(1469304683.664778) can0 1C8#80
(1469304683.665051) can0 024#020001FB420880F4
(1469304683.669887) can0 0AA#1A6F1A6F1A6F1A6F
(1469304683.670123) can0 1AA#0000000000B1
(1469304683.671209) can0 262#000000016A
(1469304683.675908) can0 020#0000072B
(1469304683.676108) can0 0B4#00000000000000BC
(1469304683.676362) can0 025#000000027000009F
(1469304683.676621) can0 223#000000000000002D
(1469304683.676923) can0 4C8#0900000000000000
(1469304683.677085) can0 024#020001FD420A80F8
(1469304683.678309) can0 3A0#008F00000700006C
(1469304683.679311) can0 263#00000000B0001C
(1469304683.680344) can0 1C4#06F529080000FFF8
(1469304683.681315) can0 260#08FFFF0000FFE554
(1469304683.681334) can0 1C8#80
(1469304683.682011) can0 0AA#1A6F1A6F1A6F1A6F
(1469304683.686081) can0 351#00000000
(1469304683.687936) can0 020#0000072B
(1469304683.688030) can0 0BA#05FD00C0
(1469304683.688375) can0 025#000000027000009F
(1469304683.688561) can0 224#0000000000000008
(1469304683.689033) can0 024#020001FF420880F8
(1469304683.689587) can0 1D0#0E00090000AC009C
(1469304683.690559) can0 2C1#08022D0082D10055
(1469304683.694017) can0 0AA#1A6F1A6F1A6F1A6F
(1469304683.696604) can0 354#01
(1469304683.697650) can0 1C8#80
(1469304683.699959) can0 020#0000072B
(1469304683.700158) can0 0B4#00000000000000BC
(1469304683.700407) can0 025#000000027000009F
(1469304683.700671) can0 223#000000000000002D
(1469304683.701034) can0 024#020001FF420A80FA
(1469304683.701267) can0 260#08FFFE0000FFEE5C
(1469304683.703936) can0 263#00000000B0001C
(1469304683.704964) can0 1C4#06E229080000FFE5
(1469304683.706010) can0 361#0018000000000000
(1469304683.706184) can0 0AA#1A6F1A6F1A6F1A6F
(1469304683.706984) can0 3F9#5198260100000014
(1469304683.711132) can0 262#000000016A
(1469304683.712014) can0 020#0000072B
(1469304683.712107) can0 0BA#05FF00C2
(1469304683.712427) can0 025#000000027000009F
(1469304683.712638) can0 224#0000000000000008
(1469304683.713035) can0 024#020001FB420880F4
(1469304683.714052) can0 1C8#80
(1469304683.718112) can0 0AA#1A6F1A6F1A6F1A6F
(1469304683.718257) can0 1AA#0000000000B1
(1469304683.720910) can0 440#4202001101000000
(1469304683.721145) can0 260#08FFFE0000FFEE5C
(1469304683.722303) can0 3D3#01B7
(1469304683.722559) can0 1D0#0DE6090000AC0081
(1469304683.723409) can0 2C1#08023F008CD10071
(1469304683.724057) can0 020#0000072B
(1469304683.724258) can0 0B4#00000000000000BC
(1469304683.724515) can0 223#000000000000002D
(1469304683.725007) can0 024#020001FB420880F4
(1469304683.725297) can0 025#000000027000009F
(1469304683.727334) can0 3D0#00
(1469304683.728589) can0 263#00000000B0001C
(1469304683.729610) can0 1C4#06D729080000FFDA
(1469304683.730135) can0 0AA#1A6F1A6F1A6F1A6F
(1469304683.730521) can0 1C8#80
(1469304683.736083) can0 020#0000072B
(1469304683.736179) can0 0BA#05FB00BE
(1469304683.736559) can0 224#0000000000000008
(1469304683.737033) can0 024#020001FB420880F4
(1469304683.737208) can0 025#000000027000009F
(1469304683.741263) can0 260#08FFFF0000FFF160
(1469304683.742185) can0 0AA#1A6F1A6F1A6F1A6F
(1469304683.746031) can0 351#00000000
(1469304683.746900) can0 1C8#80
(1469304683.748110) can0 020#0000072B
(1469304683.748339) can0 0B4#00000000000000BC
(1469304683.748585) can0 223#000000000000002D
(1469304683.749034) can0 024#020001FD420880F6
(1469304683.749236) can0 025#000000027000009F
(1469304683.751181) can0 262#000000016A
(1469304683.753188) can0 263#00000000B0001C
(1469304683.754211) can0 0AA#1A6F1A6F1A6F1A6F
(1469304683.754384) can0 1C4#06C429080000FFC7
(1469304683.755278) can0 1D0#0DC2090000AC005D
(1469304683.756215) can0 2C1#0802510094D2008C
(1469304683.760164) can0 020#0000072B
(1469304683.760257) can0 0BA#05FD00C0
(1469304683.760588) can0 224#0000000000000008
(1469304683.760999) can0 024#020001FD420880F6
(1469304683.761257) can0 025#000000027000009F
(1469304683.761575) can0 260#08FFFF0000FFF160
(1469304683.762174) can0 423#00
(1469304683.763326) can0 1C8#80
(1469304683.766290) can0 0AA#1A6F1A6F1A6F1A6F
(1469304683.766434) can0 1AA#0000000000B1
(1469304683.766936) can0 620#1000FFFFB0500040
(1469304683.771690) can0 361#0018000000000000
(1469304683.772204) can0 020#0000072B
(1469304683.772434) can0 0B4#00000000000000BC
(1469304683.772686) can0 223#000000000000002D
(1469304683.773060) can0 024#020001FF420880F8
(1469304683.773258) can0 025#000000027000009F
(1469304683.773738) can0 3BC#0020000000000000
(1469304683.775731) can0 399#00000000000000
(1469304683.777811) can0 263#00000000B0001C
(1469304683.778310) can0 0AA#1A6F1A6F1A6F1A6F
(1469304683.778836) can0 1C4#06AD29080000FFB0
(1469304683.779729) can0 1C8#80
(1469304683.779895) can0 38A#0804000000
(1469304683.780320) can0 3A0#008F00000700006C
(1469304683.781167) can0 260#08FFFE0000FFEE5C
(1469304683.784223) can0 020#0000072B
(1469304683.784378) can0 0BA#05FF00C2
(1469304683.784685) can0 224#0000000000000008
(1469304683.785034) can0 024#020001FD420880F6
(1469304683.785234) can0 025#000000027000009F
(1469304683.788042) can0 1D0#0D8F090000AC002A
(1469304683.788993) can0 2C1#080267009ED300AD
(1469304683.790813) can0 0AA#1A6F1A6F1A6F1A6F
(1469304683.791336) can0 262#000000016A
(1469304683.796054) can0 1C8#80
(1469304683.796261) can0 020#0000072B
(1469304683.796528) can0 0B4#00000000000000BC
(1469304683.796777) can0 223#000000000000002D
(1469304683.796973) can0 024#020001FB420880F4
(1469304683.797222) can0 025#000000027000009F
(1469304683.801153) can0 260#08FFFE0000FFF15F
(1469304683.802361) can0 0AA#1A6F1A6F1A6F1A6F
(1469304683.802504) can0 263#00000000B0001C
(1469304683.803433) can0 1C4#06A429080000FFA7
(1469304683.806032) can0 351#00000000
(1469304683.808312) can0 020#0000072B
(1469304683.808395) can0 0BA#05FB00BE
(1469304683.808734) can0 224#0000000000000008
(1469304683.809036) can0 024#020001FB420880F4
(1469304683.809243) can0 025#000000027000009F
(1469304683.812555) can0 1C8#80
(1469304683.814412) can0 0AA#1A6F1A6F1A6F1A6F
(1469304683.814555) can0 1AA#0000000000B1
(1469304683.820414) can0 442#4302000001000000
(1469304683.820484) can0 020#0000072B
(1469304683.820829) can0 0B4#00000000000000BC
(1469304683.820971) can0 024#020001FB420880F4
(1469304683.821305) can0 025#000000027000009F
(1469304683.821526) can0 1D0#0D68090000AC0003
(1469304683.821735) can0 223#000000000000002D
(1469304683.822036) can0 260#08FFFE0000FFEB59
(1469304683.822178) can0 2C1#0802A000AAD500F4
(1469304683.826029) can0 394#4300
(1469304683.826412) can0 0AA#1A6F1A6F1A6F1A6F
(1469304683.827038) can0 263#00000000B0001C
(1469304683.828063) can0 1C4#069B29080000FF9E
(1469304683.828951) can0 1C8#80
(1469304683.831106) can0 262#000000016A
(1469304683.832405) can0 020#0000072B
(1469304683.832496) can0 0BA#05FB00BE
(1469304683.832833) can0 224#0000000000000008
(1469304683.833042) can0 024#020001FD420A80F8
(1469304683.833328) can0 025#000000027000009F
(1469304683.837313) can0 361#0018000000000000
(1469304683.838488) can0 0AA#1A6F1A6F1A6F1A6F
(1469304683.841138) can0 260#08FFFF0000FFEE5D
(1469304683.844458) can0 020#0000072B
(1469304683.844671) can0 0B4#00000000000000BC
(1469304683.844959) can0 223#000000000000002D
(1469304683.845169) can0 024#020001FD420A80F8
(1469304683.845463) can0 025#000000027000009F
(1469304683.845481) can0 1C8#80
(1469304683.850562) can0 0AA#1A6F1A6F1A6F1A6F
(1469304683.851713) can0 263#00000000B0001C
(1469304683.852735) can0 1C4#069029080000FF93
(1469304683.853766) can0 1D0#0D48090000AC00E3
(1469304683.854737) can0 2C1#08027A00B5D300D7
(1469304683.856462) can0 020#0000072B
(1469304683.856545) can0 0BA#05FD00C0
(1469304683.856848) can0 224#0000000000000008
(1469304683.857131) can0 024#020001FD420880F6
(1469304683.857335) can0 025#000000027000009F
(1469304683.861190) can0 260#08FFFE0000FFEE5C
(1469304683.861779) can0 1C8#80
(1469304683.862485) can0 0AA#1A6F1A6F1A6F1A6F
(1469304683.862687) can0 1AA#0000000000B1
(1469304683.865982) can0 351#00000000
(1469304683.868487) can0 020#0000072B
(1469304683.868698) can0 0B4#00000000000000BC
(1469304683.868984) can0 223#000000000000002D
(1469304683.869194) can0 024#020001FD420880F6
(1469304683.869484) can0 025#000000027000009F
(1469304683.871132) can0 262#000000016A
(1469304683.874724) can0 0AA#1A6F1A6F1A6F1A6F
(1469304683.876289) can0 3A0#008F00000700006C
(1469304683.876495) can0 263#00000000B0001C
(1469304683.877361) can0 1C4#068729080000FF8A
(1469304683.878252) can0 1C8#80
(1469304683.880682) can0 020#0000072B
(1469304683.880768) can0 0BA#05FD00C0
(1469304683.881127) can0 024#020001FD420A80F8
(1469304683.881269) can0 025#000000027000009F
(1469304683.881613) can0 224#0000000000000008
(1469304683.881820) can0 260#08FFFF0000FFE554
(1469304683.886579) can0 1D0#0D2A090000AC00C5
(1469304683.886856) can0 0AA#1A6F1A6F1A6F1A6F
(1469304683.887596) can0 2C1#08028400C1D400EE
(1469304683.892689) can0 020#0000072B
(1469304683.892983) can0 0B4#00000000000000BC
(1469304683.893194) can0 024#020001FB420880F4
(1469304683.893485) can0 025#000000027000009F
(1469304683.893693) can0 223#000000000000002D
(1469304683.894650) can0 1C8#80
(1469304683.898836) can0 0AA#1A6F1A6F1A6F1A6F
(1469304683.898980) can0 3B7#583B000000000008
(1469304683.900963) can0 263#00000000B0001C
(1469304683.901164) can0 260#08FFFE0000FFEB59
(1469304683.901938) can0 1C4#067F29080000FF82
(1469304683.901993) can0 354#01
(1469304683.902945) can0 361#0019000000000000
(1469304683.904757) can0 020#0000072B
(1469304683.904837) can0 0BA#05FB00BE
(1469304683.905173) can0 024#020001FB420880F4
(1469304683.905350) can0 025#000000027000009F
(1469304683.905589) can0 224#0000000000000008
(1469304683.906217) can0 383#0100010000000000
(1469304683.906509) can0 4DC#1D00000200000000
(1469304683.910779) can0 0AA#1A6F1A6F1A6F1A6F
(1469304683.910970) can0 1AA#0000000000B1
(1469304683.911053) can0 1C8#80
(1469304683.911238) can0 262#000000016A
(1469304683.911507) can0 622#1200581000000000
(1469304683.916706) can0 020#0000072B
(1469304683.917021) can0 0B4#00000000000000BC
(1469304683.917245) can0 025#000000027000009F
(1469304683.917503) can0 223#000000000000002D
(1469304683.917976) can0 024#020001FB420880F4
(1469304683.919378) can0 1D0#0D0D090000AC00A8
(1469304683.920335) can0 2C1#08028800C5D400F6
(1469304683.921003) can0 443#4002002F06000000
(1469304683.921227) can0 260#08FFFE0000FFEE5C
(1469304683.922878) can0 0AA#1A6F1A6F1A6F1A6F
(1469304683.925505) can0 263#00000000B0001C
(1469304683.925872) can0 351#00000000
(1469304683.926529) can0 1C4#067829080000FF7B
(1469304683.927417) can0 1C8#80
(1469304683.928825) can0 020#0000072B
(1469304683.928991) can0 0BA#05FB00BE
(1469304683.929239) can0 224#0000000000000008
(1469304683.929928) can0 025#000000027000009F
(1469304683.930152) can0 024#020001FD420880F6
(1469304683.931003) can0 387#0000000000003F3F
(1469304683.934906) can0 0AA#1A6F1A6F1A6F1A6F
(1469304683.940850) can0 020#0000072B
(1469304683.941103) can0 0B4#00000000000000BC
(1469304683.941351) can0 223#000000000000002D
(1469304683.941578) can0 260#08FFFF0000FFEB5A
(1469304683.941977) can0 025#000000027000009F
(1469304683.942226) can0 024#020001FD420880F6
(1469304683.943821) can0 1C8#80
(1469304683.946953) can0 0AA#1A6F1A6F1A6F1A6F
(1469304683.948204) can0 380#C0A0400000004300
(1469304683.948503) can0 3B0#00B4005600180000
(1469304683.950127) can0 263#00000000B0001C
(1469304683.950949) can0 262#000000016A
(1469304683.951176) can0 1C4#066B29080000FF6E
(1469304683.952186) can0 1D0#0CF8090000AC0092
(1469304683.952872) can0 020#0000072B
(1469304683.953040) can0 0BA#05FD00C0
(1469304683.953314) can0 224#0000000000000008
(1469304683.953509) can0 2C1#08029100D1D4000B
(1469304683.953873) can0 025#000000027000009F
(1469304683.954120) can0 024#020001FD420880F6
(1469304683.958949) can0 0AA#1A6F1A6F1A6F1A6F
(1469304683.959175) can0 1AA#0000000000B1
(1469304683.960230) can0 1C8#80
(1469304683.961003) can0 260#08FFFE0000FFEE5C
(1469304683.961252) can0 389#0000000000000000
(1469304683.963503) can0 3F9#5198260100000014
(1469304683.964925) can0 020#0000072B
(1469304683.965196) can0 0B4#00000000000000BC
(1469304683.965478) can0 223#000000000000002D
(1469304683.965951) can0 025#000000027000009F
(1469304683.966201) can0 024#020001FD420880F6
(1469304683.968604) can0 361#0019000000000000
(1469304683.971028) can0 0AA#1A6F1A6F1A6F1A6F
(1469304683.973005) can0 4DD#1E00000000000000
(1469304683.974728) can0 263#00000000B0001C
(1469304683.975757) can0 1C4#065E29080000FF61
(1469304683.976644) can0 1C8#80
(1469304683.976987) can0 020#0000072B
(1469304683.977155) can0 0BA#05FD00C0
(1469304683.977403) can0 224#0000000000000008
(1469304683.977878) can0 025#000000027000009F
(1469304683.978103) can0 024#020101FB420880F5
(1469304683.978351) can0 3A0#008F00000700006C
(1469304683.981052) can0 260#08FFFF0000FFF160
(1469304683.983103) can0 0AA#1A6F1A6F1A6F1A6F
(1469304683.983826) can0 3D0#00
(1469304683.985004) can0 1D0#0CDF090000AC0079
(1469304683.985848) can0 351#00000000
(1469304683.986101) can0 2C1#0802A000D8D50022
(1469304683.989048) can0 020#0000072B
(1469304683.989301) can0 0B4#00000000000000BC
(1469304683.989553) can0 223#000000000000002D
(1469304683.989927) can0 025#000000027000009F
(1469304683.990176) can0 024#020001FB420880F4
(1469304683.991004) can0 38E#2020000000000000
(1469304683.991173) can0 262#000000016A
(1469304683.993042) can0 1C8#80
(1469304683.995154) can0 0AA#1A6F1A6F1A6F1A6F
(1469304683.999378) can0 263#00000000B0001C
(1469304684.000385) can0 1C4#065129080000FF54
(1469304684.001018) can0 260#08FFFF0000FFEE5D
(1469304684.001187) can0 020#0000072B
(1469304684.001365) can0 0BA#05FB00BE
(1469304684.001628) can0 224#0000000000000008
(1469304684.001852) can0 025#000000027000009F
(1469304684.002057) can0 024#020001FD420880F6
(1469304684.007176) can0 0AA#1A6F1A6F1A6F1A6F
(1469304684.007369) can0 1AA#0000000000B1
(1469304684.009552) can0 1C8#80
(1469304684.013210) can0 020#0000072B
(1469304684.013454) can0 0B4#00000000000000BC
(1469304684.013673) can0 223#000000000000002D
(1469304684.013959) can0 025#000000027000009F
(1469304684.014168) can0 024#020001FD420A80F8
(1469304684.017826) can0 1D0#0CBF090000AC0059
(1469304684.018862) can0 2C1#0802AF00E2D5003B
(1469304684.019309) can0 0AA#1A6F1A6F1A6F1A6F
(1469304684.020864) can0 440#4202001101000000
(1469304684.021068) can0 260#08FFFF0000FFEB5A
(1469304684.021361) can0 38F#0300000000000000
(1469304684.024034) can0 263#00000000B0001C
(1469304684.025063) can0 1C4#064329080000FF46
(1469304684.025175) can0 020#0000072B
(1469304684.025427) can0 0BA#05FD00C0
(1469304684.025651) can0 224#0000000000000008
(1469304684.025938) can0 025#000000027000009F
(1469304684.026144) can0 024#020001FD420880F6
(1469304684.026199) can0 1C8#80
(1469304684.031030) can0 262#000000016A
(1469304684.031334) can0 0AA#1A6F1A6F1A6F1A6F
(1469304684.034310) can0 361#0019000000000000
(1469304684.037283) can0 020#0000072B
(1469304684.037570) can0 0B4#00000000000000BC
(1469304684.037715) can0 223#000000000000002D
(1469304684.038038) can0 025#000000027000009F
(1469304684.038247) can0 024#020001FF420880F8
(1469304684.041088) can0 260#08FFFE0000FFEE5C
(1469304684.042375) can0 1C8#80
(1469304684.043360) can0 0AA#1A6F1A6F1A6F1A6F
(1469304684.045858) can0 351#00000000
(1469304684.048664) can0 263#00000000B0001C
(1469304684.049305) can0 020#0000072B
(1469304684.049388) can0 0BA#05FF00C2
(1469304684.049741) can0 1C4#064029080000FF43
(1469304684.049946) can0 025#000000027000009F
(1469304684.050226) can0 024#020001FD420880F6
(1469304684.050410) can0 224#0000000000000008
(1469304684.050736) can0 1D0#0C9D090000AC0037
(1469304684.051040) can0 3A5#0000000000007EFC
(1469304684.051645) can0 2C1#0802B600F0D50050
(1469304684.055368) can0 0AA#1A6F1A6F1A6F1A6F
(1469304684.055649) can0 1AA#0000000000B1
(1469304684.058798) can0 1C8#80
(1469304684.060890) can0 6E1#A180000000100000
(1469304684.061037) can0 260#08FFFF0000FFEB5A
(1469304684.061379) can0 020#0000072B
(1469304684.061600) can0 0B4#00000000000000BC
(1469304684.061886) can0 025#000000027000009F
(1469304684.062031) can0 024#020001FD420880F6
(1469304684.062313) can0 223#000000000000002D
(1469304684.067405) can0 0AA#1A6F1A6F1A6F1A6F
(1469304684.069887) can0 620#1000FFFFB0500040
(1469304684.070931) can0 262#000000016A
(1469304684.073287) can0 263#00000000B0001C
(1469304684.073358) can0 020#0000072B
(1469304684.073561) can0 0BA#05FD00C0
(1469304684.073842) can0 224#0000000000000008
(1469304684.074063) can0 024#020001FB420880F4
(1469304684.074312) can0 025#000000027000009F
(1469304684.074563) can0 1C4#063F29080000FF42
(1469304684.075201) can0 1C8#80
(1469304684.077264) can0 3A0#008F00000700006C
(1469304684.079596) can0 0AA#1A6F1A6F1A6F1A6F
(1469304684.081013) can0 260#08FFFE0000FFEB59
(1469304684.081210) can0 413#0101010900000000
(1469304684.083560) can0 1D0#0C88090000AC0022
(1469304684.084563) can0 2C1#0802B000FAD50054
(1469304684.085453) can0 020#0000072B
(1469304684.085764) can0 0B4#00000000000000BC
(1469304684.085934) can0 025#000000027000009F
(1469304684.086189) can0 024#020001FB420A80F6
(1469304684.086438) can0 223#000000000000002D
(1469304684.091740) can0 0AA#1A6F1A6F1A6F1A6F
(1469304684.091758) can0 1C8#80
(1469304684.097681) can0 020#0000072B
(1469304684.097774) can0 0BA#05FB00BE
(1469304684.098103) can0 024#020001FB420880F4
(1469304684.098301) can0 224#0000000000000008
(1469304684.098538) can0 263#00000000B0001C
(1469304684.098864) can0 025#000000027000009F
(1469304684.099094) can0 1C4#063E29080000FF41
(1469304684.099963) can0 361#001A000000000000
(1469304684.101059) can0 260#08FFFE0000FFEB59
(1469304684.103789) can0 0AA#1A6F1A6F1A6F1A6F
(1469304684.103957) can0 1AA#0000000000B1
(1469304684.105829) can0 351#00000000
(1469304684.106976) can0 354#01
(1469304684.107211) can0 381#0001029080000000
(1469304684.108028) can0 1C8#80
(1469304684.109729) can0 020#0000072B
(1469304684.109928) can0 0B4#00000000000000BC
(1469304684.110182) can0 024#020001FD420A80F8
(1469304684.110439) can0 223#000000000000002D
(1469304684.110964) can0 025#000000027000009F
(1469304684.111057) can0 262#000000016A
(1469304684.111385) can0 434#3F00000000000000
(1469304684.115838) can0 0AA#1A6F1A6F1A6F1A6F
(1469304684.116363) can0 1D0#0C79090000AC0013
(1469304684.117292) can0 2C1#0802B50101D50061
