(1469304231.807120) can0 440#40008011010F0F0F
(1469304231.812403) can0 442#42008000010F0F0F
(1469304231.907173) can0 440#4001801101000000
(1469304231.907371) can0 620#1080FFFF80500080
(1469304231.911397) can0 442#4201800001000000
(1469304232.001175) can0 440#4212001101000000
(1469304232.001347) can0 442#4002000001000000
(1469304232.101153) can0 440#4212001101000000
(1469304232.130400) can0 610#2000006480FFFD60
(1469304232.131148) can0 621#1100000000000000
(1469304232.140106) can0 622#1200481000000000
(1469304232.142424) can0 611#21000020000062D4
(1469304232.149148) can0 623#1900000000000000
(1469304232.158147) can0 624#1A00414949400000
(1469304232.167148) can0 626#1C00300000000000
(1469304232.176162) can0 638#1300180100000000
(1469304232.185148) can0 63C#98005A5245172060
(1469304232.194108) can0 620#1080FFFF90500080
(1469304232.195221) can0 443#4300802F060F0F0F
(1469304232.202400) can0 442#4002000001000000
(1469304232.203079) can0 63D#9900444558534B00
(1469304232.212150) can0 680#D800010000000000
(1469304232.214362) can0 618#2200000080000000
(1469304232.226399) can0 619#230000000C003A80
(1469304232.230843) can0 020#0000072B
(1469304232.231084) can0 6E1#A100030000F00000
(1469304232.238399) can0 61A#2400000000014F60
(1469304232.240129) can0 6E2#A200CCFEFEFEFEFE
(1469304232.242870) can0 020#0000072B
(1469304232.243066) can0 0B4#00000000020000BE
(1469304232.243316) can0 223#0008000000000035
(1469304232.243594) can0 420#0000000000008AB6
(1469304232.250398) can0 61C#2600000000000000
(1469304232.254915) can0 020#0000072B
(1469304232.255009) can0 0BA#06008044
(1469304232.255318) can0 224#0000000000000048
(1469304232.255527) can0 4C3#0300000100000000
(1469304232.261026) can0 0AA#1A6F1A6F1A6F1A6F
(1469304232.261167) can0 1AA#0000000000B1
(1469304232.262396) can0 640#A800000001320000
(1469304232.266941) can0 020#0000072B
(1469304232.267201) can0 0B4#00000000020000BE
(1469304232.267474) can0 223#0008000000000035
(1469304232.273196) can0 0AA#1A6F1A6F1A6F1A6F
(1469304232.279145) can0 020#0000072B
(1469304232.279217) can0 0BA#06008044
(1469304232.279548) can0 224#0000000000000048
(1469304232.285221) can0 0AA#1A6F1A6F1A6F1A6F
(1469304232.291168) can0 020#0000072B
(1469304232.291369) can0 0B4#00000000020000BE
(1469304232.291628) can0 223#0008000000000035
(1469304232.295222) can0 443#4301802F06000000
(1469304232.297250) can0 0AA#1A6F1A6F1A6F1A6F
(1469304232.297478) can0 263#0000000001006D
(1469304232.298520) can0 1C4#0000000000003E0B
(1469304232.301098) can0 440#4202001101000000
(1469304232.303192) can0 020#0000072B
(1469304232.303268) can0 0BA#06008044
(1469304232.303606) can0 224#0000000000000048
(1469304232.306564) can0 354#00
(1469304232.307589) can0 1C8#00
(1469304232.309274) can0 0AA#1A6F1A6F1A6F1A6F
(1469304232.309469) can0 1AA#0000000000B1
(1469304232.315216) can0 020#0000072B
(1469304232.315529) can0 0B4#00000000020000BE
(1469304232.315675) can0 223#0008000000000035
(1469304232.315972) can0 1D0#00000100000000DA
(1469304232.316925) can0 2C1#08FFD412A1BE0017
(1469304232.317120) can0 3F9#5198260100000014
(1469304232.321327) can0 0AA#1A6F1A6F1A6F1A6F
(1469304232.322070) can0 263#00000000AF001B
(1469304232.323122) can0 1C4#000029000000FFF5
(1469304232.323990) can0 1C8#00
(1469304232.327221) can0 4C1#0100000500000000
(1469304232.327318) can0 020#0000072B
(1469304232.327557) can0 0BA#06008044
(1469304232.327770) can0 224#0000000000000048
(1469304232.332349) can0 361#00A0000700000000
(1469304232.333349) can0 0AA#1A6F1A6F1A6F1A6F
(1469304232.334395) can0 3BC#0020000000000000
(1469304232.335339) can0 3BB#8000AF00
(1469304232.336061) can0 620#1080FFFFA0500080
(1469304232.336424) can0 399#00000000000000
(1469304232.337289) can0 3D0#00
(1469304232.339290) can0 020#0000072B
(1469304232.339498) can0 0B4#00000000020000BE
(1469304232.339750) can0 223#0008000000000035
(1469304232.340386) can0 1C8#00
(1469304232.341517) can0 38A#1C04000000
(1469304232.345372) can0 0AA#1A6F1A6F1A6F1A6F
(1469304232.346670) can0 263#00000000AF001B
(1469304232.347749) can0 1C4#000029000000FFF5
(1469304232.348747) can0 1D0#0000010000AC0086
(1469304232.349749) can0 2C1#08FFD412A1BE0017
(1469304232.351316) can0 020#0000072B
(1469304232.351471) can0 0BA#06008044
(1469304232.351704) can0 224#0000000000000048
(1469304232.352248) can0 025#00010002900000C0
(1469304232.356811) can0 1C8#00
(1469304232.357410) can0 0AA#1A6F1A6F1A6F1A6F
(1469304232.357568) can0 1AA#0000000000B1
(1469304232.363372) can0 020#0000072B
(1469304232.363593) can0 0B4#00000000020000BE
(1469304232.363828) can0 223#0008000000000035
(1469304232.364344) can0 025#000000027000009F
(1469304232.369449) can0 0AA#1A6F1A6F1A6F1A6F
(1469304232.370524) can0 4C6#0700030000000000
(1469304232.371294) can0 263#00000000AF001B
(1469304232.372350) can0 1C4#000029000000FFF5
(1469304232.373211) can0 1C8#00
(1469304232.375313) can0 423#00
(1469304232.375469) can0 020#0000072B
(1469304232.375610) can0 0BA#06008044
(1469304232.375857) can0 224#0000000000000048
(1469304232.376260) can0 025#00010002900000C0
(1469304232.380924) can0 260#0E00000000000078
(1469304232.381521) can0 0AA#1A6F1A6F1A6F1A6F
(1469304232.381670) can0 1D0#0000010000AC0086
(1469304232.382570) can0 2C1#08FFD412A1BE0017
(1469304232.385781) can0 351#00000000
(1469304232.387391) can0 020#0000072B
(1469304232.387602) can0 0B4#00000000020000BE
(1469304232.387848) can0 223#0008000000000035
(1469304232.388268) can0 025#000000027000009F
(1469304232.389611) can0 1C8#00
(1469304232.390869) can0 262#000000016A
(1469304232.393523) can0 0AA#1A6F1A6F1A6F1A6F
(1469304232.395780) can0 4C8#0900000000000000
(1469304232.396005) can0 263#00000000AF001B
(1469304232.396941) can0 1C4#000029000000FFF5
(1469304232.397937) can0 361#00A0000700000000
(1469304232.399525) can0 020#0000072B
(1469304232.399543) can0 0BA#06008044
(1469304232.399865) can0 224#0000000000000048
(1469304232.400236) can0 025#000000027000009F
(1469304232.400945) can0 260#0E00000000000078
(1469304232.403397) can0 442#4302000001000000
(1469304232.405523) can0 0AA#1A6F1A6F1A6F1A6F
(1469304232.405668) can0 1AA#0000000000B1
(1469304232.405752) can0 394#4300
(1469304232.405977) can0 1C8#00
(1469304232.411518) can0 020#0000072B
(1469304232.411668) can0 0B4#00000000020000BE
(1469304232.411917) can0 223#0008000000000035
(1469304232.412286) can0 025#00010002900000C0
(1469304232.414396) can0 1D0#0000010000AC0086
(1469304232.415371) can0 2C1#08FFD412A1BE0017
(1469304232.417572) can0 0AA#1A6F1A6F1A6F1A6F
(1469304232.420526) can0 263#00000000AF001B
(1469304232.420868) can0 260#0E00000000000078
(1469304232.421570) can0 1C4#000029000000FFF5
(1469304232.422436) can0 1C8#00
(1469304232.423515) can0 020#0000072B
(1469304232.423588) can0 0BA#06008044
(1469304232.423914) can0 224#0000000000000048
(1469304232.424221) can0 025#00010002900000C0
(1469304232.429605) can0 0AA#1A6F1A6F1A6F1A6F
(1469304232.430800) can0 262#000000016A
(1469304232.435550) can0 020#0000072B
(1469304232.435759) can0 0B4#00000000020000BE
(1469304232.436014) can0 223#0008000000000035
(1469304232.436234) can0 025#000000027000009F
(1469304232.438842) can0 1C8#00
(1469304232.440931) can0 260#0E00000000000078
(1469304232.441628) can0 0AA#1A6F1A6F1A6F1A6F
(1469304232.445153) can0 263#00000000AF001B
(1469304232.445721) can0 351#00000000
(1469304232.446199) can0 1C4#000029000000FFF5
(1469304232.447201) can0 1D0#0000010000AC0086
(1469304232.447539) can0 020#0000072B
(1469304232.447667) can0 0BA#06008044
(1469304232.447941) can0 224#0000000000000048
(1469304232.448166) can0 025#000000027000009F
(1469304232.448523) can0 2C1#08FFD412A1BE0017
(1469304232.453614) can0 0AA#1A6F1A6F1A6F1A6F
(1469304232.453813) can0 1AA#0000000000B1
(1469304232.454094) can0 3B7#583B000000000008
(1469304232.455261) can0 1C8#00
(1469304232.459600) can0 020#0000072B
(1469304232.459798) can0 0B4#00000000020000BE
(1469304232.460085) can0 223#0008000000000035
(1469304232.460274) can0 025#000000027000009F
(1469304232.460912) can0 260#0E00000000000078
(1469304232.463596) can0 361#00A0000700000000
(1469304232.465663) can0 0AA#1A6F1A6F1A6F1A6F
(1469304232.469737) can0 263#00000000AF001B
(1469304232.470786) can0 1C4#000029000000FFF5
(1469304232.470897) can0 262#000000016A
(1469304232.471608) can0 020#0000072B
(1469304232.471715) can0 0BA#06008044
(1469304232.471827) can0 1C8#00
(1469304232.472162) can0 224#0000000000000048
(1469304232.472373) can0 025#000000027000009F
(1469304232.477678) can0 0AA#1A6F1A6F1A6F1A6F
(1469304232.480025) can0 1D0#0000010000AC0086
(1469304232.480835) can0 260#0E00000000000078
(1469304232.481025) can0 2C1#08FFD412A1BE0017
(1469304232.481385) can0 610#2080006480FFFD60
(1469304232.483622) can0 020#0000072B
(1469304232.483876) can0 0B4#00000000020000BE
(1469304232.484105) can0 025#000000027000009F
(1469304232.484364) can0 223#0008000000000035
(1469304232.488054) can0 1C8#00
(1469304232.489761) can0 0AA#1A6F1A6F1A6F1A6F
(1469304232.493389) can0 611#21800020000062D4
(1469304232.494339) can0 263#00000000AF001B
(1469304232.495412) can0 1C4#000029000000FFF5
(1469304232.495688) can0 020#0000072B
(1469304232.495795) can0 0BA#06008044
(1469304232.496086) can0 224#0000000000000048
(1469304232.496328) can0 025#000000027000009F
(1469304232.500864) can0 260#0E00000000000078
(1469304232.501812) can0 0AA#1A6F1A6F1A6F1A6F
(1469304232.501977) can0 1AA#0000000000B1
(1469304232.504506) can0 1C8#00
(1469304232.505224) can0 443#4002002F06000000
(1469304232.505512) can0 618#2280000080000000
(1469304232.505578) can0 351#00000000
(1469304232.507668) can0 020#0000072B
(1469304232.507959) can0 0B4#00000000020000BE
(1469304232.508188) can0 025#00010002900000C0
(1469304232.508465) can0 223#0008000000000035
(1469304232.510761) can0 262#000000016A
(1469304232.511660) can0 354#07
(1469304232.512811) can0 1D0#0000010000AC0086
(1469304232.513771) can0 2C1#08FFD412A1BE0017
(1469304232.514012) can0 0AA#1A6F1A6F1A6F1A6F
(1469304232.517353) can0 619#238000000C003A80
(1469304232.518959) can0 263#00000000AF001B
(1469304232.519758) can0 020#0000072B
(1469304232.519864) can0 0BA#06008044
(1469304232.520130) can0 1C4#000029000000FFF5
(1469304232.520402) can0 025#000000027000009F
(1469304232.520689) can0 224#0000000000000048
(1469304232.520894) can0 260#0E00000000000078
(1469304232.520970) can0 1C8#00
(1469304232.525773) can0 0AA#1A6F1A6F1A6F1A6F
(1469304232.529176) can0 361#00A0000700000000
(1469304232.529412) can0 61A#2480000000014F60
(1469304232.531809) can0 020#0000072B
(1469304232.532030) can0 0B4#00000000020000BE
(1469304232.532303) can0 025#00010002900000C0
(1469304232.532571) can0 223#0008000000000035
(1469304232.537307) can0 1C8#00
(1469304232.537879) can0 0AA#1A6F1A6F1A6F1A6F
(1469304232.540789) can0 260#0E00000000000078
(1469304232.541386) can0 61C#2680000000000000
(1469304232.543594) can0 263#00000000AF001B
(1469304232.543805) can0 020#0000072B
(1469304232.543968) can0 0BA#06008044
(1469304232.544234) can0 224#0000000000000048
(1469304232.544476) can0 025#000000027000009F
(1469304232.544759) can0 1C4#000029000000FFF5
(1469304232.545663) can0 1D0#0000010000AC0086
(1469304232.546596) can0 2C1#08FFD412A1BE0017
(1469304232.549939) can0 0AA#1A6F1A6F1A6F1A6F
(1469304232.550108) can0 1AA#0000000000B1
(1469304232.550758) can0 262#000000016A
(1469304232.553732) can0 1C8#00
(1469304232.554713) can0 383#0100010000000000
(1469304232.555010) can0 381#0000000080000000
(1469304232.555311) can0 4DC#1D00000200000000
(1469304232.555885) can0 020#0000072B
(1469304232.556094) can0 0B4#00000000020000BE
(1469304232.556344) can0 025#000000027000009F
(1469304232.556594) can0 223#0008000000000035
(1469304232.560805) can0 260#0E00000000000078
(1469304232.562139) can0 0AA#1A6F1A6F1A6F1A6F
(1469304232.565634) can0 351#00000000
(1469304232.568081) can0 020#0000072B
(1469304232.568190) can0 0BA#06008044
(1469304232.568466) can0 224#0000000000000048
(1469304232.568695) can0 263#00000000AF001B
(1469304232.569044) can0 025#000000027000009F
(1469304232.569289) can0 1C4#00D029000000FFC5
(1469304232.570131) can0 1C8#00
(1469304232.573340) can0 3F9#5198260100000014
(1469304232.574186) can0 0AA#1A6F1A6F1A6F1A6F
(1469304232.578511) can0 1D0#0000010000AC0086
(1469304232.579514) can0 2C1#08FFD412A1BE0017
(1469304232.580105) can0 020#0000072B
(1469304232.580379) can0 0B4#00000000020000BE
(1469304232.580581) can0 223#0008000000000035
(1469304232.580886) can0 260#0E00000000000078
(1469304232.581120) can0 025#00010002900000C0
(1469304232.586241) can0 0AA#1A6F1A6F1A6F1A6F
(1469304232.586528) can0 1C8#00
(1469304232.590683) can0 262#000000016A
(1469304232.592166) can0 020#0000072B
(1469304232.592272) can0 0BA#06008044
(1469304232.592544) can0 224#0000000000000048
(1469304232.592854) can0 263#00000000AF001B
(1469304232.593047) can0 025#000000027000009F
(1469304232.593861) can0 1C4#014E29000000FF44
(1469304232.593905) can0 3D0#00
(1469304232.594888) can0 361#00A0000100000000
(1469304232.598195) can0 0AA#1A6F1A6F1A6F1A6F
(1469304232.598511) can0 1AA#0000000000B1
(1469304232.600764) can0 260#0E00000000000078
(1469304232.602954) can0 1C8#00
(1469304232.604183) can0 020#0000072B
(1469304232.604511) can0 0B4#00000000020000BE
(1469304232.604675) can0 223#0008000000000035
(1469304232.605160) can0 025#000000027000009F
(1469304232.605395) can0 387#0000000000003F3F
(1469304232.607060) can0 440#4202001101000000
(1469304232.610311) can0 0AA#1A6F1A6F1A6F1A6F
(1469304232.611250) can0 1D0#0000010000AC0086
(1469304232.612203) can0 2C1#08054512A3EA00BC
(1469304232.613120) can0 4DD#1E00000000000000
(1469304232.616173) can0 020#0000072B
(1469304232.616361) can0 0BA#06008044
(1469304232.616618) can0 224#0000000000000048
(1469304232.616990) can0 025#000000027000009F
(1469304232.617388) can0 263#00000000AF001B
(1469304232.618457) can0 1C4#015D29000000FF53
(1469304232.619311) can0 1C8#00
(1469304232.620768) can0 260#0E00000000000078
(1469304232.622338) can0 0AA#1A6F1A6F1A6F1A6F
(1469304232.625587) can0 351#00000000
(1469304232.628259) can0 020#0000072B
(1469304232.628528) can0 0B4#00000000020000BE
(1469304232.628798) can0 223#0008000000000035
(1469304232.629087) can0 025#000000027000009F
(1469304232.630733) can0 262#000000016A
(1469304232.633193) can0 024#5E000A004A088066
(1469304232.634392) can0 0AA#1A6F1A6F1A6F1A6F
(1469304232.635237) can0 389#0000000000000000
(1469304232.635755) can0 1C8#00
(1469304232.636052) can0 620#1000FFFFA0500080
(1469304232.640337) can0 020#0000072B
(1469304232.640447) can0 0BA#06008044
(1469304232.640712) can0 224#0000000000000048
(1469304232.640981) can0 260#0E00000000000078
(1469304232.641253) can0 025#00010002900000C0
(1469304232.642038) can0 263#00000000AF001B
(1469304232.643089) can0 1C4#015029000000FF46
(1469304232.644115) can0 1D0#0000010000AC0086
(1469304232.645087) can0 2C1#08054512A3EA00BC
(1469304232.645321) can0 024#5E000A004A088066
(1469304232.646439) can0 0AA#1A6F1A6F1A6F1A6F
(1469304232.646607) can0 1AA#0000000000B1
(1469304232.652181) can0 1C8#00
(1469304232.652347) can0 020#0000072B
(1469304232.652593) can0 0B4#00000000020000BE
(1469304232.652848) can0 223#0008000000000035
(1469304232.653137) can0 025#000000027000009F
(1469304232.657189) can0 024#5E0009FF4A0A8066
(1469304232.658511) can0 0AA#1A6F1A6F1A6F1A6F
(1469304232.660538) can0 361#00A0000000000000
(1469304232.660763) can0 260#0E00000000000078
(1469304232.664410) can0 020#0000072B
(1469304232.664476) can0 0BA#060000C4
(1469304232.664832) can0 224#0000000000000048
(1469304232.665065) can0 025#000000027000009F
(1469304232.665333) can0 38E#2020000000000000
(1469304232.666664) can0 263#00000000AF001B
(1469304232.667689) can0 1C4#015E29000000FF54
(1469304232.668578) can0 1C8#00
(1469304232.669135) can0 024#5E0009FB4A0A8062
(1469304232.670517) can0 0AA#1A6F1A6F1A6F1A6F
(1469304232.670623) can0 262#000000016A
(1469304232.676435) can0 020#0000072B
(1469304232.676707) can0 0B4#00000000020000BE
(1469304232.676898) can0 223#0008000000000035
(1469304232.677191) can0 025#000000027000009F
(1469304232.677413) can0 1D0#0031010000AC00B7
(1469304232.677913) can0 2C1#08054612A4EA00BE
(1469304232.680787) can0 260#0E00000000000078
(1469304232.681186) can0 024#5E0009F64A0A805D
(1469304232.682512) can0 0AA#1A6F1A6F1A6F1A6F
(1469304232.684979) can0 1C8#00
(1469304232.685557) can0 351#00000000
(1469304232.688511) can0 020#0000072B
(1469304232.688553) can0 0BA#060000C4
(1469304232.688897) can0 224#0000000000000048
(1469304232.689135) can0 025#000000027000009F
(1469304232.691285) can0 263#00000000AF001B
(1469304232.692318) can0 1C4#016E29000000FF64
(1469304232.693186) can0 024#5E0009F64A0A805D
(1469304232.694587) can0 0AA#1A6F1A6F1A6F1A6F
(1469304232.694751) can0 1AA#0000000000B1
(1469304232.695234) can0 38F#0300000000000000
(1469304232.700506) can0 020#0000072B
(1469304232.700787) can0 0B4#00000000020000BE
(1469304232.701022) can0 025#000000027000009F
(1469304232.701290) can0 223#0008000000000035
(1469304232.701527) can0 260#0E00000000000078
(1469304232.701546) can0 1C8#00
(1469304232.703390) can0 442#4302000001000000
(1469304232.704667) can0 382#3838380000000000
(1469304232.705187) can0 024#5E0009FA4A0A8061
(1469304232.705531) can0 394#4300
(1469304232.706614) can0 0AA#1A6F1A6F1A6F1A6F
(1469304232.709695) can0 1D0#0154010000AC00DB
(1469304232.710606) can0 262#000000016A
(1469304232.710877) can0 2C1#08054312A4EA00BB
(1469304232.712559) can0 020#0000072B
(1469304232.712625) can0 0BA#060000C4
(1469304232.712977) can0 025#000000027000009F
(1469304232.713214) can0 224#0000000000000048
(1469304232.715889) can0 263#00000000AF001B
(1469304232.716912) can0 1C4#01FB29000000FFF1
(1469304232.716954) can0 354#07
(1469304232.717277) can0 024#5E000A004A088066
(1469304232.717809) can0 1C8#00
(1469304232.718664) can0 0AA#1A6F1A6F1A6F1A6F
(1469304232.720738) can0 260#0E00000000000078
(1469304232.724585) can0 020#0000072B
(1469304232.724823) can0 0B4#00000000020000BE
(1469304232.725091) can0 025#000000027000009F
(1469304232.725313) can0 223#0008000000000035
(1469304232.725589) can0 3A5#0000000000007EFC
(1469304232.726162) can0 361#00A0000000000000
(1469304232.729215) can0 024#5E000A054A068069
(1469304232.730686) can0 0AA#1A6F1A6F1A6F1A6F
(1469304232.734231) can0 1C8#80
(1469304232.736637) can0 020#0000072B
(1469304232.736742) can0 0BA#060000C4
(1469304232.737007) can0 224#0000000000000048
(1469304232.737277) can0 025#000000027000009F
(1469304232.740537) can0 263#00000000AF001B
(1469304232.740772) can0 260#0E00000000000078
(1469304232.741188) can0 024#5E000A054A0A806D
(1469304232.741561) can0 1C4#039B29080000FF9B
(1469304232.742589) can0 1D0#0242010000AC00CA
(1469304232.742765) can0 0AA#1A6F1A6F1A6F1A6F
(1469304232.742989) can0 1AA#0000000000B1
(1469304232.743562) can0 2C1#0805470A71EA0084
(1469304232.745567) can0 351#00000000
(1469304232.748670) can0 020#0000072B
(1469304232.748869) can0 0B4#00000000020000BE
(1469304232.749124) can0 025#000000027000009F
(1469304232.749380) can0 223#0008000000000035
(1469304232.750643) can0 262#000000016A
(1469304232.750670) can0 1C8#80
(1469304232.753225) can0 024#5E0009FF4A0C8068
(1469304232.754748) can0 0AA#1A6F1A6F1A6F1A6F
(1469304232.754945) can0 3B7#583B000000000008
(1469304232.755195) can0 413#0101010900000000
(1469304232.760647) can0 260#0E00000000000078
(1469304232.760741) can0 020#0000072B
(1469304232.760984) can0 0BA#060000C4
(1469304232.761185) can0 224#0000000000000048
(1469304232.761521) can0 6E1#A180000000100000
(1469304232.761895) can0 025#000000027000009F
(1469304232.765173) can0 263#00000000AF001B
(1469304232.765343) can0 024#5E0009F44A0A805B
(1469304232.766172) can0 1C4#045D29080000FF5E
(1469304232.766801) can0 0AA#1A6F1A6F1A6F1A6F
(1469304232.767010) can0 1C8#80
(1469304232.772769) can0 020#0000072B
(1469304232.772970) can0 0B4#00000000020000BE
(1469304232.773224) can0 223#0008000000000035
(1469304232.773973) can0 025#000000027000009F
(1469304232.775450) can0 1D0#057D010000AC0008
(1469304232.776429) can0 2C1#08049C0A98E400F9
(1469304232.777222) can0 024#5E0009ED4A088052
(1469304232.778851) can0 0AA#1A6F1A6F1A6F1A6F
(1469304232.780669) can0 260#0E00000000000078
(1469304232.783518) can0 1C8#80
(1469304232.784791) can0 020#0000072B
(1469304232.784885) can0 0BA#060000C4
(1469304232.785207) can0 224#0000000000000048
(1469304232.785521) can0 434#3F00000000000000
(1469304232.785872) can0 025#000000027000009F
(1469304232.789251) can0 024#5E0009F34A0A805A
(1469304232.789771) can0 263#00000000AF001B
(1469304232.790593) can0 262#000000016A
(1469304232.790784) can0 1C4#04D729080000FFD8
(1469304232.791086) can0 0AA#1A6F1A6F1A6F1A6F
(1469304232.791180) can0 1AA#0000000000B1
(1469304232.791850) can0 361#0054000000000000
(1469304232.796794) can0 020#0000072B
(1469304232.796990) can0 0B4#00000000020000BE
(1469304232.797246) can0 223#0008000000000035
(1469304232.797947) can0 025#000000027000009F
(1469304232.799899) can0 1C8#80
(1469304232.800696) can0 260#0E00000000000078
(1469304232.801244) can0 024#5E0009FF4A0A8066
(1469304232.802897) can0 0AA#1A6F1A6F1A6F1A6F
(1469304232.805225) can0 443#4002002F06000000
(1469304232.805501) can0 351#00000000
(1469304232.808115) can0 3D3#0178
(1469304232.808348) can0 1D0#080A010000AC0098
(1469304232.808846) can0 020#0000072B
(1469304232.808940) can0 0BA#060000C4
(1469304232.809265) can0 224#0000000000000048
(1469304232.809476) can0 2C1#0803F60A69DF001E
(1469304232.809869) can0 025#000000027000009F
(1469304232.811952) can0 6E2#A28000FEFEFEFEFE
(1469304232.813248) can0 024#5E000A064A0A806E
(1469304232.813481) can0 3B1#00000E0A00080000
(1469304232.813670) can0 4AC#0802200500000004
(1469304232.814393) can0 263#00000000AF001B
(1469304232.815122) can0 0AA#1A6F1A6F1A6F1A6F
(1469304232.815295) can0 435#0F0505FFE00FE003
(1469304232.815565) can0 1C4#053629080000FF38
(1469304232.816247) can0 1C8#80
(1469304232.820582) can0 260#0E00000000000078
(1469304232.821039) can0 020#0000072B
(1469304232.821286) can0 0B4#00000000020000BE
(1469304232.821507) can0 223#0008000000000035
(1469304232.821922) can0 025#000000027000009F
(1469304232.825251) can0 024#5E000A084A0A8070
(1469304232.827148) can0 0AA#1A6F1A6F1A6F1A6F
(1469304232.829751) can0 3F9#5198260100000014
(1469304232.830567) can0 262#000000016A
(1469304232.832711) can0 1C8#80
(1469304232.833085) can0 020#0000072B
(1469304232.833179) can0 0BA#060000C4
(1469304232.833523) can0 224#0000000000000048
(1469304232.833846) can0 025#000000027000009F
(1469304232.837253) can0 024#5E00020342088059
(1469304232.839046) can0 263#00000000AF001B
(1469304232.839218) can0 0AA#1A6F1A6F1A6F1A6F
(1469304232.839518) can0 1AA#0000000000B1
(1469304232.840071) can0 1C4#05C729080000FFC9
(1469304232.840673) can0 260#0E00000000000078
(1469304232.841120) can0 1D0#0A34010000AC00C4
(1469304232.842053) can0 2C1#08031F0A4CD80023
(1469304232.845083) can0 020#0000072B
(1469304232.845386) can0 0B4#00000000020000BE
(1469304232.845571) can0 223#000000000000002D
(1469304232.845824) can0 436#0000000000000000
(1469304232.846049) can0 025#00010002900000C0
(1469304232.849179) can0 024#5E0001FA420A8051
(1469304232.849289) can0 1C8#80
(1469304232.850164) can0 3D0#00
(1469304232.851196) can0 0AA#1A6F1A6F1A6F1A6F
(1469304232.857083) can0 020#0000072B
(1469304232.857239) can0 0BA#060000C4
(1469304232.857549) can0 224#0000000000000048
(1469304232.857746) can0 361#004E000000000000
(1469304232.857998) can0 025#000000027000009F
(1469304232.858263) can0 3B0#00B5000000000000
(1469304232.860626) can0 260#0E00000000000078
(1469304232.861242) can0 024#5E0001EF42068042
(1469304232.863182) can0 0AA#1A6F1A6F1A6F1A6F
(1469304232.863651) can0 263#00000000AF001B
(1469304232.864748) can0 1C4#064529080000FF48
(1469304232.865517) can0 351#00000000
(1469304232.865545) can0 1C8#80
(1469304232.869121) can0 020#0000072B
(1469304232.869364) can0 0B4#00000000020000BE
(1469304232.869614) can0 223#000000000000002D
(1469304232.869864) can0 025#000000027000009F
(1469304232.870482) can0 262#000000016A
(1469304232.873247) can0 024#5E0001EF42058041
(1469304232.873999) can0 1D0#0C0C010000AC009E
(1469304232.874949) can0 2C1#08027709ECD30014
(1469304232.875259) can0 437#FCFFFFFFFFFFFFFF
(1469304232.875472) can0 0AA#1A6F1A6F1A6F1A6F
(1469304232.880524) can0 260#0E00000000000078
(1469304232.881157) can0 020#0000072B
(1469304232.881324) can0 0BA#060000C4
(1469304232.881586) can0 224#0000000000000048
(1469304232.881829) can0 025#000000027000009F
(1469304232.881975) can0 1C8#80
(1469304232.885254) can0 024#5E0001F84206804B
(1469304232.887332) can0 0AA#1A6F1A6F1A6F1A6F
(1469304232.887462) can0 1AA#0000000000B1
(1469304232.888404) can0 263#00000000AF001B
(1469304232.889401) can0 1C4#06D229080000FFD5
(1469304232.893248) can0 020#0000072B
(1469304232.893496) can0 0B4#00000000020000BE
(1469304232.893699) can0 223#000000000000002D
(1469304232.894001) can0 025#000000027000009F
(1469304232.897251) can0 024#5E000201420C805B
(1469304232.898517) can0 1C8#80
(1469304232.899342) can0 0AA#1A6F1A6F1A6F1A6F
(1469304232.900606) can0 260#0E00000000000078
(1469304232.905201) can0 384#F0F000000000
(1469304232.905263) can0 020#0000072B
(1469304232.905522) can0 0BA#060000C4
(1469304232.905761) can0 025#000000027000009F
(1469304232.906029) can0 224#0000000000000048
(1469304232.906251) can0 380#0000000000008000
(1469304232.906850) can0 1D0#0D6C010000AC00FF
(1469304232.907053) can0 440#4202001101000000
(1469304232.907767) can0 2C1#0801CC0965CE00DC
(1469304232.909256) can0 024#5E00020A420F8067
(1469304232.910573) can0 262#000000016A
(1469304232.911399) can0 0AA#1A6F1A6F1A6F1A6F
(1469304232.913001) can0 263#00000000AF001B
(1469304232.914026) can0 1C4#075B29080000FF5F
(1469304232.914916) can0 1C8#80
(1469304232.917325) can0 020#0000072B
(1469304232.917569) can0 0B4#00000000020000BE
(1469304232.917827) can0 025#000000027000009F
(1469304232.918034) can0 223#000000000000002D
(1469304232.920632) can0 260#0E00000000000078
(1469304232.921250) can0 024#5E000208420C8062
(1469304232.922067) can0 354#01
(1469304232.923228) can0 361#0047000000000000
(1469304232.923538) can0 0AA#1A6F1A6F1A6F1A6F
(1469304232.923726) can0 3A0#008B000000000068
(1469304232.925425) can0 351#00000000
(1469304232.929372) can0 020#0000072B
(1469304232.929455) can0 0BA#060000C4
(1469304232.929794) can0 224#0000000000000048
(1469304232.929996) can0 025#000000027000009F
(1469304232.931321) can0 1C8#80
(1469304232.933282) can0 024#5E00020042068054
(1469304232.935200) can0 386#000000070003
(1469304232.935402) can0 0AA#1A6F1A6F1A6F1A6F
(1469304232.935613) can0 1AA#0000000000B1
(1469304232.936030) can0 620#1000FFFFA0500080
(1469304232.937600) can0 263#00000000AF001B
(1469304232.938627) can0 1C4#07D129080000FFD5
(1469304232.939680) can0 1D0#0EF2010000AC0086
(1469304232.940576) can0 260#0E00000000000078
(1469304232.940777) can0 2C1#08013408D1C900AA
(1469304232.941394) can0 020#0000072B
(1469304232.941601) can0 0B4#00000000020000BE
(1469304232.941855) can0 025#00010002900000C0
(1469304232.942101) can0 223#000000000000002D
(1469304232.945232) can0 024#560001F44203803C
(1469304232.947528) can0 0AA#1A6F1A6F1A6F1A6F
(1469304232.947716) can0 1C8#80
(1469304232.950523) can0 262#000000016A
(1469304232.953449) can0 020#0000072B
(1469304232.953525) can0 0BA#060000C4
(1469304232.953900) can0 224#0000000000000048
(1469304232.954087) can0 025#000000027000009F
(1469304232.957253) can0 024#560001ED42038035
(1469304232.959589) can0 0AA#1A6F1A6F1A6F1A6F
(1469304232.960576) can0 260#0E00000000000078
(1469304232.962250) can0 263#00000000AF001B
(1469304232.963241) can0 1C4#083E29080000FF43
(1469304232.964252) can0 3BB#0000B000
(1469304232.964274) can0 1C8#80
(1469304232.965175) can0 3E6#0000000000
(1469304232.965522) can0 020#0000072B
(1469304232.965706) can0 0B4#00000000020000BE
(1469304232.965949) can0 025#000000027000009F
(1469304232.966193) can0 223#000000000000002D
(1469304232.969231) can0 024#560001F1420A8040
(1469304232.971604) can0 0AA#1A6F1A6F1A6F1A6F
(1469304232.972551) can0 1D0#101F090000AC00BD
(1469304232.973492) can0 2C1#0800E00813C70095
(1469304232.977523) can0 020#0000072B
(1469304232.977607) can0 0BA#060000C4
(1469304232.977937) can0 025#00010002900000C0
(1469304232.978140) can0 224#0000000000000008
(1469304232.979378) can0 610#2000006480FFFD60
(1469304232.980560) can0 260#0E00000000000078
(1469304232.980575) can0 1C8#80
(1469304232.981264) can0 024#560001FF420D8051
(1469304232.983596) can0 0AA#1A6F1A6F1A6F1A6F
(1469304232.983767) can0 1AA#0000000000B1
(1469304232.985374) can0 351#00000000
(1469304232.986879) can0 263#00000000AF001B
(1469304232.987905) can0 1C4#089729080000FF9C
(1469304232.988927) can0 361#003F000000000000
(1469304232.989572) can0 020#0000072B
(1469304232.989776) can0 0B4#00000000020000BE
(1469304232.990033) can0 223#000000000000002D
(1469304232.990522) can0 262#000000016A
(1469304232.990726) can0 025#00010002900000C0
(1469304232.993280) can0 024#56000206420C8058
(1469304232.995225) can0 3E7#00000000000000
(1469304232.995655) can0 0AA#1A6F1A6F1A6F1A6F
(1469304232.996990) can0 1C8#80
(1469304233.000531) can0 260#0E00000000000078
(1469304233.001595) can0 020#0000072B
(1469304233.001676) can0 0BA#060000C4
(1469304233.002043) can0 224#0000000000000008
(1469304233.002700) can0 025#000000027000009F
(1469304233.003378) can0 442#4302000001000000
(1469304233.005276) can0 024#5600020A42088058
(1469304233.005482) can0 1D0#1124090000AC00C3
(1469304233.005533) can0 394#4300
(1469304233.006317) can0 2C1#0800BB072CC50086
(1469304233.007001) can0 620#1080FFFFB0500080
(1469304233.007696) can0 0AA#1A6F1A6F1A6F1A6F
(1469304233.011527) can0 263#00000000AF001B
(1469304233.012524) can0 1C4#08DB29080000FFE0
(1469304233.013413) can0 1C8#80
(1469304233.013592) can0 020#0000072B
(1469304233.013847) can0 0B4#00000000020000BE
(1469304233.014093) can0 223#000000000000002D
(1469304233.014746) can0 025#000000027000009F
(1469304233.017300) can0 024#560002034206804F
(1469304233.019750) can0 0AA#1A6F1A6F1A6F1A6F
(1469304233.020523) can0 260#0E00000000000078
(1469304233.021395) can0 610#2080006480FFFD60
(1469304233.025248) can0 3E8#0000000000000000
(1469304233.025650) can0 3A0#008B000000000068
(1469304233.025722) can0 020#0000072B
(1469304233.025979) can0 0BA#060000C4
(1469304233.026183) can0 224#0000000000000008
(1469304233.026480) can0 024#520001FB42088044
(1469304233.026663) can0 025#000000027000009F
(1469304233.029842) can0 1C8#80
(1469304233.030518) can0 262#000000016A
(1469304233.031799) can0 0AA#1A6F1A6F1A6F1A6F
(1469304233.031942) can0 1AA#0000000000B1
(1469304233.033400) can0 618#2280000080000000
(1469304233.036123) can0 263#00000000AF001B
(1469304233.037150) can0 1C4#091B29080000FF21
(1469304233.037716) can0 020#0000072B
(1469304233.037914) can0 0B4#00000000020000BE
(1469304233.038214) can0 1D0#11EE090000AC008D
(1469304233.038387) can0 024#520001F1420A803C
(1469304233.038651) can0 223#000000000000002D
(1469304233.038895) can0 025#000000027000009F
(1469304233.039119) can0 2C1#0800A00654C50092
(1469304233.040555) can0 260#0E00000000000078
(1469304233.043772) can0 0AA#1A6F1A6F1A6F1A6F
(1469304233.045371) can0 619#238000000C003A80
(1469304233.045464) can0 351#00000000
(1469304233.046259) can0 1C8#80
(1469304233.049773) can0 020#0000072B
(1469304233.049861) can0 0BA#060000C4
(1469304233.050208) can0 224#0000000000000008
(1469304233.050381) can0 024#520001EF420C803C
(1469304233.050625) can0 025#000000027000009F
(1469304233.054546) can0 361#0036000000000000
(1469304233.055225) can0 3E9#0000000000000000
(1469304233.055853) can0 0AA#1A6F1A6F1A6F1A6F
(1469304233.056050) can0 3B7#583B000000000008
(1469304233.057394) can0 61A#2480000000014F60
(1469304233.060524) can0 260#0E00000000000078
(1469304233.060694) can0 263#00000000AF001B
(1469304233.061773) can0 1C4#094F29080000FF55
(1469304233.061847) can0 020#0000072B
(1469304233.062189) can0 0B4#00000000020000BE
(1469304233.062362) can0 024#520001F8420A8043
(1469304233.062626) can0 223#000000000000002D
(1469304233.062870) can0 025#000000027000009F
(1469304233.062926) can0 1C8#80
(1469304233.068024) can0 0AA#1A6F1A6F1A6F1A6F
(1469304233.069397) can0 61C#2680000000000000
(1469304233.070396) can0 262#000000016A
(1469304233.071022) can0 1D0#129A090000AC003A
(1469304233.071980) can0 2C1#08008C058FC400B7
(1469304233.073817) can0 020#0000072B
(1469304233.073963) can0 0BA#060000C4
(1469304233.074240) can0 224#0000000000000008
(1469304233.074499) can0 024#520002014208804B
(1469304233.074706) can0 025#000000027000009F
(1469304233.079065) can0 1C8#80
(1469304233.080062) can0 0AA#1A6F1A6F1A6F1A6F
(1469304233.080253) can0 1AA#0000000000B1
(1469304233.080521) can0 260#0E00000000000078
(1469304233.085345) can0 263#00000000AF001B
(1469304233.086016) can0 020#0000072B
(1469304233.086260) can0 0B4#00000000020000BE
(1469304233.086483) can0 1C4#096C29080000FF72
(1469304233.086782) can0 025#000000027000009F
(1469304233.086969) can0 223#000000000000002D
(1469304233.087198) can0 3F9#5198260100000014
(1469304233.087475) can0 024#5200020842068050
(1469304233.092074) can0 0AA#1A6F1A6F1A6F1A6F
(1469304233.095513) can0 1C8#80
(1469304233.098042) can0 020#0000072B
(1469304233.098135) can0 0BA#060000C4
(1469304233.098519) can0 224#0000000000000008
(1469304233.098679) can0 025#000000027000009F
(1469304233.099293) can0 024#5200020642088050
(1469304233.100533) can0 260#0E00000000000078
(1469304233.103832) can0 1D0#130A090000AC00AB
(1469304233.104154) can0 0AA#1A6F1A6F1A6F1A6F
(1469304233.104796) can0 2C1#08008004DEC400F9
(1469304233.105232) can0 443#4002002F06000000
(1469304233.105293) can0 351#00000000
(1469304233.106764) can0 3D0#00
(1469304233.109975) can0 263#00000000AF001B
(1469304233.110071) can0 020#0000072B
(1469304233.110341) can0 0B4#00000000020000BE
(1469304233.110569) can0 025#000000027000009F
(1469304233.110817) can0 223#000000000000002D
(1469304233.111047) can0 1C4#097B29080000FF81
(1469304233.111275) can0 024#520001FF420A804A
(1469304233.111464) can0 262#000000016A
(1469304233.111810) can0 1C8#80
(1469304233.116199) can0 0AA#1A6F1A6F1A6F1A6F
(1469304233.120260) can0 361#002E000000000000
(1469304233.120472) can0 260#0E00000000000078
(1469304233.122142) can0 020#0000072B
(1469304233.122220) can0 0BA#060000C4
(1469304233.122571) can0 224#0000000000000008
(1469304233.122769) can0 025#000000027000009F
(1469304233.123296) can0 024#520001F6420C8043
(1469304233.124625) can0 3A0#008B000000000068
(1469304233.127261) can0 354#01
(1469304233.128225) can0 0AA#1A6F1A6F1A6F1A6F
(1469304233.128368) can0 1AA#0000000000B1
(1469304233.128440) can0 1C8#80
(1469304233.130971) can0 621#1100000000000000
(1469304233.134169) can0 020#0000072B
(1469304233.134364) can0 0B4#00000000020000BE
(1469304233.134623) can0 025#000000027000009F
(1469304233.134869) can0 223#000000000000002D
(1469304233.135075) can0 263#00000000AF001B
(1469304233.135295) can0 024#520001F4420C8041
(1469304233.135660) can0 1C4#098329080000FF89
(1469304233.136675) can0 1D0#1337090000AC00D8
(1469304233.137648) can0 2C1#08007D043DC30054
(1469304233.139974) can0 622#1200481000000000
(1469304233.140283) can0 0AA#1A6F1A6F1A6F1A6F
(1469304233.140470) can0 260#0E00000000000078
(1469304233.144740) can0 1C8#80
(1469304233.146216) can0 020#0000072B
(1469304233.146310) can0 0BA#060000C4
(1469304233.146645) can0 224#0000000000000008
(1469304233.146845) can0 025#000000027000009F
(1469304233.147294) can0 024#520001F6420A8041
(1469304233.148974) can0 623#1900000000000000
(1469304233.150392) can0 262#000000016A
(1469304233.152305) can0 0AA#1A6F1A6F1A6F1A6F
(1469304233.157976) can0 624#1A00414949400000
(1469304233.158164) can0 020#0000072B
(1469304233.158494) can0 0B4#00000000020000BE
(1469304233.158694) can0 025#000000027000009F
(1469304233.158924) can0 223#000000000000002D
(1469304233.159202) can0 263#00000000AF001B
(1469304233.159524) can0 024#520001FF42088048
(1469304233.160270) can0 1C4#097229080000FF78
(1469304233.160471) can0 260#0E00000000000078
(1469304233.161158) can0 1C8#80
(1469304233.164349) can0 0AA#1A6F1A6F1A6F1A6F
(1469304233.165221) can0 351#00000000
(1469304233.166972) can0 626#1C00300000000000
(1469304233.169523) can0 1D0#1326090000AC00C7
(1469304233.170268) can0 020#0000072B
(1469304233.170366) can0 0BA#060000C4
(1469304233.170696) can0 025#00010002900000C0
(1469304233.170894) can0 224#0000000000000008
(1469304233.171148) can0 2C1#08007F03ADC300C5
(1469304233.171370) can0 024#520002054206804D
(1469304233.175948) can0 638#1300180100000000
(1469304233.176399) can0 0AA#1A6F1A6F1A6F1A6F
(1469304233.176543) can0 1AA#0000000000B1
(1469304233.177561) can0 1C8#80
(1469304233.180398) can0 260#0E00000000000078
(1469304233.182315) can0 020#0000072B
(1469304233.182522) can0 0B4#00000000020000BE
(1469304233.182775) can0 025#00010002900000C0
(1469304233.183019) can0 223#000000000000002D
(1469304233.183268) can0 024#520002054208804F
(1469304233.183809) can0 263#00000000AF001B
(1469304233.184852) can0 1C4#097D29080000FF83
(1469304233.185096) can0 63C#98005A5245172060
(1469304233.185897) can0 361#0028000000000000
(1469304233.188398) can0 0AA#1A6F1A6F1A6F1A6F
(1469304233.188596) can0 4C3#0300000100000000
(1469304233.190318) can0 262#000000016A
(1469304233.193951) can0 63D#9900444558534B00
(1469304233.193968) can0 1C8#80
(1469304233.194294) can0 020#0000072B
(1469304233.194465) can0 0BA#060000C4
(1469304233.194727) can0 224#0000000000000008
(1469304233.195248) can0 024#520002004208804A
(1469304233.195500) can0 025#00010002900000C0
(1469304233.200364) can0 260#0E00000000000078
(1469304233.200573) can0 0AA#1A6F1A6F1A6F1A6F
(1469304233.202322) can0 1D0#1312090000AC00B3
(1469304233.202973) can0 680#D800010000000000
(1469304233.203326) can0 2C1#08007D0329C3003F
(1469304233.206352) can0 020#0000072B
(1469304233.206546) can0 0B4#00000000020000BE
(1469304233.206798) can0 223#000000000000002D
(1469304233.207052) can0 440#4202001101000000
(1469304233.207282) can0 024#520001FA420A8045
(1469304233.207591) can0 025#000000027000009F
(1469304233.208519) can0 263#00000000AF001B
(1469304233.209525) can0 1C4#097829080000FF7E
(1469304233.210384) can0 1C8#80
(1469304233.212451) can0 0AA#1A6F1A6F1A6F1A6F
(1469304233.218368) can0 020#0000072B
(1469304233.218462) can0 0BA#060000C4
(1469304233.218794) can0 224#0000000000000008
(1469304233.219344) can0 024#520001F6420A8041
(1469304233.219521) can0 025#000000027000009F
(1469304233.220424) can0 260#0E00000000000078
(1469304233.224532) can0 0AA#1A6F1A6F1A6F1A6F
(1469304233.224601) can0 1AA#0000000000B1
(1469304233.225176) can0 351#00000000
(1469304233.226621) can0 3A0#008B000000000068
(1469304233.226943) can0 38A#0804000000
(1469304233.226971) can0 1C8#80
(1469304233.230271) can0 262#000000016A
(1469304233.230365) can0 020#0000072B
(1469304233.230697) can0 0B4#00000000020000BE
(1469304233.230894) can0 223#000000000000002D
(1469304233.231344) can0 024#520101F6420A8042
(1469304233.231553) can0 025#000000027000009F
(1469304233.233148) can0 263#00000000AF001B
(1469304233.234173) can0 1C4#096829080000FF6E
(1469304233.235185) can0 1D0#12FA090000AC009A
(1469304233.236156) can0 2C1#08008402B4C400D1
(1469304233.236489) can0 0AA#1A6F1A6F1A6F1A6F
(1469304233.240376) can0 260#0E00000000000078
(1469304233.242518) can0 020#0000072B
(1469304233.242546) can0 0BA#060000C4
(1469304233.242914) can0 224#0000000000000008
(1469304233.243337) can0 024#520001FB42088044
(1469304233.243521) can0 025#000000027000009F
(1469304233.243589) can0 1C8#80
(1469304233.248582) can0 0AA#1A6F1A6F1A6F1A6F
(1469304233.248785) can0 420#00000000FB0182AA
(1469304233.251654) can0 361#0022000000000000
(1469304233.252376) can0 640#A800005701340000
(1469304233.254521) can0 020#0000072B
(1469304233.254726) can0 0B4#00000000020000BE
(1469304233.254959) can0 223#000000000000002D
(1469304233.255310) can0 024#5200020042068048
(1469304233.255558) can0 025#000000027000009F
(1469304233.257770) can0 263#00000000AF001B
(1469304233.258798) can0 1C4#096229080000FF68
(1469304233.259693) can0 1C8#80
(1469304233.260408) can0 260#0E00000000000078
(1469304233.260596) can0 0AA#1A6F1A6F1A6F1A6F
(1469304233.260849) can0 4C1#0100000500000000
(1469304233.266549) can0 020#0000072B
(1469304233.266628) can0 0BA#060000C4
(1469304233.266938) can0 224#0000000000000008
(1469304233.267335) can0 024#520002014208804B
(1469304233.267564) can0 025#000000027000009F
(1469304233.268040) can0 1D0#12DA090000AC007A
(1469304233.269016) can0 2C1#0800860250C4006F
(1469304233.270340) can0 262#000000016A
(1469304233.272670) can0 0AA#1A6F1A6F1A6F1A6F
(1469304233.272830) can0 1AA#0000000000B1
(1469304233.276089) can0 1C8#80
(1469304233.278609) can0 020#0000072B
(1469304233.278842) can0 0B4#00000000020000BE
(1469304233.279124) can0 223#000000000000002D
(1469304233.279299) can0 024#520001FF420A804A
(1469304233.279552) can0 025#000000027000009F
(1469304233.279862) can0 610#2080006480FFFD60
(1469304233.280393) can0 260#0E00000000000078
(1469304233.282391) can0 263#00000000AF001B
(1469304233.283420) can0 1C4#095C29080000FF62
(1469304233.284719) can0 0AA#1A6F1A6F1A6F1A6F
(1469304233.285142) can0 351#00000000
(1469304233.290639) can0 020#0000072B
(1469304233.290749) can0 0BA#060000C4
(1469304233.291013) can0 224#0000000000000008
(1469304233.291348) can0 024#520001FB420C8048
(1469304233.291523) can0 025#000000027000009F
(1469304233.291773) can0 611#21800020000062D4
(1469304233.292507) can0 1C8#80
(1469304233.296745) can0 0AA#1A6F1A6F1A6F1A6F
(1469304233.300318) can0 260#0E00000000000078
(1469304233.300865) can0 1D0#12BE090000AC005E
(1469304233.301840) can0 2C1#08008B01F4C40017
(1469304233.302711) can0 020#0000072B
(1469304233.302929) can0 0B4#00000000020000BE
(1469304233.303211) can0 223#000000000000002D
(1469304233.303517) can0 024#520001F8420C8045
(1469304233.303634) can0 025#000000027000009F
(1469304233.303893) can0 442#4302000001000000
(1469304233.305130) can0 394#4300
(1469304233.306894) can0 620#1000FFFFB0500080
(1469304233.307091) can0 263#00000000AF001B
(1469304233.308016) can0 1C4#094C29080000FF52
(1469304233.308822) can0 0AA#1A6F1A6F1A6F1A6F
(1469304233.308835) can0 1C8#80
(1469304233.310262) can0 262#000000016A
(1469304233.313344) can0 4AC#1802400500000304
(1469304233.314759) can0 020#0000072B
(1469304233.314873) can0 0BA#060000C4
(1469304233.315136) can0 224#0000000000000008
(1469304233.315382) can0 024#520001FA420A8045
(1469304233.315621) can0 025#000000027000009F
(1469304233.317244) can0 361#001E000000000000
(1469304233.320346) can0 260#0E00000000000078
(1469304233.320839) can0 0AA#1A6F1A6F1A6F1A6F
(1469304233.321001) can0 1AA#0000000000B1
(1469304233.322591) can0 3A0#008B000000000068
(1469304233.325312) can0 1C8#80
(1469304233.326961) can0 020#0000072B
(1469304233.327181) can0 0B4#00000000020000BE
(1469304233.327460) can0 024#520001FB42088044
(1469304233.327661) can0 025#000000027000009F
(1469304233.327945) can0 223#000000000000002D
(1469304233.329590) can0 4C6#0700030000000000
(1469304233.331617) can0 263#00000000AF001B
(1469304233.332642) can0 1C4#093729080000FF3D
(1469304233.332656) can0 354#01
(1469304233.333059) can0 0AA#1A6F1A6F1A6F1A6F
(1469304233.333532) can0 3D3#04B1
(1469304233.333831) can0 1D0#12A0090000AC0040
(1469304233.334639) can0 2C1#08009401A6C400D2
(1469304233.339010) can0 020#0000072B
(1469304233.339123) can0 0BA#060000C4
(1469304233.339386) can0 024#520001FD42088046
(1469304233.339623) can0 025#000000027000009F
(1469304233.339931) can0 224#0000000000000008
(1469304233.340339) can0 260#0E00000000000078
(1469304233.341730) can0 1C8#80
(1469304233.342870) can0 3F9#5198260100000014
(1469304233.345092) can0 0AA#1A6F1A6F1A6F1A6F
(1469304233.345200) can0 351#00000000
(1469304233.350212) can0 262#000000016A
(1469304233.351036) can0 020#0000072B
(1469304233.351253) can0 0B4#00000000020000BE
(1469304233.351541) can0 025#000000027000009F
(1469304233.351761) can0 223#000000000000002D
(1469304233.352313) can0 024#520001FF42088048
(1469304233.356217) can0 263#00000000AF001B
(1469304233.357100) can0 0AA#1A6F1A6F1A6F1A6F
(1469304233.357328) can0 1C4#091E29080000FF24
(1469304233.357579) can0 3B7#583B000000000008
(1469304233.358134) can0 1C8#80
(1469304233.360300) can0 260#0E00000000000078
(1469304233.363061) can0 020#0000072B
(1469304233.363169) can0 0BA#060000C4
(1469304233.363470) can0 224#0000000000000008
(1469304233.363674) can0 025#000000027000009F
(1469304233.363788) can0 3D0#00
(1469304233.364306) can0 024#520001FF420A804A
(1469304233.366518) can0 1D0#126E090000AC000E
(1469304233.367475) can0 2C1#08009E0160C40096
(1469304233.369167) can0 0AA#1A6F1A6F1A6F1A6F
(1469304233.369344) can0 1AA#0000000000B1
(1469304233.374560) can0 1C8#80
(1469304233.375181) can0 4C8#0900000000000000
(1469304233.375247) can0 020#0000072B
(1469304233.375605) can0 0B4#00000000020000BE
(1469304233.375807) can0 223#000000000000002D
(1469304233.376279) can0 024#520001FB420A8046
(1469304233.376524) can0 025#000000027000009F
(1469304233.380321) can0 260#0E00000000000078
(1469304233.380841) can0 263#00000000AF001B
(1469304233.381237) can0 0AA#1A6F1A6F1A6F1A6F
(1469304233.381864) can0 1C4#090729080000FF0D
(1469304233.382355) can0 423#00
(1469304233.382916) can0 361#001C000000000000
(1469304233.384968) can0 3BC#0020000000000000
(1469304233.386993) can0 399#00000000000000
(1469304233.387156) can0 020#0000072B
(1469304233.387288) can0 0BA#060000C4
(1469304233.387579) can0 224#0000000000000008
(1469304233.388274) can0 024#520001FB420A8046
(1469304233.388521) can0 025#000000027000009F
(1469304233.390236) can0 262#000000016A
(1469304233.390956) can0 1C8#80
(1469304233.393269) can0 0AA#1A6F1A6F1A6F1A6F
(1469304233.399186) can0 020#0000072B
(1469304233.399515) can0 0B4#00000000020000BE
(1469304233.399632) can0 1D0#1226090000AC00C6
(1469304233.399896) can0 223#000000000000002D
(1469304233.400239) can0 260#0E00000000000078
(1469304233.400518) can0 024#520001FA420A8045
(1469304233.400679) can0 025#000000027000009F
(1469304233.400920) can0 2C1#0800AA0123C50066
(1469304233.405218) can0 443#4002002F06000000
(1469304233.405396) can0 0AA#1A6F1A6F1A6F1A6F
(1469304233.405588) can0 263#00000000B0001C
(1469304233.405768) can0 351#00000000
(1469304233.406469) can0 1C4#08F229080000FFF7
(1469304233.407315) can0 1C8#80
(1469304233.411236) can0 020#0000072B
(1469304233.411349) can0 0BA#060000C4
(1469304233.411624) can0 224#0000000000000008
(1469304233.412317) can0 025#000000027000009F
(1469304233.412493) can0 024#520001FB42088044
(1469304233.417344) can0 0AA#1A6F1A6F1A6F1A6F
(1469304233.417504) can0 1AA#0000000000B1
(1469304233.420249) can0 260#0E00000000000078
(1469304233.423261) can0 020#0000072B
(1469304233.423496) can0 0B4#00000000020000BE
(1469304233.423729) can0 223#000000000000002D
(1469304233.423773) can0 1C8#80
(1469304233.424316) can0 024#520001FB42088044
(1469304233.424576) can0 025#00010002900000C0
(1469304233.424814) can0 3A0#008B000000000068
(1469304233.429352) can0 0AA#1A6F1A6F1A6F1A6F
(1469304233.430049) can0 263#00000000B0001C
(1469304233.430208) can0 262#000000016A
(1469304233.431075) can0 1C4#08D829080000FFDD
(1469304233.432126) can0 1D0#11EE090000AC008D
(1469304233.433076) can0 2C1#0800B200EBC50035
(1469304233.435295) can0 020#0000072B
(1469304233.435461) can0 0BA#060000C4
(1469304233.435688) can0 224#0000000000000008
(1469304233.436235) can0 025#000000027000009F
(1469304233.436464) can0 024#520001FD42088046
(1469304233.440267) can0 260#0E00000000000078
(1469304233.440279) can0 1C8#80
(1469304233.441401) can0 0AA#1A6F1A6F1A6F1A6F
(1469304233.447347) can0 020#0000072B
(1469304233.447585) can0 0B4#00000000020000BE
(1469304233.447821) can0 223#000000000000002D
(1469304233.448301) can0 025#000000027000009F
(1469304233.448544) can0 024#520001FD42088046
(1469304233.448754) can0 361#001A000000000000
(1469304233.453504) can0 0AA#1A6F1A6F1A6F1A6F
(1469304233.454675) can0 263#00000000B0001C
(1469304233.455708) can0 1C4#08D029080000FFD5
(1469304233.456591) can0 1C8#80
(1469304233.459398) can0 020#0000072B
(1469304233.459536) can0 0BA#060000C4
(1469304233.459791) can0 224#0000000000000008
(1469304233.460215) can0 260#0E00000000000078
(1469304233.460526) can0 024#520001FD42088046
(1469304233.460619) can0 025#000000027000009F
(1469304233.464974) can0 1D0#11B7090000AC0056
(1469304233.465047) can0 351#00000000
(1469304233.465521) can0 0AA#1A6F1A6F1A6F1A6F
(1469304233.465614) can0 1AA#0000000000B1
(1469304233.465944) can0 2C1#0800B700BAC50009
(1469304233.470112) can0 262#000000016A
(1469304233.471359) can0 020#0000072B
(1469304233.471629) can0 0B4#00000000020000BE
(1469304233.471845) can0 223#000000000000002D
(1469304233.472265) can0 025#000000027000009F
(1469304233.472511) can0 024#520001FB420A8046
(1469304233.472950) can0 1C8#80
(1469304233.477522) can0 0AA#1A6F1A6F1A6F1A6F
(1469304233.479245) can0 263#00000000B0001C
(1469304233.480199) can0 260#0800000000000072
(1469304233.480370) can0 1C4#08C029080000FFC5
(1469304233.483444) can0 020#0000072B
(1469304233.483539) can0 0BA#060000C4
(1469304233.483872) can0 224#0000000000000008
(1469304233.484247) can0 025#00010002900000C0
(1469304233.484476) can0 024#520001FA420A8045
(1469304233.489489) can0 0AA#1A6F1A6F1A6F1A6F
(1469304233.489563) can0 1C8#80
(1469304233.495518) can0 020#0000072B
(1469304233.495690) can0 0B4#00000000020000BE
(1469304233.495941) can0 223#000000000000002D
(1469304233.496315) can0 025#000000027000009F
(1469304233.496495) can0 024#520001FB420A8046
(1469304233.497723) can0 1D0#1190090000AC002F
(1469304233.498671) can0 2C1#0800BF0090C500E7
(1469304233.500195) can0 260#0800000000000072
(1469304233.501598) can0 0AA#1A6F1A6F1A6F1A6F
(1469304233.503931) can0 263#00000000AF001B
(1469304233.504946) can0 1C4#08AB29080000FFB0
(1469304233.505837) can0 1C8#80
(1469304233.506860) can0 440#4202001101000000
(1469304233.507499) can0 020#0000072B
(1469304233.507634) can0 0BA#060000C4
(1469304233.507907) can0 224#0000000000000008
(1469304233.508162) can0 025#00010002900000C0
(1469304233.508451) can0 024#520001FD42088046
(1469304233.510129) can0 262#000000016A
(1469304233.513654) can0 0AA#1A6F1A6F1A6F1A6F
(1469304233.513786) can0 1AA#0000000000B1
(1469304233.514249) can0 361#0018000000000000
(1469304233.519633) can0 020#0000072B
(1469304233.519756) can0 0B4#00000000020000BE
(1469304233.520024) can0 223#000000000000002D
(1469304233.520271) can0 025#000000027000009F
(1469304233.520500) can0 024#520001FD42068044
(1469304233.520759) can0 260#0800000000000072
(1469304233.522246) can0 1C8#80
(1469304233.523286) can0 3B1#00000D0A00080000
(1469304233.524983) can0 351#00000000
(1469304233.525574) can0 0AA#1A6F1A6F1A6F1A6F
(1469304233.526511) can0 3A0#008B000000000068
(1469304233.528512) can0 263#00000000B0001C
(1469304233.529527) can0 1C4#089329080000FF98
(1469304233.530574) can0 1D0#1162090000AC0001
(1469304233.530849) can0 620#1080FFFFB0500040
(1469304233.531624) can0 2C1#0800C90070C600D2
(1469304233.531700) can0 020#0000072B
(1469304233.531957) can0 0BA#060000C4
(1469304233.532165) can0 224#0000000000000008
(1469304233.532519) can0 024#520001FD42088046
(1469304233.532635) can0 025#00010002900000C0
(1469304233.537729) can0 0AA#1A6F1A6F1A6F1A6F
(1469304233.537743) can0 354#01
(1469304233.538652) can0 1C8#80
(1469304233.540105) can0 260#0800000000000072
(1469304233.543671) can0 020#0000072B
(1469304233.543888) can0 0B4#00000000020000BE
(1469304233.544170) can0 223#000000000000002D
(1469304233.544379) can0 024#520001FD42088046
(1469304233.544673) can0 025#000000027000009F
(1469304233.546896) can0 622#1280581000000000
(1469304233.549752) can0 0AA#1A6F1A6F1A6F1A6F
(1469304233.550052) can0 262#000000016A
(1469304233.553247) can0 263#00000000B0001C
(1469304233.554245) can0 1C4#087229080000FF77
(1469304233.555136) can0 1C8#80
(1469304233.555694) can0 020#0000072B
(1469304233.555772) can0 0BA#060000C4
(1469304233.556136) can0 224#0000000000000008
(1469304233.556345) can0 025#000000027000009F
(1469304233.556631) can0 024#520001FD420A8048
(1469304233.556821) can0 4DC#1D00000200000000
(1469304233.560128) can0 260#0800000000000B7D
(1469304233.561795) can0 0AA#1A6F1A6F1A6F1A6F
(1469304233.561966) can0 1AA#0000000000B1
(1469304233.563522) can0 1D0#1122090000AC00C1
(1469304233.564521) can0 2C1#0800D80057C600C8
(1469304233.567749) can0 020#0000072B
(1469304233.567978) can0 0B4#00000000020000BE
(1469304233.568196) can0 025#000000027000009F
(1469304233.568443) can0 024#520001FB420A8046
(1469304233.568691) can0 223#000000000000002D
(1469304233.571469) can0 1C8#80
(1469304233.574021) can0 0AA#1A6F1A6F1A6F1A6F
(1469304233.577850) can0 263#00000000B0001C
(1469304233.578849) can0 1C4#086A29080000FF6F
(1469304233.579858) can0 361#0017000000000000
(1469304233.579986) can0 020#0000072B
(1469304233.580160) can0 0BA#060000C4
(1469304233.580520) can0 024#520001FD420A8048
(1469304233.580695) can0 224#0000000000000008
(1469304233.580947) can0 260#0800000000000072
(1469304233.581205) can0 025#000000027000009F
(1469304233.585021) can0 351#00000000
(1469304233.586048) can0 0AA#1A6F1A6F1A6F1A6F
(1469304233.587988) can0 1C8#80
(1469304233.590043) can0 262#000000016A
(1469304233.591935) can0 020#0000072B
(1469304233.592249) can0 0B4#00000000020000BE
(1469304233.592480) can0 024#520001FD420A8048
(1469304233.592670) can0 223#000000000000002D
(1469304233.593269) can0 025#000000027000009F
(1469304233.596325) can0 1D0#10E1090000AC007F
(1469304233.597297) can0 2C1#0800DC004AC600BF
(1469304233.598071) can0 0AA#1A6F1A6F1A6F1A6F
(1469304233.599359) can0 3F9#5198260100000014
(1469304233.600158) can0 260#0800000000001486
(1469304233.602521) can0 263#00000000B0001C
(1469304233.603373) can0 442#4302000001000000
(1469304233.603547) can0 1C4#084629080000FF4B
(1469304233.604014) can0 020#0000072B
(1469304233.604109) can0 0BA#060000C4
(1469304233.604439) can0 024#520001FD42088046
(1469304233.604467) can0 1C8#80
(1469304233.604813) can0 224#0000000000000008
(1469304233.604882) can0 394#4300
(1469304233.605200) can0 025#000000027000009F
(1469304233.605521) can0 387#0000000000003F3F
(1469304233.610106) can0 0AA#1A6F1A6F1A6F1A6F
(1469304233.610260) can0 1AA#0000000000B1
(1469304233.616072) can0 020#0000072B
(1469304233.616303) can0 0B4#00000000020000BE
(1469304233.616533) can0 024#520001FD42088046
(1469304233.616807) can0 223#000000000000002D
(1469304233.617243) can0 025#000000027000009F
(1469304233.619745) can0 3D0#00
(1469304233.620110) can0 260#0800000000001486
(1469304233.620814) can0 1C8#80
(1469304233.622197) can0 0AA#1A6F1A6F1A6F1A6F
(1469304233.623375) can0 4DD#1E00000000000000
(1469304233.625578) can0 3A0#008B000000000068
(1469304233.627120) can0 263#00000000B0001C
(1469304233.628123) can0 1C4#084029080000FF45
(1469304233.628216) can0 020#0000072B
(1469304233.628472) can0 0BA#060000C4
(1469304233.628643) can0 224#0000000000000008
(1469304233.629021) can0 025#000000027000009F
(1469304233.629274) can0 1D0#10AE090000AC004C
(1469304233.629490) can0 024#520001FD420A8048
(1469304233.630064) can0 2C1#0800E40038C700B6
(1469304233.630234) can0 262#000000016A
(1469304233.634199) can0 0AA#1A6F1A6F1A6F1A6F
(1469304233.635247) can0 389#0000000000000000
(1469304233.637241) can0 1C8#80
(1469304233.640100) can0 260#0800000000000072
(1469304233.640169) can0 020#0000072B
(1469304233.640453) can0 0B4#00000000020000BE
(1469304233.640688) can0 223#000000000000002D
(1469304233.641146) can0 025#000000027000009F
(1469304233.641344) can0 024#520001FD420A8048
(1469304233.644994) can0 351#00000000
(1469304233.645570) can0 361#0016000000000000
(1469304233.646244) can0 0AA#1A6F1A6F1A6F1A6F
(1469304233.651723) can0 263#00000000B0001C
(1469304233.652188) can0 020#0000072B
(1469304233.652282) can0 0BA#060000C4
(1469304233.652622) can0 224#0000000000000008
(1469304233.652795) can0 1C4#082A29080000FF2F
(1469304233.653049) can0 025#000000027000009F
(1469304233.653396) can0 024#520001FD420A8048
(1469304233.653586) can0 1C8#80
(1469304233.658274) can0 0AA#1A6F1A6F1A6F1A6F
(1469304233.658468) can0 1AA#0000000000B1
(1469304233.658645) can0 3B7#583B000000000008
(1469304233.659994) can0 260#0800000000001486
(1469304233.662000) can0 1D0#107A090000AC0018
(1469304233.662972) can0 2C1#0800EE0029C700B1
(1469304233.664200) can0 020#0000072B
(1469304233.664521) can0 0B4#00000000020000BE
(1469304233.664670) can0 223#000000000000002D
(1469304233.665143) can0 025#000000027000009F
(1469304233.665319) can0 38E#2020000000000000
(1469304233.665574) can0 024#520001FD420A8048
(1469304233.670102) can0 262#000000016A
(1469304233.670120) can0 1C8#80
(1469304233.670436) can0 0AA#1A6F1A6F1A6F1A6F
(1469304233.676248) can0 020#0000072B
(1469304233.676339) can0 0BA#060000C4
(1469304233.676672) can0 224#0000000000000008
(1469304233.676842) can0 263#00000000B0001C
(1469304233.677146) can0 025#000000027000009F
(1469304233.677344) can0 024#520001FB42088044
(1469304233.677580) can0 1C4#082229080000FF27
(1469304233.680076) can0 260#0800000000001486
(1469304233.682320) can0 0AA#1A6F1A6F1A6F1A6F
(1469304233.686515) can0 1C8#80
(1469304233.688245) can0 020#0000072B
(1469304233.688484) can0 0B4#00000000020000BE
(1469304233.688787) can0 223#000000000000002D
(1469304233.689081) can0 025#00010002900000C0
(1469304233.689321) can0 024#520001FB42088044
(1469304233.694348) can0 0AA#1A6F1A6F1A6F1A6F
(1469304233.694896) can0 1D0#104F090000AC00ED
(1469304233.695225) can0 38F#0300000000000000
(1469304233.695879) can0 2C1#0800F10020C700AB
(1469304233.700101) can0 260#0800000000001486
(1469304233.700207) can0 020#0000072B
(1469304233.700436) can0 0BA#060000C4
(1469304233.700739) can0 224#0000000000000008
(1469304233.700962) can0 025#000000027000009F
(1469304233.701181) can0 263#00000000B0001C
(1469304233.701481) can0 024#520001FD42088046
(1469304233.702045) can0 1C4#081129080000FF16
(1469304233.702937) can0 1C8#80
(1469304233.704968) can0 351#00000000
(1469304233.705164) can0 443#4002002F06000000
(1469304233.706396) can0 0AA#1A6F1A6F1A6F1A6F
(1469304233.706568) can0 1AA#0000000000B1
(1469304233.706824) can0 380#C0A0400000004100
(1469304233.707170) can0 3B0#00B5005600180000
(1469304233.709960) can0 262#000000016A
(1469304233.711220) can0 361#0016000000000000
(1469304233.712349) can0 020#0000072B
(1469304233.712585) can0 0B4#00000000020000BE
(1469304233.712885) can0 223#000000000000002D
(1469304233.713043) can0 025#000000027000009F
(1469304233.713394) can0 024#520001FF420A804A
(1469304233.718525) can0 0AA#1A6F1A6F1A6F1A6F
(1469304233.719362) can0 1C8#80
(1469304233.720006) can0 260#0800000000001486
(1469304233.724419) can0 020#0000072B
(1469304233.724499) can0 0BA#060000C4
(1469304233.724838) can0 224#0000000000000008
(1469304233.725037) can0 025#000000027000009F
(1469304233.725292) can0 3A0#008B000007000068
(1469304233.725522) can0 024#520001FF420A804A
(1469304233.725769) can0 263#00000000B0001C
(1469304233.726011) can0 3A5#0000000000007EFC
(1469304233.726670) can0 1C4#080529080000FF0A
(1469304233.726870) can0 6E1#A180000000100000
(1469304233.727631) can0 1D0#102E090000AC00CC
(1469304233.728594) can0 2C1#0800F90019C700AC
(1469304233.730483) can0 0AA#1A6F1A6F1A6F1A6F
(1469304233.735765) can0 1C8#80
(1469304233.736515) can0 020#0000072B
(1469304233.736664) can0 0B4#00000000020000BE
(1469304233.736918) can0 223#000000000000002D
(1469304233.737172) can0 025#000000027000009F
(1469304233.737393) can0 024#520001FD420A8048
(1469304233.740099) can0 260#08FFFF0000001484
(1469304233.742574) can0 0AA#1A6F1A6F1A6F1A6F
(1469304233.742938) can0 354#01
(1469304233.745550) can0 382#2338380000000000
(1469304233.745860) can0 381#0001019080000000
(1469304233.748519) can0 020#0000072B
(1469304233.748594) can0 0BA#060000C4
(1469304233.748931) can0 224#0000000000000008
(1469304233.749131) can0 025#000000027000009F
(1469304233.749358) can0 024#520001FD420A8048
(1469304233.749967) can0 262#000000016A
(1469304233.750187) can0 263#00000000B0001C
(1469304233.751215) can0 1C4#07FE29080000FF02
(1469304233.752186) can0 1C8#80
(1469304233.754596) can0 0AA#1A6F1A6F1A6F1A6F
(1469304233.754742) can0 1AA#0000000000B1
(1469304233.755219) can0 413#0101010900000000
(1469304233.760054) can0 260#0800000000001486
(1469304233.760502) can0 1D0#1009090000AC00A7
(1469304233.760609) can0 020#0000072B
(1469304233.760889) can0 0B4#00000000020000BE
(1469304233.761219) can0 025#000000027000009F
(1469304233.761364) can0 024#520001FB42088044
(1469304233.761617) can0 223#000000000000002D
(1469304233.761874) can0 2C1#08018E0014CC0042
(1469304233.764945) can0 351#00000000
(1469304233.766626) can0 0AA#1A6F1A6F1A6F1A6F
(1469304233.768591) can0 1C8#80
(1469304233.772540) can0 020#0000072B
(1469304233.772630) can0 0BA#060000C4
(1469304233.772963) can0 025#000000027000009F
(1469304233.773221) can0 224#0000000000000008
(1469304233.773520) can0 024#520001FB42088044
(1469304233.774895) can0 263#00000000B0001C
(1469304233.775932) can0 1C4#07F829080000FFFC
(1469304233.776946) can0 361#0016000000000000
(1469304233.778622) can0 0AA#1A6F1A6F1A6F1A6F
(1469304233.780026) can0 260#0800000000001486
(1469304233.780370) can0 610#2000006480FFFD60
(1469304233.784569) can0 020#0000072B
(1469304233.784782) can0 0B4#00000000020000BE
(1469304233.785074) can0 025#000000027000009F
(1469304233.785092) can0 1C8#80
(1469304233.785434) can0 223#000000000000002D
(1469304233.785621) can0 024#520001FD42088046
(1469304233.785920) can0 434#3F00000000000000
(1469304233.790019) can0 262#000000016A
(1469304233.790673) can0 0AA#1A6F1A6F1A6F1A6F
(1469304233.793348) can0 1D0#0FFB090000AC0098
(1469304233.794325) can0 2C1#08019D000ECC004B
(1469304233.796619) can0 020#0000072B
(1469304233.796724) can0 0BA#060000C4
(1469304233.797033) can0 224#0000000000000008
(1469304233.797232) can0 025#000000027000009F
(1469304233.797475) can0 024#520001FD42088046
(1469304233.799521) can0 263#00000000B0001C
(1469304233.800003) can0 260#0800010000001487
(1469304233.800478) can0 1C4#07E729080000FFEB
(1469304233.801365) can0 1C8#80
(1469304233.802739) can0 0AA#1A6F1A6F1A6F1A6F
(1469304233.802833) can0 1AA#0000000000B1
(1469304233.806850) can0 440#4202001101000000
(1469304233.808671) can0 020#0000072B
(1469304233.808864) can0 0B4#00000000020000BE
(1469304233.809116) can0 025#000000027000009F
(1469304233.809372) can0 223#000000000000002D
(1469304233.809601) can0 024#520001FF42088048
(1469304233.811852) can0 6E2#A28000FEFEFEFEFE
(1469304233.813423) can0 4AC#2800600100000324
(1469304233.814747) can0 0AA#1A6F1A6F1A6F1A6F
(1469304233.815220) can0 435#0F0505FFE00FE003
(1469304233.817814) can0 1C8#80
(1469304233.820004) can0 260#0800000000001486
(1469304233.820667) can0 020#0000072B
(1469304233.820760) can0 0BA#060000C4
(1469304233.821068) can0 224#0000000000000008
(1469304233.821327) can0 025#000000027000009F
(1469304233.821558) can0 024#520001FD42088046
(1469304233.823395) can0 3B1#00000D0900080000
(1469304233.824129) can0 263#00000000B0001C
(1469304233.824864) can0 351#00000000
(1469304233.825112) can0 1C4#07D529080000FFD9
(1469304233.826200) can0 1D0#0FDD090000AC007A
(1469304233.826520) can0 3A0#008B000007000068
(1469304233.826902) can0 0AA#1A6F1A6F1A6F1A6F
(1469304233.827126) can0 2C1#0801B40015CD006A
(1469304233.829902) can0 262#000000016A
(1469304233.830808) can0 620#1000FFFFB0500040
(1469304233.832854) can0 020#0000072B
(1469304233.833148) can0 0B4#00000000020000BE
(1469304233.833345) can0 223#000000000000002D
(1469304233.833576) can0 024#520001FD420A8048
(1469304233.833995) can0 025#000000027000009F
(1469304233.834184) can0 1C8#80
(1469304233.838934) can0 0AA#1A6F1A6F1A6F1A6F
(1469304233.839953) can0 260#0800000000001486
(1469304233.842599) can0 361#0016000000000000
(1469304233.844921) can0 020#0000072B
(1469304233.845013) can0 0BA#060000C4
(1469304233.845358) can0 224#0000000000000008
(1469304233.845546) can0 024#520001FB420A8046
(1469304233.845801) can0 436#0000000000000000
(1469304233.846054) can0 025#000000027000009F
(1469304233.848712) can0 263#00000000B0001C
(1469304233.849750) can0 1C4#07C629080000FFCA
(1469304233.850637) can0 1C8#80
(1469304233.850994) can0 0AA#1A6F1A6F1A6F1A6F
(1469304233.851182) can0 1AA#0000000000B1
(1469304233.855844) can0 3F9#5198260100000014
(1469304233.856966) can0 020#0000072B
(1469304233.857165) can0 0B4#00000000020000BE
(1469304233.857486) can0 024#520001FB42088044
(1469304233.857669) can0 223#000000000000002D
(1469304233.858045) can0 025#000000027000009F
(1469304233.858891) can0 3D3#020B
(1469304233.859122) can0 1D0#0FB3090000AC0050
(1469304233.859963) can0 2C1#0801E2001DCF00A2
(1469304233.860179) can0 260#0800000000001486
(1469304233.862967) can0 0AA#1A6F1A6F1A6F1A6F
(1469304233.867089) can0 1C8#80
(1469304233.868970) can0 020#0000072B
(1469304233.869063) can0 0BA#060000C4
(1469304233.869412) can0 224#0000000000000008
(1469304233.869597) can0 024#520001FD42088046
(1469304233.869849) can0 025#000000027000009F
(1469304233.870008) can0 262#000000016A
(1469304233.873341) can0 263#00000000B0001C
(1469304233.874424) can0 1C4#07B829080000FFBC
(1469304233.875096) can0 0AA#1A6F1A6F1A6F1A6F
(1469304233.875295) can0 437#FCFFFFFFFFFFFFFF
(1469304233.876295) can0 3D0#00
(1469304233.879998) can0 260#0800000000001486
(1469304233.881042) can0 020#0000072B
(1469304233.881248) can0 0B4#00000000020000BE
(1469304233.881503) can0 024#520001FD42088046
(1469304233.881725) can0 223#000000000000002D
(1469304233.881974) can0 025#000000027000009F
(1469304233.883462) can0 1C8#80
(1469304233.884842) can0 351#00000000
(1469304233.887124) can0 0AA#1A6F1A6F1A6F1A6F
(1469304233.891873) can0 1D0#0F81090000AC001E
(1469304233.892804) can0 2C1#0801D2002ACE009E
(1469304233.893047) can0 020#0000072B
(1469304233.893211) can0 0BA#060000C4
(1469304233.893478) can0 024#520001FF42088048
(1469304233.893728) can0 224#0000000000000008
(1469304233.894020) can0 025#000000027000009F
(1469304233.898024) can0 263#00000000B0001C
(1469304233.899049) can0 1C4#07AF29080000FFB3
(1469304233.899191) can0 0AA#1A6F1A6F1A6F1A6F
(1469304233.899520) can0 1AA#0000000000B1
(1469304233.899975) can0 260#08FFFF0000001484
(1469304233.899995) can0 1C8#80
(1469304233.903307) can0 442#4302000001000000
(1469304233.904713) can0 394#4300
(1469304233.905134) can0 020#0000072B
(1469304233.905424) can0 0B4#00000000020000BE
(1469304233.905566) can0 223#000000000000002D
(1469304233.905922) can0 025#000000027000009F
(1469304233.906394) can0 024#520001FD420A8048
(1469304233.908300) can0 361#0017000000000000
(1469304233.909943) can0 262#000000016A
(1469304233.911247) can0 0AA#1A6F1A6F1A6F1A6F
(1469304233.916344) can0 1C8#80
(1469304233.917191) can0 020#0000072B
(1469304233.917274) can0 0BA#05FD00C0
(1469304233.917623) can0 224#0000000000000008
(1469304233.917830) can0 025#000000027000009F
(1469304233.918395) can0 024#520001FB420A8046
(1469304233.919983) can0 260#08FFFF0000001484
(1469304233.922623) can0 263#00000000B0001C
(1469304233.923272) can0 0AA#1A6F1A6F1A6F1A6F
(1469304233.923676) can0 1C4#07A729080000FFAB
(1469304233.924696) can0 1D0#0F69090000AC0006
(1469304233.925526) can0 3A0#008B000007000068
(1469304233.925672) can0 2C1#0801DD0036CE00B5
(1469304233.929219) can0 020#0000072B
(1469304233.929523) can0 0B4#00000000000000BC
(1469304233.929635) can0 223#000000000000002D
(1469304233.929970) can0 025#000000027000009F
(1469304233.930396) can0 024#520001FB420A8046
(1469304233.932765) can0 1C8#80
(1469304233.935322) can0 0AA#1A6F1A6F1A6F1A6F
(1469304233.939949) can0 260#08FFFF0000001484
(1469304233.941292) can0 020#0000072B
(1469304233.941434) can0 0BA#05FB00BE
(1469304233.941715) can0 224#0000000000000008
(1469304233.941923) can0 025#000000027000009F
(1469304233.942415) can0 024#020001FB420A80F6
(1469304233.944792) can0 351#00000000
(1469304233.947245) can0 263#00000000B0001C
(1469304233.947539) can0 0AA#1A6F1A6F1A6F1A6F
(1469304233.947600) can0 1AA#0000000000B1
(1469304233.948272) can0 1C4#079329080000FF97
(1469304233.948290) can0 354#01
(1469304233.949160) can0 1C8#80
(1469304233.949870) can0 262#000000016A
(1469304233.953348) can0 020#0000072B
(1469304233.953554) can0 0B4#00000000000000BC
(1469304233.953849) can0 223#000000000000002D
(1469304233.954052) can0 025#000000027000009F
(1469304233.954393) can0 024#020001FD420A80F8
(1469304233.957473) can0 1D0#0F46090000AC00E3
(1469304233.958461) can0 2C1#08015F0043CA0040
(1469304233.959385) can0 0AA#1A6F1A6F1A6F1A6F
(1469304233.959638) can0 3B7#583B000000000008
(1469304233.959898) can0 260#0800000000001486
(1469304233.965393) can0 020#0000072B
(1469304233.965483) can0 0BA#05FD00C0
(1469304233.965825) can0 025#00010002900000C0
(1469304233.965843) can0 1C8#80
(1469304233.966184) can0 224#0000000000000008
(1469304233.966394) can0 024#020001FD420A80F8
(1469304233.971526) can0 0AA#1A6F1A6F1A6F1A6F
(1469304233.971896) can0 263#00000000B0001C
(1469304233.972921) can0 1C4#078D29080000FF91
(1469304233.973971) can0 361#0017000000000000
(1469304233.977420) can0 020#0000072B
(1469304233.977638) can0 0B4#00000000000000BC
(1469304233.977922) can0 025#00010002900000C0
(1469304233.978127) can0 223#000000000000002D
(1469304233.978419) can0 024#020001FD420A80F8
(1469304233.979948) can0 260#0800000000001486
(1469304233.982038) can0 1C8#80
(1469304233.983530) can0 0AA#1A6F1A6F1A6F1A6F
(1469304233.989449) can0 020#0000072B
(1469304233.989527) can0 0BA#05FD00C0
(1469304233.989871) can0 224#0000000000000008
(1469304233.990079) can0 025#000000027000009F
(1469304233.990278) can0 262#000000016A
(1469304233.990559) can0 024#020001FD420A80F8
(1469304233.990762) can0 1D0#0F29090000AC00C6
(1469304233.991313) can0 2C1#08016E004ECB005B
(1469304233.995487) can0 0AA#1A6F1A6F1A6F1A6F
(1469304233.995770) can0 1AA#0000000000B1
(1469304233.996525) can0 263#00000000B0001C
(1469304233.997526) can0 1C4#077629080000FF7A
(1469304233.998372) can0 1C8#80
(1469304233.999899) can0 260#0800000000001486
(1469304234.001520) can0 020#0000072B
(1469304234.001707) can0 0B4#00000000000000BC
(1469304234.001930) can0 025#000000027000009F
(1469304234.002184) can0 223#000000000000002D
(1469304234.002526) can0 024#020001FB420A80F6
(1469304234.004732) can0 351#00000000
(1469304234.005133) can0 443#4002002F06000000
(1469304234.007509) can0 0AA#1A6F1A6F1A6F1A6F
(1469304234.013526) can0 020#0000072B
(1469304234.013580) can0 0BA#05FB00BE
(1469304234.013936) can0 224#0000000000000008
(1469304234.014122) can0 025#000000027000009F
(1469304234.014601) can0 024#020001FB420A80F6
(1469304234.014805) can0 1C8#80
(1469304234.014998) can0 3BB#0000B000
(1469304234.019604) can0 0AA#1A6F1A6F1A6F1A6F
(1469304234.019813) can0 260#0800000000001486
(1469304234.021124) can0 263#00000000B0001C
(1469304234.022152) can0 1C4#076A29080000FF6E
(1469304234.023201) can0 1D0#0F07090000AC00A4
(1469304234.024156) can0 2C1#0801C50057CE00BE
(1469304234.025520) can0 020#0000072B
(1469304234.025825) can0 0B4#00000000000000BC
(1469304234.026030) can0 025#000000027000009F
(1469304234.026321) can0 223#000000000000002D
(1469304234.026509) can0 024#020001FD420880F6
(1469304234.027527) can0 3A0#008B000007000068
(1469304234.029895) can0 262#000000016A
(1469304234.031238) can0 1C8#80
(1469304234.031657) can0 0AA#1A6F1A6F1A6F1A6F
(1469304234.037568) can0 020#0000072B
(1469304234.037655) can0 0BA#05FD00C0
(1469304234.038012) can0 224#0000000000000008
(1469304234.038437) can0 024#020001FD420A80F8
(1469304234.038726) can0 025#000000027000009F
(1469304234.039601) can0 361#0017000000000000
(1469304234.039898) can0 260#08FFFF0000001484
(1469304234.043676) can0 0AA#1A6F1A6F1A6F1A6F
(1469304234.043783) can0 1AA#0000000000B1
(1469304234.045711) can0 263#00000000B0001C
(1469304234.046770) can0 1C4#075A29080000FF5E
(1469304234.047673) can0 1C8#80
(1469304234.049617) can0 020#0000072B
(1469304234.049825) can0 0B4#00000000000000BC
(1469304234.050114) can0 223#000000000000002D
(1469304234.050438) can0 024#020001FD420880F6
(1469304234.050773) can0 025#00010002900000C0
(1469304234.055699) can0 0AA#1A6F1A6F1A6F1A6F
(1469304234.055980) can0 1D0#0EDC090000AC0078
(1469304234.056998) can0 2C1#0801950059CC008E
(1469304234.059901) can0 260#0800000000001486
(1469304234.061642) can0 020#0000072B
(1469304234.061728) can0 0BA#05FD00C0
(1469304234.062062) can0 224#0000000000000008
(1469304234.062439) can0 024#020001FD420A80F8
(1469304234.062669) can0 025#000000027000009F
(1469304234.064069) can0 1C8#80
(1469304234.064718) can0 351#00000000
(1469304234.067900) can0 0AA#1A6F1A6F1A6F1A6F
(1469304234.069709) can0 262#000000016A
(1469304234.070321) can0 263#00000000B0001C
(1469304234.071396) can0 1C4#075029080000FF54
(1469304234.073783) can0 020#0000072B
(1469304234.074028) can0 0B4#00000000000000BC
(1469304234.074256) can0 223#000000000000002D
(1469304234.074479) can0 024#020001FB420880F4
(1469304234.074728) can0 025#000000027000009F
(1469304234.079856) can0 260#08FFFF0000001484
(1469304234.080025) can0 0AA#1A6F1A6F1A6F1A6F
(1469304234.080512) can0 1C8#80
(1469304234.085843) can0 020#0000072B
(1469304234.085938) can0 0BA#05FB00BE
(1469304234.086238) can0 224#0000000000000008
(1469304234.086522) can0 024#020001FB420A80F6
(1469304234.086701) can0 025#000000027000009F
(1469304234.088848) can0 1D0#0EB1090000AC004D
(1469304234.089799) can0 2C1#0801A1005CCD009E
(1469304234.091978) can0 0AA#1A6F1A6F1A6F1A6F
(1469304234.092121) can0 1AA#0000000000B1
(1469304234.094971) can0 263#00000000B0001C
(1469304234.095972) can0 1C4#074629080000FF4A
(1469304234.096886) can0 1C8#80
(1469304234.097892) can0 020#0000072B
(1469304234.098133) can0 0B4#00000000000000BC
(1469304234.098353) can0 223#000000000000002D
(1469304234.098655) can0 024#020001FB420A80F6
(1469304234.098846) can0 025#000000027000009F
(1469304234.099856) can0 260#0800000000001486
(1469304234.103948) can0 0AA#1A6F1A6F1A6F1A6F
(1469304234.105272) can0 361#0017000000000000
(1469304234.106771) can0 440#4202001101000000
(1469304234.109723) can0 262#000000016A
(1469304234.109913) can0 020#0000072B
(1469304234.110077) can0 0BA#05FB00BE
(1469304234.110357) can0 224#0000000000000008
(1469304234.110656) can0 024#020001FD420880F6
(1469304234.110846) can0 025#000000027000009F
(1469304234.112389) can0 3F9#5198260100000014
(1469304234.113230) can0 1C8#80
(1469304234.116001) can0 0AA#1A6F1A6F1A6F1A6F
(1469304234.119598) can0 263#00000000B0001C
(1469304234.119793) can0 260#08FFFF0000001484
(1469304234.120622) can0 1C4#073E29080000FF42
(1469304234.121648) can0 1D0#0E8D090000AC0029
(1469304234.121991) can0 020#0000072B
(1469304234.122221) can0 0B4#00000000000000BC
(1469304234.122523) can0 024#020001FD420A80F8
(1469304234.122694) can0 025#000000027000009F
(1469304234.122953) can0 223#000000000000002D
(1469304234.123179) can0 2C1#0801AC005BCD00A8
(1469304234.123471) can0 4C3#0300000100000000
(1469304234.124766) can0 351#00000000
(1469304234.126476) can0 3A0#008B000007000067
(1469304234.128079) can0 0AA#1A6F1A6F1A6F1A6F
(1469304234.129714) can0 1C8#80
(1469304234.130797) can0 620#1000FFFFB0500040
(1469304234.132764) can0 3D0#00
(1469304234.134015) can0 020#0000072B
(1469304234.134108) can0 0BA#05FD00C0
(1469304234.134436) can0 224#0000000000000008
(1469304234.134646) can0 024#020001FD420880F6
(1469304234.134897) can0 025#000000027000009F
(1469304234.139799) can0 621#1100000000000000
(1469304234.139970) can0 260#08FFFF0000001484
(1469304234.140199) can0 0AA#1A6F1A6F1A6F1A6F
(1469304234.140480) can0 1AA#0000000000B1
(1469304234.144203) can0 263#00000000B0001C
(1469304234.145221) can0 1C4#073029080000FF34
(1469304234.145996) can0 020#0000072B
(1469304234.146319) can0 0B4#00000000000000BC
(1469304234.146496) can0 024#020001FD420A80F8
(1469304234.146749) can0 025#000000027000009F
(1469304234.146803) can0 1C8#80
(1469304234.147169) can0 223#000000000000002D
(1469304234.148800) can0 623#1900000000000000
(1469304234.149820) can0 262#000000016A
(1469304234.152150) can0 0AA#1A6F1A6F1A6F1A6F
(1469304234.153292) can0 354#01
(1469304234.154521) can0 1D0#0E7A090000AC0016
(1469304234.155446) can0 2C1#0801BB0060CD00BC
(1469304234.157771) can0 624#1A00414949400000
(1469304234.158090) can0 020#0000072B
(1469304234.158184) can0 0BA#05FD00C0
(1469304234.158521) can0 024#020001FB420880F4
(1469304234.158695) can0 025#000000027000009F
(1469304234.158949) can0 224#0000000000000008
(1469304234.159831) can0 260#0800000000001486
(1469304234.162514) can0 1C8#80
(1469304234.164201) can0 0AA#1A6F1A6F1A6F1A6F
(1469304234.166773) can0 626#1C00300000000000
(1469304234.168827) can0 263#00000000B0001C
(1469304234.169849) can0 1C4#071F29080000FF23
(1469304234.170118) can0 020#0000072B
(1469304234.170356) can0 0B4#00000000000000BC
(1469304234.170658) can0 024#020001FD420A80F8
(1469304234.170845) can0 025#000000027000009F
(1469304234.171099) can0 223#000000000000002D
(1469304234.171348) can0 361#0017000000000000
(1469304234.175787) can0 638#1300180100000000
(1469304234.176181) can0 0AA#1A6F1A6F1A6F1A6F
(1469304234.178959) can0 1C8#80
(1469304234.179773) can0 260#0800000000001486
(1469304234.182166) can0 020#0000072B
(1469304234.182260) can0 0BA#05FD00C0
(1469304234.182596) can0 025#000000027000009F
(1469304234.182794) can0 224#0000000000000008
(1469304234.183445) can0 024#020001FD420A80F8
(1469304234.184643) can0 351#00000000
(1469304234.184813) can0 63C#98005A5245172060
(1469304234.187249) can0 1D0#0E5D090000AC00F9
(1469304234.188224) can0 2C1#0801ED0064CF00F4
(1469304234.188470) can0 0AA#1A6F1A6F1A6F1A6F
(1469304234.188635) can0 1AA#0000000000B1
(1469304234.189673) can0 262#000000016A
(1469304234.193478) can0 263#00000000B0001C
(1469304234.193699) can0 63D#9900444558534B00
(1469304234.194245) can0 020#0000072B
(1469304234.194487) can0 0B4#00000000000000BC
(1469304234.194708) can0 025#000000027000009F
(1469304234.194931) can0 1C4#071629080000FF1A
(1469304234.195182) can0 223#000000000000002D
(1469304234.195477) can0 024#020001FD420880F6
(1469304234.195687) can0 4C1#0100000500000000
(1469304234.195748) can0 1C8#80
(1469304234.199783) can0 260#0800000000001486
(1469304234.200320) can0 0AA#1A6F1A6F1A6F1A6F
(1469304234.202773) can0 680#D800010000000000
(1469304234.203348) can0 442#4302000001000000
(1469304234.204540) can0 394#4300
(1469304234.206241) can0 020#0000072B
(1469304234.206334) can0 0BA#05FD00C0
(1469304234.206696) can0 224#0000000000000008
(1469304234.206869) can0 025#000000027000009F
(1469304234.207445) can0 024#020001FD420A80F8
(1469304234.211765) can0 1C8#80
(1469304234.212359) can0 0AA#1A6F1A6F1A6F1A6F
(1469304234.218046) can0 263#00000000B0001C
(1469304234.218241) can0 020#0000072B
(1469304234.218501) can0 0B4#00000000000000BC
(1469304234.218759) can0 025#00010002900000C0
(1469304234.219031) can0 223#000000000000002D
(1469304234.219220) can0 1C4#070A29080000FF0E
(1469304234.219476) can0 024#020001FD420880F6
(1469304234.219815) can0 260#0800000000001486
(1469304234.220133) can0 1D0#0E3A090000AC00D6
(1469304234.221095) can0 2C1#0801D30067CE00DC
(1469304234.224381) can0 0AA#1A6F1A6F1A6F1A6F
(1469304234.225525) can0 3A0#008B000007000067
(1469304234.228188) can0 1C8#80
(1469304234.229667) can0 262#000000016A
(1469304234.230314) can0 020#0000072B
(1469304234.230465) can0 0BA#05FD00C0
(1469304234.230717) can0 224#0000000000000008
(1469304234.230973) can0 025#000000027000009F
(1469304234.231438) can0 024#020001FB420A80F6
(1469304234.236425) can0 0AA#1A6F1A6F1A6F1A6F
(1469304234.236568) can0 1AA#0000000000B1
(1469304234.236823) can0 361#0017000000000000
(1469304234.239756) can0 260#08FFFF0000001484
(1469304234.242344) can0 020#0000072B
(1469304234.242581) can0 0B4#00000000000000BC
(1469304234.242804) can0 025#000000027000009F
(1469304234.243107) can0 223#000000000000002D
(1469304234.243267) can0 263#00000000B0001C
(1469304234.243526) can0 024#020001FB420A80F6
(1469304234.243772) can0 1C4#06FA28080000FFFC
(1469304234.244589) can0 1C8#80
(1469304234.244684) can0 351#00000000
(1469304234.248530) can0 0AA#1A6F1A6F1A6F1A6F
(1469304234.252949) can0 1D0#0E1A090000AC00B6
(1469304234.253925) can0 2C1#0801E8006BCF00F6
(1469304234.254346) can0 640#A800005701330000
(1469304234.254436) can0 020#0000072B
(1469304234.254684) can0 0BA#05FB00BE
(1469304234.254882) can0 224#0000000000000008
(1469304234.255135) can0 420#00000000FB0180A8
(1469304234.255530) can0 024#020001FD420A80F8
(1469304234.255624) can0 025#000000027000009F
(1469304234.259772) can0 260#0800000000001486
(1469304234.260521) can0 0AA#1A6F1A6F1A6F1A6F
(1469304234.260694) can0 3B7#583B000000000008
(1469304234.260939) can0 1C8#80
(1469304234.266453) can0 020#0000072B
(1469304234.266646) can0 0B4#00000000000000BC
(1469304234.266898) can0 223#000000000000002D
(1469304234.267294) can0 263#00000000B0001C
(1469304234.267500) can0 024#020001FD420A80F8
(1469304234.267757) can0 025#000000027000009F
(1469304234.268332) can0 1C4#06ED28080000FFEF
(1469304234.269747) can0 262#000000016A
(1469304234.272555) can0 0AA#1A6F1A6F1A6F1A6F
(1469304234.277420) can0 1C8#80
(1469304234.278527) can0 020#0000072B
(1469304234.278585) can0 0BA#05FD00C0
(1469304234.278937) can0 224#0000000000000008
(1469304234.279526) can0 024#020001FD420880F6
(1469304234.279621) can0 025#00010002900000C0
(1469304234.279943) can0 260#0800000000001486
(1469304234.281395) can0 610#2000006480FFFD60
(1469304234.284625) can0 0AA#1A6F1A6F1A6F1A6F
(1469304234.284795) can0 1AA#0000000000B1
(1469304234.285770) can0 1D0#0DF1090000AC008C
(1469304234.286726) can0 2C1#0801F50071CF0009
(1469304234.288683) can0 4C6#0700030000000000
(1469304234.290565) can0 020#0000072B
(1469304234.290780) can0 0B4#00000000000000BC
(1469304234.291068) can0 223#000000000000002D
(1469304234.291522) can0 024#020001FD420880F6
(1469304234.291648) can0 025#00010002900000C0
(1469304234.291870) can0 263#00000000B0001C
(1469304234.292919) can0 1C4#06DC28080000FFDE
(1469304234.293366) can0 611#21000020000062D4
(1469304234.293806) can0 1C8#80
(1469304234.296609) can0 0AA#1A6F1A6F1A6F1A6F
(1469304234.299724) can0 260#0800000000001486
(1469304234.302166) can0 361#0017000000000000
(1469304234.302585) can0 020#0000072B
(1469304234.302694) can0 0BA#05FD00C0
(1469304234.302959) can0 224#0000000000000008
(1469304234.303528) can0 024#020001FD420880F6
(1469304234.303649) can0 025#000000027000009F
(1469304234.304531) can0 351#00000000
(1469304234.305184) can0 443#4002002F06000000
(1469304234.308692) can0 0AA#1A6F1A6F1A6F1A6F
(1469304234.309587) can0 262#000000016A
(1469304234.310199) can0 1C8#80
(1469304234.313514) can0 4AC#4800A00100000324
(1469304234.314608) can0 020#0000072B
(1469304234.314906) can0 0B4#00000000000000BC
(1469304234.315140) can0 223#000000000000002D
(1469304234.315514) can0 024#020001FB420880F4
(1469304234.315650) can0 025#000000027000009F
(1469304234.316511) can0 263#00000000B0001C
(1469304234.317535) can0 1C4#06D528080000FFD7
(1469304234.318585) can0 1D0#0DD5090000AC0070
(1469304234.319541) can0 2C1#08020F0079D0002D
(1469304234.319805) can0 260#08FFFF0000001484
(1469304234.320884) can0 0AA#1A6F1A6F1A6F1A6F
(1469304234.323508) can0 3B1#00000D0500080000
(1469304234.326625) can0 1C8#80
(1469304234.326803) can0 020#0000072B
(1469304234.326981) can0 0BA#05FB00BE
(1469304234.327217) can0 224#0000000000000008
(1469304234.327477) can0 024#020001FB420880F4
(1469304234.327760) can0 025#00010002900000C0
(1469304234.327942) can0 3A0#008B000007000068
(1469304234.332896) can0 0AA#1A6F1A6F1A6F1A6F
(1469304234.333089) can0 1AA#0000000000B1
(1469304234.338855) can0 020#0000072B
(1469304234.339126) can0 0B4#00000000000000BC
(1469304234.339298) can0 223#000000000000002D
(1469304234.339584) can0 024#020001FD420A80F8
(1469304234.339875) can0 025#00010002900000C0
(1469304234.340081) can0 260#08FFFF0000001484
(1469304234.341134) can0 263#00000000B0001C
(1469304234.342163) can0 1C4#06C928080000FFCB
(1469304234.343025) can0 1C8#80
(1469304234.344961) can0 0AA#1A6F1A6F1A6F1A6F
(1469304234.349582) can0 262#000000016A
(1469304234.350878) can0 020#0000072B
(1469304234.351018) can0 0BA#05FD00C0
(1469304234.351282) can0 224#0000000000000008
(1469304234.351599) can0 024#020001FD420A80F8
(1469304234.351763) can0 025#000000027000009F
(1469304234.352004) can0 1D0#0DAE090000AC0049
(1469304234.352328) can0 2C1#08020B0080D00030
(1469304234.354584) can0 4C8#0900000000000000
(1469304234.356997) can0 0AA#1A6F1A6F1A6F1A6F
(1469304234.358385) can0 354#01
(1469304234.359496) can0 1C8#80
(1469304234.359670) can0 260#0800000000001183
(1469304234.362915) can0 020#0000072B
(1469304234.363155) can0 0B4#00000000000000BC
(1469304234.363379) can0 025#00010002900000C0
(1469304234.363617) can0 024#020001FD420880F6
(1469304234.363920) can0 223#000000000000002D
(1469304234.364513) can0 351#00000000
(1469304234.365718) can0 263#00000000B0001C
(1469304234.366746) can0 1C4#06BA28080000FFBC
(1469304234.367802) can0 361#0018000000000000
(1469304234.368723) can0 3F9#5198260100000014
(1469304234.369018) can0 0AA#1A6F1A6F1A6F1A6F
(1469304234.374941) can0 020#0000072B
(1469304234.375071) can0 0BA#05FD00C0
(1469304234.375331) can0 224#0000000000000008
(1469304234.375557) can0 024#020001FD420880F6
(1469304234.375848) can0 025#000000027000009F
(1469304234.375862) can0 1C8#80
(1469304234.379647) can0 260#08FFFF0000001484
(1469304234.381020) can0 0AA#1A6F1A6F1A6F1A6F
(1469304234.381168) can0 1AA#0000000000B1
(1469304234.384095) can0 3D3#01A0
(1469304234.384304) can0 1D0#0D8D090000AC0028
(1469304234.385194) can0 2C1#0802180088D00045
(1469304234.386967) can0 020#0000072B
(1469304234.387178) can0 0B4#00000000000000BC
(1469304234.387493) can0 024#020001FB420880F4
(1469304234.387648) can0 025#00010002900000C0
(1469304234.387938) can0 223#000000000000002D
(1469304234.389112) can0 3D0#00
(1469304234.389436) can0 423#00
(1469304234.389606) can0 262#000000016A
(1469304234.390303) can0 263#00000000B0001C
(1469304234.391348) can0 1C4#06AF28080000FFB1
(1469304234.392212) can0 1C8#80
(1469304234.393040) can0 0AA#1A6F1A6F1A6F1A6F
(1469304234.398984) can0 020#0000072B
(1469304234.399115) can0 0BA#05FB00BE
(1469304234.399497) can0 224#0000000000000008
(1469304234.399629) can0 024#020001FB420880F4
(1469304234.399855) can0 025#000000027000009F
(1469304234.400093) can0 260#0800000000001486
(1469304234.405113) can0 0AA#1A6F1A6F1A6F1A6F
(1469304234.406738) can0 440#4202001101000000
(1469304234.408709) can0 1C8#80
(1469304234.408885) can0 38A#0804000000
(1469304234.411034) can0 020#0000072B
(1469304234.411248) can0 0B4#00000000000000BC
(1469304234.411537) can0 024#020001FB420A80F6
(1469304234.411748) can0 025#000000027000009F
(1469304234.412035) can0 223#000000000000002D
(1469304234.414987) can0 263#00000000B0001C
(1469304234.416020) can0 1C4#069928080000FF9B
(1469304234.417063) can0 1D0#0D69090000AC0004
(1469304234.417223) can0 0AA#1A6F1A6F1A6F1A6F
(1469304234.418014) can0 2C1#08022F0090D10065
(1469304234.419641) can0 260#0800000000001486
(1469304234.423083) can0 020#0000072B
(1469304234.423213) can0 0BA#05FB00BE
(1469304234.423515) can0 024#020001FB420A80F6
(1469304234.423699) can0 025#00010002900000C0
(1469304234.423985) can0 224#0000000000000008
(1469304234.424483) can0 351#00000000
(1469304234.425122) can0 1C8#80
(1469304234.426413) can0 3A0#008B000007000068
(1469304234.429191) can0 0AA#1A6F1A6F1A6F1A6F
(1469304234.429345) can0 1AA#0000000000B1
(1469304234.429520) can0 262#000000016A
(1469304234.430688) can0 620#1000FFFFB0500040
(1469304234.433491) can0 361#0018000000000000
(1469304234.435083) can0 020#0000072B
(1469304234.435332) can0 0B4#00000000000000BC
(1469304234.435601) can0 024#020001FD420A80F8
(1469304234.435799) can0 025#000000027000009F
(1469304234.436086) can0 223#000000000000002D
(1469304234.436299) can0 3BC#0020000000000000
(1469304234.437561) can0 399#00000000000000
(1469304234.439641) can0 260#0800000000001183
(1469304234.439822) can0 263#00000000B0001C
(1469304234.440640) can0 1C4#068D28080000FF8F
(1469304234.441186) can0 0AA#1A6F1A6F1A6F1A6F
(1469304234.441504) can0 1C8#80
(1469304234.447111) can0 020#0000072B
(1469304234.447241) can0 0BA#05FD00C0
(1469304234.447543) can0 024#020001FD420A80F8
(1469304234.447754) can0 025#000000027000009F
(1469304234.448041) can0 224#0000000000000008
(1469304234.449866) can0 1D0#0D47090000AC00E2
(1469304234.450838) can0 2C1#08029F0096D400DE
(1469304234.453219) can0 0AA#1A6F1A6F1A6F1A6F
(1469304234.457932) can0 1C8#80
(1469304234.459158) can0 020#0000072B
(1469304234.459489) can0 0B4#00000000000000BC
(1469304234.459624) can0 223#000000000000002D
(1469304234.459926) can0 260#0800000000001486
(1469304234.460360) can0 025#00010002900000C0
(1469304234.460592) can0 024#020001FD420880F6
(1469304234.464219) can0 263#00000000B0001C
(1469304234.465240) can0 1C4#068328080000FF85
(1469304234.465449) can0 0AA#1A6F1A6F1A6F1A6F
(1469304234.469511) can0 262#000000016A
(1469304234.471183) can0 020#0000072B
(1469304234.471316) can0 0BA#05FD00C0
(1469304234.471617) can0 224#0000000000000008
(1469304234.472287) can0 025#000000027000009F
(1469304234.472500) can0 024#020001FD420880F6
(1469304234.474354) can0 1C8#80
(1469304234.477316) can0 0AA#1A6F1A6F1A6F1A6F
(1469304234.477472) can0 1AA#0000000000B1
(1469304234.479583) can0 260#0800000000001486
(1469304234.482688) can0 1D0#0D22090000AC00BD
(1469304234.483234) can0 020#0000072B
(1469304234.483490) can0 0B4#00000000000000BC
(1469304234.483700) can0 223#000000000000002D
(1469304234.483985) can0 2C1#08024600A0D2008D
(1469304234.484337) can0 025#000000027000009F
(1469304234.484549) can0 024#020001FB420880F4
(1469304234.484690) can0 351#00000000
(1469304234.488804) can0 263#00000000B0001C
(1469304234.489364) can0 0AA#1A6F1A6F1A6F1A6F
(1469304234.489865) can0 1C4#067728080000FF79
(1469304234.490755) can0 1C8#80
(1469304234.495284) can0 020#0000072B
(1469304234.495450) can0 0BA#05FB00BE
(1469304234.495724) can0 224#0000000000000008
(1469304234.496261) can0 025#00010002900000C0
(1469304234.496475) can0 024#020001FD420A80F8
(1469304234.499072) can0 361#0018000000000000
(1469304234.499564) can0 260#08FFFF0000001484
(1469304234.501389) can0 0AA#1A6F1A6F1A6F1A6F
(1469304234.503316) can0 442#4302000001000000
(1469304234.504306) can0 394#4300
(1469304234.507154) can0 1C8#80
(1469304234.507309) can0 020#0000072B
(1469304234.507632) can0 0B4#00000000000000BC
(1469304234.507798) can0 223#000000000000002D
(1469304234.508275) can0 025#000000027000009F
(1469304234.508528) can0 024#020001FD420A80F8
(1469304234.509493) can0 262#000000016A
(1469304234.513453) can0 0AA#1A6F1A6F1A6F1A6F
(1469304234.513624) can0 263#00000000B0001C
(1469304234.514487) can0 1C4#066A28080000FF6C
(1469304234.515514) can0 1D0#0CF9090000AC0093
(1469304234.516490) can0 2C1#08024F00ABD200A1
(1469304234.519357) can0 020#0000072B
(1469304234.519493) can0 0BA#05FD00C0
(1469304234.519792) can0 224#0000000000000008
(1469304234.519998) can0 260#0800000000001486
(1469304234.520288) can0 025#00010002900000C0
(1469304234.520498) can0 024#020001FD420A80F8
(1469304234.523579) can0 1C8#80
(1469304234.525316) can0 3A0#008B000007000068
(1469304234.525536) can0 0AA#1A6F1A6F1A6F1A6F
(1469304234.525769) can0 1AA#0000000000B1
(1469304234.531321) can0 020#0000072B
(1469304234.531559) can0 0B4#00000000000000BC
(1469304234.531808) can0 223#000000000000002D
(1469304234.532286) can0 025#000000027000009F
(1469304234.532500) can0 024#020001FD420A80F8
(1469304234.537516) can0 0AA#1A6F1A6F1A6F1A6F
(1469304234.538062) can0 263#00000000B0001C
(1469304234.539088) can0 1C4#065E28080000FF60
(1469304234.539537) can0 260#0800000000001486
(1469304234.539979) can0 1C8#80
(1469304234.543487) can0 020#0000072B
(1469304234.543597) can0 0BA#05FD00C0
(1469304234.543904) can0 224#0000000000000008
(1469304234.544228) can0 025#00010002900000C0
(1469304234.544452) can0 024#020001FD420A80F8
(1469304234.544609) can0 351#00000000
(1469304234.546688) can0 622#1200581000000000
(1469304234.548341) can0 1D0#0CE0090000AC007A
(1469304234.549313) can0 2C1#08026100B9D300C2
(1469304234.549444) can0 262#000000016A
(1469304234.549683) can0 0AA#1A6F1A6F1A6F1A6F
(1469304234.555415) can0 383#0100010000000000
(1469304234.555522) can0 020#0000072B
(1469304234.555800) can0 0B4#00000000000000BC
(1469304234.556027) can0 223#000000000000002D
(1469304234.556311) can0 025#00010002900000C0
(1469304234.556525) can0 024#020001FD420880F6
(1469304234.556634) can0 1C8#80
(1469304234.556941) can0 4DC#1D00000200000000
(1469304234.559547) can0 260#0800000000001486
(1469304234.561614) can0 0AA#1A6F1A6F1A6F1A6F
(1469304234.561825) can0 3B7#583B000000000008
(1469304234.562691) can0 263#00000000B1001D
(1469304234.563716) can0 1C4#065028080000FF52
(1469304234.563758) can0 354#01
(1469304234.564763) can0 361#0019000000000000
(1469304234.567533) can0 020#0000072B
(1469304234.567688) can0 0BA#05FD00C0
(1469304234.568001) can0 224#0000000000000008
(1469304234.568210) can0 025#000000027000009F
(1469304234.568497) can0 024#020001FD420880F6
(1469304234.572805) can0 1C8#80
(1469304234.573789) can0 0AA#1A6F1A6F1A6F1A6F
(1469304234.573970) can0 1AA#0000000000B1
(1469304234.579489) can0 260#08FFFF0000001484
(1469304234.579693) can0 020#0000072B
(1469304234.580005) can0 0B4#00000000000000BC
(1469304234.580215) can0 025#00010002900000C0
(1469304234.580487) can0 024#020001FD420A80F8
(1469304234.580698) can0 223#000000000000002D
(1469304234.581161) can0 1D0#0CBC090000AC0056
(1469304234.582155) can0 2C1#08026A00C5D300D7
(1469304234.585840) can0 0AA#1A6F1A6F1A6F1A6F
(1469304234.587313) can0 263#00000000B0001C
(1469304234.588341) can0 1C4#064428080000FF46
(1469304234.589203) can0 1C8#80
(1469304234.589470) can0 262#000000016A
(1469304234.591765) can0 020#0000072B
(1469304234.591899) can0 0BA#05FD00C0
(1469304234.592192) can0 025#00010002900000C0
(1469304234.592499) can0 224#0000000000000008
(1469304234.592648) can0 024#020001FD420A80F8
(1469304234.597831) can0 0AA#1A6F1A6F1A6F1A6F
(1469304234.599487) can0 260#0800000000001486
(1469304234.603810) can0 020#0000072B
(1469304234.604021) can0 0B4#00000000000000BC
(1469304234.604312) can0 025#00010002900000C0
(1469304234.604529) can0 024#020001FD420A80F8
(1469304234.604750) can0 223#000000000000002D
(1469304234.604919) can0 351#00000000
(1469304234.605172) can0 443#4002002F06000000
(1469304234.605446) can0 387#0000000000003F3F
(1469304234.605585) can0 1C8#80
(1469304234.609874) can0 0AA#1A6F1A6F1A6F1A6F
(1469304234.611938) can0 263#00000000B1001D
(1469304234.612937) can0 1C4#063328080000FF35
(1469304234.613987) can0 1D0#0C9A090000AC0034
(1469304234.614938) can0 2C1#08027E00D3D300F9
(1469304234.615821) can0 020#0000072B
(1469304234.615983) can0 0BA#05FD00C0
(1469304234.616231) can0 025#000000027000009F
(1469304234.616463) can0 024#020001FD420880F6
(1469304234.616713) can0 224#0000000000000008
(1469304234.619445) can0 260#0800000000001486
(1469304234.621928) can0 0AA#1A6F1A6F1A6F1A6F
(1469304234.622125) can0 1AA#0000000000B1
(1469304234.622224) can0 1C8#80
(1469304234.625241) can0 3F9#5198260100000014
(1469304234.627412) can0 3A0#008B000007000068
(1469304234.627885) can0 020#0000072B
(1469304234.628129) can0 0B4#00000000000000BC
(1469304234.628342) can0 025#000000027000009F
(1469304234.628639) can0 024#020001FD420A80F8
(1469304234.628848) can0 223#000000000000002D
(1469304234.629484) can0 262#000000016A
(1469304234.630410) can0 361#0019000000000000
(1469304234.633487) can0 4DD#1E00000000000000
(1469304234.633988) can0 0AA#1A6F1A6F1A6F1A6F
(1469304234.635162) can0 389#0000000000000000
(1469304234.636540) can0 263#00000000B0001C
(1469304234.637562) can0 1C4#063128080000FF33
(1469304234.638479) can0 1C8#80
(1469304234.639497) can0 260#08FFFF0000001484
(1469304234.639915) can0 020#0000072B
(1469304234.640046) can0 0BA#05FD00C0
(1469304234.640355) can0 025#000000027000009F
(1469304234.640549) can0 024#020001FD420880F6
(1469304234.640801) can0 224#0000000000000008
(1469304234.645568) can0 3D0#00
(1469304234.646012) can0 0AA#1A6F1A6F1A6F1A6F
(1469304234.646812) can0 1D0#0C76090000AC0010
(1469304234.647765) can0 2C1#08028F00DED40016
(1469304234.651961) can0 020#0000072B
(1469304234.652205) can0 0B4#00000000000000BC
(1469304234.652506) can0 223#000000000000002D
(1469304234.652674) can0 024#020001FD420880F6
(1469304234.653314) can0 025#000000027000009F
(1469304234.654855) can0 1C8#80
(1469304234.658067) can0 0AA#1A6F1A6F1A6F1A6F
(1469304234.659491) can0 260#0800000000001486
(1469304234.661139) can0 263#00000000B0001C
(1469304234.662163) can0 1C4#062D28080000FF2F
(1469304234.664011) can0 020#0000072B
(1469304234.664141) can0 0BA#05FD00C0
(1469304234.664487) can0 224#0000000000000008
(1469304234.664649) can0 024#020001FB420A80F6
(1469304234.664790) can0 351#00000000
(1469304234.665180) can0 38E#2020000000000000
(1469304234.665487) can0 025#00010002900000C0
(1469304234.669411) can0 262#000000016A
(1469304234.670117) can0 0AA#1A6F1A6F1A6F1A6F
(1469304234.670296) can0 1AA#0000000000B1
(1469304234.671254) can0 1C8#80
(1469304234.676061) can0 020#0000072B
(1469304234.676272) can0 0B4#00000000000000BC
(1469304234.676539) can0 024#020001FB420A80F6
(1469304234.676749) can0 223#000000000000002D
(1469304234.677236) can0 025#00010002900000C0
(1469304234.679487) can0 260#0800000000001486
(1469304234.679676) can0 1D0#0C62090000AC00FC
(1469304234.680589) can0 2C1#08028300E8D40014
(1469304234.682163) can0 0AA#1A6F1A6F1A6F1A6F
(1469304234.685762) can0 263#00000000B1001D
(1469304234.686790) can0 1C4#061E28080000FF20
(1469304234.687661) can0 1C8#80
(1469304234.688107) can0 020#0000072B
(1469304234.688239) can0 0BA#05FB00BE
(1469304234.688491) can0 024#020001FB420A80F6
(1469304234.688734) can0 224#0000000000000008
(1469304234.689160) can0 025#00010002900000C0
(1469304234.694215) can0 0AA#1A6F1A6F1A6F1A6F
(1469304234.695162) can0 38F#0300000000000000
(1469304234.696040) can0 361#0019000000000000
(1469304234.699389) can0 260#0800000000001486
(1469304234.700161) can0 020#0000072B
(1469304234.700487) can0 0B4#00000000000000BC
(1469304234.700648) can0 223#000000000000002D
(1469304234.701161) can0 025#000000027000009F
(1469304234.701488) can0 024#020001FD420880F6
(1469304234.704085) can0 1C8#80
(1469304234.706264) can0 0AA#1A6F1A6F1A6F1A6F
(1469304234.706639) can0 440#4202001101000000
(1469304234.708391) can0 380#C0A0400000004100
(1469304234.708696) can0 3B0#00B5005600180000
(1469304234.709336) can0 262#000000016A
(1469304234.710363) can0 263#00000000B0001C
(1469304234.711390) can0 1C4#061928080000FF1B
(1469304234.712209) can0 020#0000072B
(1469304234.712343) can0 0BA#05FD00C0
(1469304234.712585) can0 1D0#0C48090000AC00E2
(1469304234.712849) can0 224#0000000000000008
(1469304234.713077) can0 025#000000027000009F
(1469304234.713374) can0 2C1#08028D00F2D40028
(1469304234.713595) can0 024#020001FD420880F6
(1469304234.718278) can0 0AA#1A6F1A6F1A6F1A6F
(1469304234.718520) can0 1AA#0000000000B1
(1469304234.719413) can0 260#0800000000001486
(1469304234.720507) can0 1C8#80
(1469304234.724210) can0 351#00000000
(1469304234.724340) can0 020#0000072B
(1469304234.724639) can0 0B4#00000000000000BC
(1469304234.724849) can0 223#000000000000002D
(1469304234.725135) can0 025#000000027000009F
(1469304234.725349) can0 3A5#0000000000007EFC
(1469304234.725614) can0 024#020001FD420880F6
(1469304234.726347) can0 3A0#008B000007000067
(1469304234.726621) can0 6E1#A180000000100000
(1469304234.730329) can0 0AA#1A6F1A6F1A6F1A6F
(1469304234.734988) can0 263#00000000B1001D
(1469304234.735646) can0 620#1000FFFFB0500040
(1469304234.735998) can0 1C4#061128080000FF13
(1469304234.736309) can0 020#0000072B
(1469304234.736444) can0 0BA#05FD00C0
(1469304234.736758) can0 224#0000000000000008
(1469304234.737063) can0 025#000000027000009F
(1469304234.737075) can0 1C8#80
(1469304234.737489) can0 024#020001FF420880F8
(1469304234.739490) can0 260#08FFFF0000001484
(1469304234.742417) can0 0AA#1A6F1A6F1A6F1A6F
(1469304234.745265) can0 1D0#0C34090000AC00CE
(1469304234.746240) can0 2C1#08029400FCD40039
(1469304234.748335) can0 020#0000072B
(1469304234.748591) can0 0B4#00000000000000BC
(1469304234.748799) can0 223#000000000000002D
(1469304234.749110) can0 025#00010002900000C0
(1469304234.749357) can0 262#000000016A
(1469304234.749658) can0 024#020001FD420880F6
(1469304234.753308) can0 1C8#80
(1469304234.754487) can0 0AA#1A6F1A6F1A6F1A6F
(1469304234.755164) can0 413#0101010900000000
(1469304234.759342) can0 260#0800000000001486
(1469304234.759582) can0 263#00000000B0001C
(1469304234.760380) can0 020#0000072B
(1469304234.760490) can0 0BA#05FD00C0
(1469304234.760789) can0 1C4#061528080000FF17
(1469304234.760998) can0 025#000000027000009F
(1469304234.761287) can0 224#0000000000000008
(1469304234.761475) can0 024#020001FB420A80F6
(1469304234.761720) can0 361#001A000000000000
(1469304234.766453) can0 0AA#1A6F1A6F1A6F1A6F
(1469304234.766623) can0 1AA#0000000000B1
(1469304234.768681) can0 354#01
(1469304234.769728) can0 1C8#80
(1469304234.772383) can0 020#0000072B
(1469304234.772643) can0 0B4#00000000000000BC
(1469304234.772884) can0 223#000000000000002D
(1469304234.773097) can0 025#00010002900000C0
(1469304234.773447) can0 024#020001FB420A80F6
(1469304234.778031) can0 1D0#0C26090000AC00C0
(1469304234.778488) can0 0AA#1A6F1A6F1A6F1A6F
(1469304234.779038) can0 2C1#08028E0105D4003D
(1469304234.779361) can0 260#0800000000001486
(1469304234.782315) can0 610#2000006480FFFD60
