(1469304156.160883) can0 440#40008011010F0F0F
(1469304156.163250) can0 442#42008000010F0F0F
(1469304156.260894) can0 440#4001801101000000
(1469304156.261091) can0 620#1080FFFF80500080
(1469304156.265189) can0 442#4201800001000000
(1469304156.354896) can0 440#4212001101000000
(1469304156.355240) can0 442#4002000001000000
(1469304156.454895) can0 440#4212001101000000
(1469304156.484166) can0 610#2000006480FFFD60
(1469304156.484786) can0 621#1100000000000000
(1469304156.493786) can0 622#1200481000000000
(1469304156.496252) can0 611#21000020000062D4
(1469304156.502891) can0 623#1900000000000000
(1469304156.511872) can0 624#1A00414949400000
(1469304156.520890) can0 626#1C00300000000000
(1469304156.529896) can0 638#1300180100000000
(1469304156.538895) can0 63C#98005A5245172060
(1469304156.547871) can0 63D#9900444558534B00
(1469304156.556244) can0 442#4002000001000000
(1469304156.556895) can0 680#D800010000000000
(1469304156.565869) can0 620#1000FFFF80500080
(1469304156.654800) can0 440#4212001101000000
(1469304156.754174) can0 442#4002000001000000
(1469304156.854774) can0 440#4212001101000000
(1469304156.860819) can0 620#1000FFFF80500080
(1469304156.955225) can0 442#4002000001000000
(1469304156.982167) can0 610#2000006480FFFD60
(1469304157.054798) can0 440#4212001101000000
(1469304157.120734) can0 620#1080FFFF90500080
(1469304157.141219) can0 618#2200000080000000
(1469304157.143340) can0 443#4300802F060F0F0F
(1469304157.156219) can0 442#4002000001000000
(1469304157.156527) can0 619#230000000C003A80
(1469304157.168226) can0 61A#2400000000014F60
(1469304157.177512) can0 020#0000072B
(1469304157.180214) can0 61C#2600000000000000
(1469304157.180764) can0 6E1#A100030000F00000
(1469304157.189536) can0 020#0000072B
(1469304157.189763) can0 0B4#00000000020000BE
(1469304157.190010) can0 223#0008000000000035
(1469304157.190330) can0 420#0000000000008AB6
(1469304157.190489) can0 6E2#A200CCFEFEFEFEFE
(1469304157.192244) can0 640#A800000001340000
(1469304157.201609) can0 020#0000072B
(1469304157.201752) can0 0BA#06008044
(1469304157.202006) can0 224#0000000000000048
(1469304157.202253) can0 4C3#0300000100000000
(1469304157.207868) can0 0AA#1A6F1A6F1A6F1A6F
(1469304157.208010) can0 1AA#0000000000B1
(1469304157.213812) can0 020#0000072B
(1469304157.214012) can0 0B4#00000000020000BE
(1469304157.214267) can0 223#0008000000000035
(1469304157.219946) can0 0AA#1A6F1A6F1A6F1A6F
(1469304157.225887) can0 020#0000072B
(1469304157.225980) can0 0BA#06008044
(1469304157.226301) can0 224#0000000000000048
(1469304157.231974) can0 0AA#1A6F1A6F1A6F1A6F
(1469304157.237913) can0 020#0000072B
(1469304157.238112) can0 0B4#00000000020000BE
(1469304157.238366) can0 223#0008000000000035
(1469304157.243340) can0 443#4301802F06000000
(1469304157.244018) can0 0AA#1A6F1A6F1A6F1A6F
(1469304157.245667) can0 263#0000000001006D
(1469304157.246716) can0 1C4#0000000000003E0B
(1469304157.249937) can0 020#0000072B
(1469304157.250030) can0 0BA#06008044
(1469304157.250349) can0 224#0000000000000048
(1469304157.254747) can0 440#4202001101000000
(1469304157.254764) can0 354#00
(1469304157.255785) can0 1C8#00
(1469304157.255979) can0 0AA#1A6F1A6F1A6F1A6F
(1469304157.256171) can0 1AA#0000000000B1
(1469304157.261987) can0 020#0000072B
(1469304157.262218) can0 0B4#00000000020000BE
(1469304157.262528) can0 223#0008000000000035
(1469304157.264151) can0 1D0#00000100000000DA
(1469304157.265139) can0 2C1#08FFD412A1BE0017
(1469304157.265338) can0 3F9#5198260100000014
(1469304157.268067) can0 0AA#1A6F1A6F1A6F1A6F
(1469304157.270269) can0 263#00000000AF001B
(1469304157.271287) can0 1C4#000028000000FFF4
(1469304157.272183) can0 1C8#00
(1469304157.274013) can0 020#0000072B
(1469304157.274108) can0 0BA#06008044
(1469304157.274430) can0 224#0000000000000048
(1469304157.275440) can0 4C1#0100000500000000
(1469304157.280098) can0 0AA#1A6F1A6F1A6F1A6F
(1469304157.280565) can0 361#00A0000700000000
(1469304157.282617) can0 3BC#0020000000000000
(1469304157.283536) can0 3BB#8000AF00
(1469304157.284616) can0 399#00000000000000
(1469304157.285506) can0 3D0#00
(1469304157.286048) can0 020#0000072B
(1469304157.286246) can0 0B4#00000000020000BE
(1469304157.286519) can0 223#0008000000000035
(1469304157.288585) can0 1C8#00
(1469304157.289740) can0 620#1080FFFFA0500080
(1469304157.289831) can0 38A#1C04000000
(1469304157.292169) can0 0AA#1A6F1A6F1A6F1A6F
(1469304157.294890) can0 263#00000000AF001B
(1469304157.295951) can0 1C4#000028000000FFF4
(1469304157.296939) can0 1D0#0000010000AC0086
(1469304157.297943) can0 2C1#08FFD412A1BE0017
(1469304157.298036) can0 020#0000072B
(1469304157.298276) can0 0BA#06008044
(1469304157.298464) can0 224#0000000000000048
(1469304157.299014) can0 025#000000027000009F
(1469304157.304193) can0 0AA#1A6F1A6F1A6F1A6F
(1469304157.304361) can0 1AA#0000000000B1
(1469304157.305004) can0 1C8#00
(1469304157.310112) can0 020#0000072B
(1469304157.310351) can0 0B4#00000000020000BE
(1469304157.310657) can0 223#0008000000000035
(1469304157.311113) can0 025#000000027000009F
(1469304157.316217) can0 0AA#1A6F1A6F1A6F1A6F
(1469304157.319241) can0 4C6#0700030000000000
(1469304157.319473) can0 263#00000000AF001B
(1469304157.320542) can0 1C4#000028000000FFF4
(1469304157.321405) can0 1C8#00
(1469304157.322074) can0 020#0000072B
(1469304157.322252) can0 0BA#06008044
(1469304157.322516) can0 224#0000000000000048
(1469304157.323038) can0 025#000000027000009F
(1469304157.324088) can0 423#00
(1469304157.324364) can0 260#0E00000000000078
(1469304157.328249) can0 0AA#1A6F1A6F1A6F1A6F
(1469304157.329315) can0 351#00000000
(1469304157.329767) can0 1D0#0000010000AC0086
(1469304157.330765) can0 2C1#08FFD412A1BE0017
(1469304157.334211) can0 020#0000072B
(1469304157.334524) can0 0B4#00000000020000BE
(1469304157.334664) can0 223#0008000000000035
(1469304157.334830) can0 262#000000016A
(1469304157.335083) can0 025#00010002900000C0
(1469304157.337808) can0 1C8#00
(1469304157.339439) can0 4C8#0900000000000000
(1469304157.340298) can0 0AA#1A6F1A6F1A6F1A6F
(1469304157.344122) can0 263#00000000AF001B
(1469304157.344317) can0 260#0E00000000000078
(1469304157.345165) can0 1C4#000028000000FFF4
(1469304157.346168) can0 361#00A0000700000000
(1469304157.346262) can0 020#0000072B
(1469304157.346512) can0 0BA#06008044
(1469304157.346711) can0 224#0000000000000048
(1469304157.346966) can0 025#000000027000009F
(1469304157.349311) can0 394#4300
(1469304157.352317) can0 0AA#1A6F1A6F1A6F1A6F
(1469304157.352436) can0 1AA#0000000000B1
(1469304157.354219) can0 442#4302000001000000
(1469304157.354236) can0 1C8#00
(1469304157.358261) can0 020#0000072B
(1469304157.358466) can0 0B4#00000000020000BE
(1469304157.358717) can0 223#0008000000000035
(1469304157.359063) can0 025#000000027000009F
(1469304157.362574) can0 1D0#0000010000AC0086
(1469304157.363600) can0 2C1#08FFD412A1BE0017
(1469304157.364364) can0 260#0E00000000000078
(1469304157.364538) can0 0AA#1A6F1A6F1A6F1A6F
(1469304157.368718) can0 263#00000000AF001B
(1469304157.369792) can0 1C4#000028000000FFF4
(1469304157.370286) can0 020#0000072B
(1469304157.370460) can0 0BA#06008044
(1469304157.370664) can0 224#0000000000000048
(1469304157.370733) can0 1C8#00
(1469304157.371073) can0 025#000000027000009F
(1469304157.374289) can0 262#000000016A
(1469304157.376373) can0 0AA#1A6F1A6F1A6F1A6F
(1469304157.382338) can0 020#0000072B
(1469304157.382539) can0 0B4#00000000020000BE
(1469304157.382796) can0 223#0008000000000035
(1469304157.383065) can0 025#000000027000009F
(1469304157.384370) can0 260#0E00000000000078
(1469304157.387030) can0 1C8#00
(1469304157.388419) can0 0AA#1A6F1A6F1A6F1A6F
(1469304157.389285) can0 351#00000000
(1469304157.393339) can0 263#00000000AF001B
(1469304157.394390) can0 1C4#000028000000FFF4
(1469304157.394462) can0 020#0000072B
(1469304157.394715) can0 0BA#06008044
(1469304157.394926) can0 025#000000027000009F
(1469304157.395179) can0 224#0000000000000048
(1469304157.395526) can0 1D0#0000010000AC0086
(1469304157.396393) can0 2C1#08FFD412A1BE0017
(1469304157.400443) can0 0AA#1A6F1A6F1A6F1A6F
(1469304157.400587) can0 1AA#0000000000B1
(1469304157.400843) can0 3B7#583B000000000008
(1469304157.403508) can0 1C8#00
(1469304157.404304) can0 260#0E00000000000078
(1469304157.406358) can0 020#0000072B
(1469304157.406565) can0 0B4#00000000020000BE
(1469304157.406824) can0 223#0008000000000035
(1469304157.407064) can0 025#000000027000009F
(1469304157.411818) can0 361#00A0000700000000
(1469304157.412518) can0 0AA#1A6F1A6F1A6F1A6F
(1469304157.414236) can0 262#000000016A
(1469304157.417942) can0 263#00000000AF001B
(1469304157.418406) can0 020#0000072B
(1469304157.418489) can0 0BA#06008044
(1469304157.418838) can0 224#0000000000000048
(1469304157.419012) can0 025#000000027000009F
(1469304157.419267) can0 1C4#000028000000FFF4
(1469304157.419823) can0 1C8#00
(1469304157.424268) can0 260#0E00000000000078
(1469304157.424498) can0 0AA#1A6F1A6F1A6F1A6F
(1469304157.428221) can0 1D0#0000010000AC0086
(1469304157.429223) can0 2C1#08FFD412A1BE0017
(1469304157.430515) can0 020#0000072B
(1469304157.430645) can0 0B4#00000000020000BE
(1469304157.430961) can0 025#000000027000009F
(1469304157.431172) can0 223#0008000000000035
(1469304157.432187) can0 610#2080006480FFFD60
(1469304157.436265) can0 1C8#00
(1469304157.436573) can0 0AA#1A6F1A6F1A6F1A6F
(1469304157.442577) can0 263#00000000AF001B
(1469304157.442630) can0 020#0000072B
(1469304157.442854) can0 0BA#06008044
(1469304157.443091) can0 025#000000027000009F
(1469304157.443330) can0 224#0000000000000048
(1469304157.443588) can0 1C4#000028000000FFF4
(1469304157.444218) can0 611#21800020000062D4
(1469304157.444528) can0 260#0E00000000000078
(1469304157.448623) can0 0AA#1A6F1A6F1A6F1A6F
(1469304157.448807) can0 1AA#0000000000B1
(1469304157.449239) can0 351#00000000
(1469304157.452688) can0 1C8#00
(1469304157.453339) can0 443#4002002F06000000
(1469304157.454191) can0 262#000000016A
(1469304157.454563) can0 020#0000072B
(1469304157.454814) can0 0B4#00000000020000BE
(1469304157.455050) can0 025#000000027000009F
(1469304157.455306) can0 223#0008000000000035
(1469304157.456227) can0 618#2280000080000000
(1469304157.459866) can0 354#07
(1469304157.460848) can0 0AA#1A6F1A6F1A6F1A6F
(1469304157.461036) can0 1D0#0000010000AC0086
(1469304157.461974) can0 2C1#08FFD412A1BE0017
(1469304157.464295) can0 260#0E00000000000078
(1469304157.467123) can0 020#0000072B
(1469304157.467138) can0 0BA#06008044
(1469304157.467142) can0 224#0000000000000048
(1469304157.467333) can0 263#00000000AF001B
(1469304157.467825) can0 025#000000027000009F
(1469304157.468122) can0 619#238000000C003A80
(1469304157.468425) can0 1C4#000028000000FFF4
(1469304157.468983) can0 1C8#00
(1469304157.472790) can0 0AA#1A6F1A6F1A6F1A6F
(1469304157.477413) can0 361#00A0000700000000
(1469304157.478812) can0 020#0000072B
(1469304157.479026) can0 0B4#00000000020000BE
(1469304157.479314) can0 223#0008000000000035
(1469304157.479939) can0 025#000000027000009F
(1469304157.480228) can0 61A#2480000000014F60
(1469304157.484252) can0 260#0E00000000000078
(1469304157.484716) can0 621#1100000000000000
(1469304157.484857) can0 0AA#1A6F1A6F1A6F1A6F
(1469304157.485506) can0 1C8#00
(1469304157.490840) can0 020#0000072B
(1469304157.490902) can0 0BA#06008044
(1469304157.491256) can0 224#0000000000000048
(1469304157.491793) can0 263#00000000AF001B
(1469304157.491996) can0 025#000000027000009F
(1469304157.492286) can0 61C#2680000000000000
(1469304157.492842) can0 1C4#000028000000FFF4
(1469304157.493715) can0 622#1200481000000000
(1469304157.493858) can0 1D0#0000010000AC0086
(1469304157.494169) can0 262#000000016A
(1469304157.494803) can0 2C1#08FFD412A1BE0017
(1469304157.496871) can0 0AA#1A6F1A6F1A6F1A6F
(1469304157.497136) can0 1AA#0000000000B1
(1469304157.501894) can0 1C8#00
(1469304157.502715) can0 623#1900000000000000
(1469304157.502798) can0 020#0000072B
(1469304157.503134) can0 0B4#00000000020000BE
(1469304157.503343) can0 223#0008000000000035
(1469304157.503999) can0 025#000000027000009F
(1469304157.504287) can0 260#0E00000000000078
(1469304157.504439) can0 383#0100010000000000
(1469304157.504840) can0 381#0000000080000000
(1469304157.505130) can0 4DC#1D00000200000000
(1469304157.508965) can0 0AA#1A6F1A6F1A6F1A6F
(1469304157.509136) can0 351#00000000
(1469304157.511626) can0 624#1A00414949400000
(1469304157.514818) can0 020#0000072B
(1469304157.515071) can0 0BA#06008044
(1469304157.515250) can0 224#0000000000000048
(1469304157.515868) can0 025#000000027000009F
(1469304157.516412) can0 263#00000000AF001B
(1469304157.517441) can0 1C4#000028000000FFF4
(1469304157.518332) can0 1C8#00
(1469304157.520692) can0 626#1C00300000000000
(1469304157.520990) can0 0AA#1A6F1A6F1A6F1A6F
(1469304157.521542) can0 3F9#5198260100000014
(1469304157.524243) can0 260#0E00000000000078
(1469304157.526691) can0 1D0#0000010000AC0086
(1469304157.526945) can0 020#0000072B
(1469304157.527182) can0 0B4#00000000020000BE
(1469304157.527516) can0 223#0008000000000035
(1469304157.527607) can0 2C1#08FFD412A1BE0017
(1469304157.527940) can0 025#000000027000009F
(1469304157.529694) can0 638#1300180100000000
(1469304157.533044) can0 0AA#1A6F1A6F1A6F1A6F
(1469304157.534161) can0 262#000000016A
(1469304157.534731) can0 1C8#00
(1469304157.538696) can0 63C#98005A5245172060
(1469304157.538987) can0 020#0000072B
(1469304157.539067) can0 0BA#06008044
(1469304157.539424) can0 224#0000000000000048
(1469304157.539844) can0 025#000000027000009F
(1469304157.541013) can0 263#00000000AF001B
(1469304157.542070) can0 1C4#000028000000FFF4
(1469304157.542088) can0 3D0#00
(1469304157.543091) can0 361#00A0000100000000
(1469304157.544268) can0 260#0E00000000000078
(1469304157.545086) can0 0AA#1A6F1A6F1A6F1A6F
(1469304157.545266) can0 1AA#0000000000B1
(1469304157.547670) can0 63D#9900444558534B00
(1469304157.551035) can0 020#0000072B
(1469304157.551327) can0 0B4#00000000020000BE
(1469304157.551344) can0 1C8#00
(1469304157.551674) can0 223#0008000000000035
(1469304157.551880) can0 025#000000027000009F
(1469304157.553344) can0 387#0000000000003F3F
(1469304157.554690) can0 440#4202001101000000
(1469304157.556693) can0 680#D800010000000000
(1469304157.557168) can0 0AA#1A6F1A6F1A6F1A6F
(1469304157.559515) can0 1D0#0000010000AC0086
(1469304157.560516) can0 2C1#08FFD412A1BE0017
(1469304157.561191) can0 4DD#1E00000000000000
(1469304157.563089) can0 020#0000072B
(1469304157.563172) can0 0BA#06008044
(1469304157.563515) can0 224#0000000000000048
(1469304157.563827) can0 025#000000027000009F
(1469304157.564240) can0 260#0E00000000000078
(1469304157.565640) can0 263#00000000AF001B
(1469304157.566666) can0 1C4#000028000000FFF4
(1469304157.567562) can0 1C8#00
(1469304157.569194) can0 0AA#1A6F1A6F1A6F1A6F
(1469304157.569257) can0 351#00000000
(1469304157.574143) can0 262#000000016A
(1469304157.575135) can0 020#0000072B
(1469304157.575380) can0 0B4#00000000020000BE
(1469304157.575613) can0 223#0008000000000035
(1469304157.575900) can0 025#000000027000009F
(1469304157.581169) can0 024#5E000A004A088066
(1469304157.581311) can0 0AA#1A6F1A6F1A6F1A6F
(1469304157.582344) can0 389#0000000000000000
(1469304157.583963) can0 1C8#00
(1469304157.584249) can0 260#0E00000000000078
(1469304157.587162) can0 020#0000072B
(1469304157.587243) can0 0BA#06008044
(1469304157.587595) can0 224#0000000000000048
(1469304157.587797) can0 025#000000027000009F
(1469304157.589691) can0 620#1000FFFFA0500080
(1469304157.590242) can0 263#00000000AF001B
(1469304157.591224) can0 1C4#000028000000FFF4
(1469304157.592238) can0 1D0#0000010000AC0086
(1469304157.593190) can0 024#5E000A004A0A8068
(1469304157.593339) can0 0AA#1A6F1A6F1A6F1A6F
(1469304157.593566) can0 1AA#0000000000B1
(1469304157.593790) can0 2C1#08FFD412A1BE0017
(1469304157.599237) can0 020#0000072B
(1469304157.599497) can0 0B4#00000000020000BE
(1469304157.599695) can0 223#0008000000000035
(1469304157.599921) can0 025#000000027000009F
(1469304157.600383) can0 1C8#00
(1469304157.604218) can0 260#0E00000000000078
(1469304157.605114) can0 024#5E0009FF4A0A8066
(1469304157.605345) can0 0AA#1A6F1A6F1A6F1A6F
(1469304157.608744) can0 361#00A0000000000000
(1469304157.611234) can0 020#0000072B
(1469304157.611328) can0 0BA#060000C4
(1469304157.611671) can0 224#0000000000000048
(1469304157.611864) can0 025#000000027000009F
(1469304157.612342) can0 38E#2020000000000000
(1469304157.614115) can0 262#000000016A
(1469304157.614826) can0 263#00000000AF001B
(1469304157.615907) can0 1C4#00E728000000FFDB
(1469304157.616782) can0 1C8#00
(1469304157.617182) can0 024#5E0009FA4A0A8061
(1469304157.617331) can0 0AA#1A6F1A6F1A6F1A6F
(1469304157.623289) can0 020#0000072B
(1469304157.623501) can0 0B4#00000000020000BE
(1469304157.623769) can0 025#000000027000009F
(1469304157.624017) can0 223#0008000000000035
(1469304157.624275) can0 260#0E00000000000078
(1469304157.625142) can0 1D0#0031010000AC00B7
(1469304157.626083) can0 2C1#08FFD412A1BE0017
(1469304157.629172) can0 024#5E0009F64A0A805D
(1469304157.629317) can0 0AA#1A6F1A6F1A6F1A6F
(1469304157.629568) can0 351#00000000
(1469304157.633182) can0 1C8#00
(1469304157.635311) can0 020#0000072B
(1469304157.635424) can0 0BA#060000C4
(1469304157.635743) can0 224#0000000000000048
(1469304157.635949) can0 025#000000027000009F
(1469304157.639514) can0 263#00000000AF001B
(1469304157.640532) can0 1C4#011528000000FF0A
(1469304157.641194) can0 024#5E0009F84A0A805F
(1469304157.641376) can0 0AA#1A6F1A6F1A6F1A6F
(1469304157.641581) can0 1AA#0000000000B1
(1469304157.643346) can0 38F#0300000000000000
(1469304157.644201) can0 260#0E00000000000078
(1469304157.647341) can0 020#0000072B
(1469304157.647602) can0 0B4#00000000020000BE
(1469304157.647809) can0 025#000000027000009F
(1469304157.648098) can0 223#0008000000000035
(1469304157.649111) can0 394#4300
(1469304157.649611) can0 1C8#00
(1469304157.653201) can0 024#5E0009FD4A0A8064
(1469304157.653526) can0 0AA#1A6F1A6F1A6F1A6F
(1469304157.654089) can0 262#000000016A
(1469304157.654310) can0 382#3838380000000000
(1469304157.654595) can0 442#4302000001000000
(1469304157.657948) can0 1D0#0153010000AC00DA
(1469304157.658922) can0 2C1#08053612A4E900AD
(1469304157.659392) can0 020#0000072B
(1469304157.659470) can0 0BA#060000C4
(1469304157.659840) can0 224#0000000000000048
(1469304157.660046) can0 025#000000027000009F
(1469304157.664104) can0 263#00000000AF001B
(1469304157.664308) can0 260#0E00000000000078
(1469304157.665121) can0 1C4#017128000000FF66
(1469304157.665328) can0 024#5E000A034A0A806B
(1469304157.665613) can0 0AA#1A6F1A6F1A6F1A6F
(1469304157.665630) can0 354#07
(1469304157.665999) can0 1C8#00
(1469304157.671520) can0 020#0000072B
(1469304157.671658) can0 0B4#00000000020000BE
(1469304157.671963) can0 025#000000027000009F
(1469304157.672174) can0 223#0008000000000035
(1469304157.672516) can0 3A5#0000000000007EFC
(1469304157.674367) can0 361#00A0000000000000
(1469304157.677193) can0 024#5E000A034A088069
(1469304157.677565) can0 0AA#1A6F1A6F1A6F1A6F
(1469304157.682409) can0 1C8#00
(1469304157.683511) can0 020#0000072B
(1469304157.683594) can0 0BA#060000C4
(1469304157.683930) can0 224#0000000000000048
(1469304157.684143) can0 025#000000027000009F
(1469304157.684432) can0 260#0E00000000000078
(1469304157.688698) can0 263#00000000AF001B
(1469304157.689114) can0 351#00000000
(1469304157.689323) can0 024#5E000A004A088066
(1469304157.689604) can0 0AA#1A6F1A6F1A6F1A6F
(1469304157.689697) can0 1AA#0000000000B1
(1469304157.690043) can0 1C4#016B28000000FF60
(1469304157.690771) can0 1D0#018D010000AC0014
(1469304157.691748) can0 2C1#08053612A4E900AD
(1469304157.694093) can0 262#000000016A
(1469304157.695523) can0 020#0000072B
(1469304157.695712) can0 0B4#00000000020000BE
(1469304157.696016) can0 025#000000027000009F
(1469304157.696237) can0 223#0008000000000035
(1469304157.698831) can0 1C8#00
(1469304157.701191) can0 024#5E0009FB4A0A8062
(1469304157.701789) can0 0AA#1A6F1A6F1A6F1A6F
(1469304157.701982) can0 3B7#583B000000000008
(1469304157.703343) can0 413#0101010900000000
(1469304157.704117) can0 260#0E00000000000078
(1469304157.704667) can0 6E1#A180000000100000
(1469304157.707712) can0 020#0000072B
(1469304157.707795) can0 0BA#060000C4
(1469304157.708157) can0 224#0000000000000048
(1469304157.708666) can0 025#000000027000009F
(1469304157.713218) can0 024#5E0009F64A0A805D
(1469304157.713389) can0 263#00000000AF001B
(1469304157.713817) can0 0AA#1A6F1A6F1A6F1A6F
(1469304157.714339) can0 1C4#016128000000FF56
(1469304157.715230) can0 1C8#00
(1469304157.719736) can0 020#0000072B
(1469304157.720015) can0 0B4#00000000020000BE
(1469304157.720235) can0 223#0008000000000035
(1469304157.720741) can0 025#000000027000009F
(1469304157.723600) can0 1D0#01CE010000AC0055
(1469304157.724138) can0 260#0E00000000000078
(1469304157.724540) can0 2C1#08053612A4E900AD
(1469304157.725214) can0 024#5E0009F34A088058
(1469304157.725839) can0 0AA#1A6F1A6F1A6F1A6F
(1469304157.731637) can0 1C8#00
(1469304157.731758) can0 020#0000072B
(1469304157.731996) can0 0BA#060000C4
(1469304157.732210) can0 224#0000000000000048
(1469304157.732514) can0 434#3F00000000000000
(1469304157.732703) can0 025#000000027000009F
(1469304157.734035) can0 262#000000016A
(1469304157.737218) can0 024#5E0009F84A08805D
(1469304157.737843) can0 0AA#1A6F1A6F1A6F1A6F
(1469304157.738058) can0 1AA#0000000000B1
(1469304157.738328) can0 263#00000000AF001B
(1469304157.738965) can0 1C4#016928000000FF5E
(1469304157.739994) can0 361#00A0000000000000
(1469304157.743816) can0 020#0000072B
(1469304157.744035) can0 0B4#00000000020000BE
(1469304157.744311) can0 223#0008000000000035
(1469304157.744550) can0 260#0E00000000000078
(1469304157.744771) can0 025#000000027000009F
(1469304157.747998) can0 1C8#00
(1469304157.749110) can0 351#00000000
(1469304157.749351) can0 024#5E000A004A0A8068
(1469304157.749853) can0 0AA#1A6F1A6F1A6F1A6F
(1469304157.753323) can0 443#4002002F06000000
(1469304157.755644) can0 6E2#A28000FEFEFEFEFE
(1469304157.755718) can0 020#0000072B
(1469304157.755979) can0 0BA#060000C4
(1469304157.756253) can0 224#0000000000000048
(1469304157.756277) can0 3D3#00FD
(1469304157.756641) can0 025#000000027000009F
(1469304157.756827) can0 1D0#0203010000AC008B
(1469304157.757322) can0 2C1#08053212A4E900A9
(1469304157.761216) can0 024#5E000A034A0A806B
(1469304157.761515) can0 3B1#00000E0A00080000
(1469304157.761603) can0 4AC#0802200500000004
(1469304157.761915) can0 0AA#1A6F1A6F1A6F1A6F
(1469304157.762545) can0 263#00000000AF001B
(1469304157.763339) can0 435#0F0505FFE00FE003
(1469304157.763482) can0 1C4#01B428000000FFA9
(1469304157.764077) can0 260#0E00000000000078
(1469304157.764462) can0 1C8#00
(1469304157.767800) can0 020#0000072B
(1469304157.768115) can0 0B4#00000000020000BE
(1469304157.768316) can0 223#0008000000000035
(1469304157.768691) can0 025#000000027000009F
(1469304157.773192) can0 024#5E000A054A068069
(1469304157.773945) can0 0AA#1A6F1A6F1A6F1A6F
(1469304157.774028) can0 262#000000016A
(1469304157.777895) can0 3F9#5198260100000014
(1469304157.779891) can0 020#0000072B
(1469304157.779974) can0 0BA#060000C4
(1469304157.780305) can0 224#0000000000000048
(1469304157.780615) can0 025#000000027000009F
(1469304157.780818) can0 1C8#00
(1469304157.784094) can0 260#0E00000000000078
(1469304157.785245) can0 024#5E00020042058053
(1469304157.785965) can0 0AA#1A6F1A6F1A6F1A6F
(1469304157.786108) can0 1AA#0000000000B1
(1469304157.787166) can0 263#00000000AF001B
(1469304157.788193) can0 1C4#033128080000FF30
(1469304157.789242) can0 1D0#0268010000AC00F0
(1469304157.790198) can0 2C1#0805350A6EE9006E
(1469304157.791920) can0 020#0000072B
(1469304157.792123) can0 0B4#00000000020000BE
(1469304157.792413) can0 223#000000000000002D
(1469304157.792634) can0 025#000000027000009F
(1469304157.793339) can0 436#0000000000000000
(1469304157.797222) can0 024#5E0001FB42088050
(1469304157.797240) can0 1C8#80
(1469304157.798015) can0 0AA#1A6F1A6F1A6F1A6F
(1469304157.798217) can0 3D0#00
(1469304157.803937) can0 020#0000072B
(1469304157.804021) can0 0BA#060000C4
(1469304157.804381) can0 224#0000000000000048
(1469304157.804565) can0 025#000000027000009F
(1469304157.804864) can0 260#0E00000000000078
(1469304157.805640) can0 361#0054000000000000
(1469304157.807244) can0 3B0#00B5000000000000
(1469304157.809051) can0 351#00000000
(1469304157.809237) can0 024#5E0001F4420A804B
(1469304157.810067) can0 0AA#1A6F1A6F1A6F1A6F
(1469304157.811768) can0 263#00000000AF001B
(1469304157.812794) can0 1C4#03AF28080000FFAE
(1469304157.813681) can0 1C8#80
(1469304157.813999) can0 262#000000016A
(1469304157.815988) can0 020#0000072B
(1469304157.816275) can0 0B4#00000000020000BE
(1469304157.816474) can0 223#000000000000002D
(1469304157.816764) can0 025#000000027000009F
(1469304157.821218) can0 024#5E0001EF420A8046
(1469304157.822066) can0 1D0#0475010000AC00FF
(1469304157.822215) can0 0AA#1A6F1A6F1A6F1A6F
(1469304157.823015) can0 2C1#0805360A5BE9005C
(1469304157.823367) can0 437#FCFFFFFFFFFFFFFF
(1469304157.824078) can0 260#0E00000000000078
(1469304157.828065) can0 020#0000072B
(1469304157.828132) can0 0BA#060000C4
(1469304157.828515) can0 224#0000000000000048
(1469304157.828630) can0 025#000000027000009F
(1469304157.830106) can0 1C8#80
(1469304157.833218) can0 024#5E0001F3420A804A
(1469304157.834142) can0 0AA#1A6F1A6F1A6F1A6F
(1469304157.834252) can0 1AA#0000000000B1
(1469304157.836395) can0 263#00000000AF001B
(1469304157.837443) can0 1C4#046828080000FF68
(1469304157.840096) can0 020#0000072B
(1469304157.840343) can0 0B4#00000000020000BE
(1469304157.840549) can0 025#000000027000009F
(1469304157.840841) can0 223#000000000000002D
(1469304157.844068) can0 260#0E00000000000078
(1469304157.845242) can0 024#5E0001FF420C8058
(1469304157.846218) can0 0AA#1A6F1A6F1A6F1A6F
(1469304157.846533) can0 1C8#80
(1469304157.852138) can0 020#0000072B
(1469304157.852216) can0 0BA#060000C4
(1469304157.852565) can0 025#000000027000009F
(1469304157.852773) can0 224#0000000000000048
(1469304157.852971) can0 384#F0F000000000
(1469304157.853924) can0 262#000000016A
(1469304157.854618) can0 440#4202001101000000
(1469304157.854822) can0 1D0#06DA010000AC0066
(1469304157.855219) can0 380#0000000000008000
(1469304157.855811) can0 2C1#0804870A54E400A0
(1469304157.857172) can0 024#5E000206420C8060
(1469304157.858202) can0 0AA#1A6F1A6F1A6F1A6F
(1469304157.861018) can0 263#00000000AF001B
(1469304157.862040) can0 1C4#04C328080000FFC3
(1469304157.862852) can0 1C8#80
(1469304157.864014) can0 260#0E00000000000078
(1469304157.864097) can0 020#0000072B
(1469304157.864435) can0 0B4#00000000020000BE
(1469304157.864658) can0 025#000000027000009F
(1469304157.864870) can0 223#000000000000002D
(1469304157.869012) can0 351#00000000
(1469304157.869228) can0 024#5E000208420A8060
(1469304157.870083) can0 354#01
(1469304157.870289) can0 0AA#1A6F1A6F1A6F1A6F
(1469304157.871291) can0 361#0053000000000000
(1469304157.873244) can0 3A0#008F00000000006F
(1469304157.876213) can0 020#0000072B
(1469304157.876291) can0 0BA#060000C4
(1469304157.876640) can0 224#0000000000000048
(1469304157.876848) can0 025#000000027000009F
(1469304157.879335) can0 1C8#80
(1469304157.881187) can0 024#5E00020142088057
(1469304157.882225) can0 0AA#1A6F1A6F1A6F1A6F
(1469304157.882447) can0 1AA#0000000000B1
(1469304157.883220) can0 386#000000070003
(1469304157.884024) can0 260#0E00000000000078
(1469304157.885620) can0 263#00000000AF001B
(1469304157.886649) can0 1C4#04BE28080000FFBE
(1469304157.887686) can0 1D0#08BA010000AC0048
(1469304157.888244) can0 020#0000072B
(1469304157.888528) can0 0B4#00000000020000BE
(1469304157.888680) can0 025#000000027000009F
(1469304157.888958) can0 223#000000000000002D
(1469304157.889161) can0 2C1#08045209F4E20008
(1469304157.889574) can0 620#1000FFFFA0500080
(1469304157.893184) can0 024#560001FA42088047
(1469304157.893963) can0 262#000000016A
(1469304157.894339) can0 0AA#1A6F1A6F1A6F1A6F
(1469304157.895762) can0 1C8#80
(1469304157.900207) can0 020#0000072B
(1469304157.900393) can0 0BA#060000C4
(1469304157.900685) can0 025#000000027000009F
(1469304157.900920) can0 224#0000000000000008
(1469304157.903948) can0 260#0E00000000000078
(1469304157.905240) can0 024#560001F1420A8040
(1469304157.906339) can0 0AA#1A6F1A6F1A6F1A6F
(1469304157.910243) can0 263#00000000AF001B
(1469304157.911264) can0 1C4#053A28080000FF3B
(1469304157.912159) can0 1C8#80
(1469304157.912232) can0 020#0000072B
(1469304157.912522) can0 0B4#00000000020000BE
(1469304157.912769) can0 223#000000000000002D
(1469304157.913239) can0 3E6#0000000000
(1469304157.913499) can0 025#000000027000009F
(1469304157.917243) can0 024#560001ED42068038
(1469304157.918366) can0 0AA#1A6F1A6F1A6F1A6F
(1469304157.920464) can0 1D0#09D1010000AC0060
(1469304157.921514) can0 2C1#08036709FFDB0020
(1469304157.923973) can0 260#0E00000000000078
(1469304157.924284) can0 020#0000072B
(1469304157.924473) can0 0BA#060000C4
(1469304157.924684) can0 025#00010002900000C0
(1469304157.924961) can0 224#0000000000000008
(1469304157.928558) can0 1C8#80
(1469304157.928976) can0 351#00000000
(1469304157.929253) can0 024#560001F642068041
(1469304157.930390) can0 0AA#1A6F1A6F1A6F1A6F
(1469304157.930530) can0 1AA#0000000000B1
(1469304157.933217) can0 610#2000006480FFFD60
(1469304157.933908) can0 262#000000016A
(1469304157.934839) can0 263#00000000AF001B
(1469304157.935871) can0 1C4#05DC28080000FFDD
(1469304157.936338) can0 020#0000072B
(1469304157.936568) can0 0B4#00000000020000BE
(1469304157.936843) can0 223#000000000000002D
(1469304157.937059) can0 361#004D000000000000
(1469304157.937540) can0 025#00010002900000C0
(1469304157.941241) can0 024#56000201420A8051
(1469304157.942439) can0 0AA#1A6F1A6F1A6F1A6F
(1469304157.943315) can0 3E7#00000000000000
(1469304157.943968) can0 260#0E00000000000078
(1469304157.944980) can0 1C8#80
(1469304157.948386) can0 020#0000072B
(1469304157.948472) can0 0BA#060000C4
(1469304157.948808) can0 224#0000000000000008
(1469304157.948832) can0 394#4300
(1469304157.949513) can0 025#00010002900000C0
(1469304157.953245) can0 024#5600020A420D805D
(1469304157.953526) can0 1D0#0B2D010000AC00BE
(1469304157.954189) can0 442#4302000001000000
(1469304157.954414) can0 2C1#08029D09C5D40014
(1469304157.954650) can0 0AA#1A6F1A6F1A6F1A6F
(1469304157.959514) can0 263#00000000AF001B
(1469304157.960526) can0 1C4#067C28080000FF7E
(1469304157.960545) can0 020#0000072B
(1469304157.960907) can0 0B4#00000000020000BE
(1469304157.961113) can0 223#000000000000002D
(1469304157.961514) can0 025#000000027000009F
(1469304157.961595) can0 3BB#0000AF00
(1469304157.961755) can0 1C8#80
(1469304157.963993) can0 260#0E00000000000078
(1469304157.965269) can0 024#5600020A420D805D
(1469304157.966515) can0 0AA#1A6F1A6F1A6F1A6F
(1469304157.972343) can0 3E8#0000000000000000
(1469304157.972423) can0 020#0000072B
(1469304157.972678) can0 0BA#060000C4
(1469304157.972901) can0 224#0000000000000008
(1469304157.973276) can0 024#52000205420C8053
(1469304157.973480) can0 025#000000027000009F
(1469304157.973911) can0 262#000000016A
(1469304157.975241) can0 3A0#008F00000000006F
(1469304157.977785) can0 1C8#80
(1469304157.978542) can0 0AA#1A6F1A6F1A6F1A6F
(1469304157.978679) can0 1AA#0000000000B1
(1469304157.980619) can0 620#1080FFFFB0500080
(1469304157.983923) can0 260#0E00000000000078
(1469304157.984096) can0 263#00000000AF001B
(1469304157.984508) can0 020#0000072B
(1469304157.984697) can0 0B4#00000000020000BE
(1469304157.984960) can0 223#000000000000002D
(1469304157.985183) can0 1C4#072628080000FF29
(1469304157.985473) can0 024#520001F84206803F
(1469304157.985652) can0 025#000000027000009F
(1469304157.986072) can0 1D0#0CE9090000AC0083
(1469304157.987054) can0 2C1#0801D0095ECE00D9
(1469304157.988953) can0 351#00000000
(1469304157.990743) can0 0AA#1A6F1A6F1A6F1A6F
(1469304157.994208) can0 1C8#80
(1469304157.996663) can0 020#0000072B
(1469304157.996736) can0 0BA#060000C4
(1469304157.997101) can0 224#0000000000000008
(1469304157.997334) can0 024#520001EF42038033
(1469304157.997555) can0 025#000000027000009F
(1469304158.002565) can0 361#0047000000000000
(1469304158.002758) can0 0AA#1A6F1A6F1A6F1A6F
(1469304158.003025) can0 3B7#583B000000000008
(1469304158.003368) can0 3E9#0000000000000000
(1469304158.003919) can0 260#0E00000000000078
(1469304158.008645) can0 263#00000000AF001B
(1469304158.008807) can0 020#0000072B
(1469304158.009106) can0 0B4#00000000020000BE
(1469304158.009322) can0 024#520001EF42038033
(1469304158.009528) can0 025#00010002900000C0
(1469304158.009750) can0 1C4#078628080000FF89
(1469304158.009999) can0 223#000000000000002D
(1469304158.010541) can0 1C8#80
(1469304158.013911) can0 262#000000016A
(1469304158.014755) can0 0AA#1A6F1A6F1A6F1A6F
(1469304158.018966) can0 1D0#0E9A090000AC0036
(1469304158.019918) can0 2C1#08014F08C7CA00BC
(1469304158.020736) can0 020#0000072B
(1469304158.020829) can0 0BA#060000C4
(1469304158.021175) can0 224#0000000000000008
(1469304158.021348) can0 024#520001F842088041
(1469304158.021593) can0 025#00010002900000C0
(1469304158.023973) can0 260#0E00000000000078
(1469304158.026865) can0 0AA#1A6F1A6F1A6F1A6F
(1469304158.027021) can0 1AA#0000000000B1
(1469304158.027077) can0 1C8#80
(1469304158.032811) can0 020#0000072B
(1469304158.033012) can0 0B4#00000000020000BE
(1469304158.033267) can0 024#52000203420C8051
(1469304158.033522) can0 025#000000027000009F
(1469304158.033825) can0 223#000000000000002D
(1469304158.033985) can0 263#00000000AF001B
(1469304158.034412) can0 1C4#07E128080000FFE4
(1469304158.034618) can0 3F9#5198260100000014
(1469304158.038923) can0 0AA#1A6F1A6F1A6F1A6F
(1469304158.043431) can0 1C8#80
(1469304158.043893) can0 260#0E00000000000078
(1469304158.044860) can0 020#0000072B
(1469304158.044954) can0 0BA#060000C4
(1469304158.045278) can0 224#0000000000000008
(1469304158.045465) can0 024#5200020A420D8059
(1469304158.045719) can0 025#000000027000009F
(1469304158.048913) can0 351#00000000
(1469304158.050941) can0 0AA#1A6F1A6F1A6F1A6F
(1469304158.051773) can0 1D0#0FC6090000AC0063
(1469304158.052270) can0 443#4002002F06000000
(1469304158.052764) can0 2C1#0800EB0821C700AE
(1469304158.053837) can0 262#000000016A
(1469304158.054706) can0 3D0#00
(1469304158.056867) can0 020#0000072B
(1469304158.057102) can0 0B4#00000000020000BE
(1469304158.057364) can0 024#52000208420A8054
(1469304158.057564) can0 025#000000027000009F
(1469304158.057817) can0 223#000000000000002D
(1469304158.058037) can0 263#00000000AF001B
(1469304158.058921) can0 1C4#083B28080000FF3F
(1469304158.059814) can0 1C8#80
(1469304158.062994) can0 0AA#1A6F1A6F1A6F1A6F
(1469304158.063902) can0 260#0E00000000000078
(1469304158.068219) can0 361#003F000000000000
(1469304158.068933) can0 020#0000072B
(1469304158.069026) can0 0BA#060000C4
(1469304158.069354) can0 024#520001FF42088048
(1469304158.069564) can0 025#000000027000009F
(1469304158.069819) can0 224#0000000000000008
(1469304158.074192) can0 610#2080006480FFFD60
(1469304158.074388) can0 3A0#008F00000000006F
(1469304158.075065) can0 0AA#1A6F1A6F1A6F1A6F
(1469304158.075211) can0 1AA#0000000000B1
(1469304158.075281) can0 354#01
(1469304158.076309) can0 1C8#80
(1469304158.080987) can0 020#0000072B
(1469304158.081214) can0 0B4#00000000020000BE
(1469304158.081469) can0 025#000000027000009F
(1469304158.081699) can0 223#000000000000002D
(1469304158.082223) can0 024#520001F34206803A
(1469304158.082553) can0 263#00000000AF001B
(1469304158.083619) can0 1C4#087D28080000FF81
(1469304158.083915) can0 260#0E00000000000078
(1469304158.084665) can0 1D0#1098090000AC0036
(1469304158.085640) can0 2C1#0800CA0742C600AC
(1469304158.086214) can0 618#2280000080000000
(1469304158.087090) can0 0AA#1A6F1A6F1A6F1A6F
(1469304158.092709) can0 1C8#80
(1469304158.093026) can0 020#0000072B
(1469304158.093107) can0 0BA#060000C4
(1469304158.093515) can0 224#0000000000000008
(1469304158.093629) can0 025#00010002900000C0
(1469304158.093884) can0 262#000000016A
(1469304158.094284) can0 024#520001ED42088036
(1469304158.098193) can0 619#238000000C003A80
(1469304158.099142) can0 0AA#1A6F1A6F1A6F1A6F
(1469304158.103843) can0 260#0E00000000000078
(1469304158.105034) can0 020#0000072B
(1469304158.105322) can0 0B4#00000000020000BE
(1469304158.105462) can0 025#000000027000009F
(1469304158.105788) can0 223#000000000000002D
(1469304158.106288) can0 024#51FF01F4420A803D
(1469304158.107193) can0 263#00000000AF001B
(1469304158.108248) can0 1C4#08D028080000FFD4
(1469304158.108911) can0 351#00000000
(1469304158.109108) can0 1C8#80
(1469304158.110216) can0 61A#2480000000014F60
(1469304158.111143) can0 0AA#1A6F1A6F1A6F1A6F
(1469304158.117064) can0 020#0000072B
(1469304158.117146) can0 0BA#060000C4
(1469304158.117515) can0 224#0000000000000008
(1469304158.117657) can0 025#000000027000009F
(1469304158.117990) can0 1D0#1161090000AC0000
(1469304158.118289) can0 024#520001FF420C804C
(1469304158.118431) can0 2C1#0800AA0674C500BC
(1469304158.122219) can0 61C#2680000000000000
(1469304158.123164) can0 0AA#1A6F1A6F1A6F1A6F
(1469304158.123273) can0 1AA#0000000000B1
(1469304158.123846) can0 260#0E00000000000078
(1469304158.125531) can0 1C8#80
(1469304158.129091) can0 020#0000072B
(1469304158.129335) can0 0B4#00000000020000BE
(1469304158.129552) can0 025#00010002900000C0
(1469304158.129797) can0 223#000000000000002D
(1469304158.130287) can0 024#52000206420A8052
(1469304158.131816) can0 263#00000000AF001B
(1469304158.132840) can0 1C4#090028080000FF05
(1469304158.133892) can0 361#0037000000000000
(1469304158.133974) can0 262#000000016A
(1469304158.135192) can0 0AA#1A6F1A6F1A6F1A6F
(1469304158.135399) can0 4C3#0300000100000000
(1469304158.141113) can0 020#0000072B
(1469304158.141196) can0 0BA#060000C4
(1469304158.141541) can0 224#0000000000000008
(1469304158.141931) can0 1C8#80
(1469304158.142279) can0 025#00010002900000C0
(1469304158.142465) can0 024#5200020842088052
(1469304158.143874) can0 260#0E00000000000078
(1469304158.147215) can0 0AA#1A6F1A6F1A6F1A6F
(1469304158.150294) can0 1D0#1211090000AC00B1
(1469304158.151264) can0 2C1#08009A05B3C400E9
(1469304158.153138) can0 020#0000072B
(1469304158.153432) can0 0B4#00000000020000BE
(1469304158.153578) can0 223#000000000000002D
(1469304158.154288) can0 024#5200020142068049
(1469304158.154430) can0 025#000000027000009F
(1469304158.154763) can0 440#4202001101000000
(1469304158.156419) can0 263#00000000AF001B
(1469304158.157442) can0 1C4#092028080000FF25
(1469304158.158330) can0 1C8#80
(1469304158.159241) can0 0AA#1A6F1A6F1A6F1A6F
(1469304158.163782) can0 260#0E00000000000078
(1469304158.165184) can0 020#0000072B
(1469304158.165253) can0 0BA#060000C4
(1469304158.165616) can0 224#0000000000000008
(1469304158.166264) can0 025#000000027000009F
(1469304158.166474) can0 024#520001F8420A8043
(1469304158.168837) can0 351#00000000
(1469304158.171294) can0 0AA#1A6F1A6F1A6F1A6F
(1469304158.171435) can0 1AA#0000000000B1
(1469304158.173740) can0 262#000000016A
(1469304158.174757) can0 1C8#80
(1469304158.176198) can0 3A0#008F00000000006F
(1469304158.177234) can0 020#0000072B
(1469304158.177525) can0 0B4#00000000020000BE
(1469304158.177671) can0 223#000000000000002D
(1469304158.178313) can0 025#000000027000009F
(1469304158.178456) can0 024#520001F1420A803C
(1469304158.181042) can0 263#00000000AF001B
(1469304158.182071) can0 1C4#093D28080000FF42
(1469304158.182213) can0 640#A800005701340000
(1469304158.183093) can0 1D0#1282090000AC0022
(1469304158.183234) can0 0AA#1A6F1A6F1A6F1A6F
(1469304158.183845) can0 260#0E00000000000078
(1469304158.184044) can0 2C1#08008D0505C4002E
(1469304158.189239) can0 020#0000072B
(1469304158.189321) can0 0BA#060000C4
(1469304158.189666) can0 224#0000000000000008
(1469304158.190241) can0 025#000000027000009F
(1469304158.190533) can0 024#520001F3420A803E
(1469304158.191179) can0 1C8#80
(1469304158.195341) can0 0AA#1A6F1A6F1A6F1A6F
(1469304158.195551) can0 420#00000000FB0182AA
(1469304158.199514) can0 361#002F000000000000
(1469304158.201286) can0 020#0000072B
(1469304158.201507) can0 0B4#00000000020000BE
(1469304158.201792) can0 223#000000000000002D
(1469304158.202289) can0 025#000000027000009F
(1469304158.202432) can0 024#520001FB420A8046
(1469304158.203843) can0 260#0E00000000000078
(1469304158.205638) can0 263#00000000AF001B
(1469304158.206666) can0 1C4#095428080000FF59
(1469304158.207366) can0 0AA#1A6F1A6F1A6F1A6F
(1469304158.207475) can0 1C8#80
(1469304158.208693) can0 4C1#0100000500000000
(1469304158.213289) can0 020#0000072B
(1469304158.213431) can0 0BA#060000C4
(1469304158.213708) can0 224#0000000000000008
(1469304158.213792) can0 262#000000016A
(1469304158.214202) can0 025#00010002900000C0
(1469304158.214482) can0 024#52000205420A8051
(1469304158.215919) can0 1D0#12CC090000AC006C
(1469304158.216891) can0 2C1#0800840465C40084
(1469304158.219364) can0 0AA#1A6F1A6F1A6F1A6F
(1469304158.219477) can0 1AA#0000000000B1
(1469304158.223782) can0 260#0E00000000000078
(1469304158.223898) can0 1C8#80
(1469304158.225286) can0 020#0000072B
(1469304158.225575) can0 0B4#00000000020000BE
(1469304158.225776) can0 223#000000000000002D
(1469304158.226263) can0 025#00010002900000C0
(1469304158.226476) can0 024#5200020642088050
(1469304158.228817) can0 351#00000000
(1469304158.230263) can0 263#00000000AF001B
(1469304158.231291) can0 1C4#095128080000FF56
(1469304158.231434) can0 0AA#1A6F1A6F1A6F1A6F
(1469304158.237338) can0 020#0000072B
(1469304158.237423) can0 0BA#060000C4
(1469304158.237783) can0 224#0000000000000008
(1469304158.238184) can0 025#000000027000009F
(1469304158.238388) can0 024#520002034206804B
(1469304158.240392) can0 1C8#80
(1469304158.243515) can0 0AA#1A6F1A6F1A6F1A6F
(1469304158.243684) can0 260#0E00000000000078
(1469304158.248795) can0 1D0#12E2090000AC0082
(1469304158.248825) can0 394#4300
(1469304158.249401) can0 020#0000072B
(1469304158.249642) can0 0B4#00000000020000BE
(1469304158.249931) can0 223#000000000000002D
(1469304158.250114) can0 2C1#08008203D3C400EF
(1469304158.250389) can0 024#520001FD420A8048
(1469304158.250600) can0 025#000000027000009F
(1469304158.253764) can0 262#000000016A
(1469304158.254189) can0 442#4302000001000000
(1469304158.254398) can0 610#2080006480FFFD60
(1469304158.254940) can0 263#00000000AF001B
(1469304158.255524) can0 0AA#1A6F1A6F1A6F1A6F
(1469304158.255950) can0 1C4#095D28080000FF62
(1469304158.256827) can0 1C8#80
(1469304158.261282) can0 4AC#1802400500000304
(1469304158.261473) can0 020#0000072B
(1469304158.261539) can0 0BA#060000C4
(1469304158.261904) can0 224#0000000000000008
(1469304158.262116) can0 025#000000027000009F
(1469304158.262407) can0 024#520001F4420C8041
(1469304158.263756) can0 260#0E00000000000078
(1469304158.265246) can0 361#0028000000000000
(1469304158.266194) can0 611#21800020000062D4
(1469304158.267698) can0 0AA#1A6F1A6F1A6F1A6F
(1469304158.267797) can0 1AA#0000000000B1
(1469304158.272159) can0 3A0#008F00000000006F
(1469304158.273314) can0 1C8#80
(1469304158.273643) can0 020#0000072B
(1469304158.273856) can0 0B4#00000000020000BE
(1469304158.274144) can0 223#000000000000002D
(1469304158.274354) can0 024#520001F4420A803F
(1469304158.274646) can0 025#000000027000009F
(1469304158.278373) can0 4C6#0700030000000000
(1469304158.279558) can0 263#00000000AF001B
(1469304158.279817) can0 0AA#1A6F1A6F1A6F1A6F
(1469304158.280504) can0 620#1000FFFFB0500080
(1469304158.280811) can0 1C4#096128080000FF66
(1469304158.280829) can0 354#01
(1469304158.281532) can0 3D3#0476
(1469304158.281821) can0 1D0#12E0090000AC0080
(1469304158.282597) can0 2C1#080081034EC40069
(1469304158.283726) can0 260#0E00000000000078
(1469304158.285689) can0 020#0000072B
(1469304158.285766) can0 0BA#060000C4
(1469304158.286131) can0 224#0000000000000008
(1469304158.286317) can0 024#520001F842088041
(1469304158.286569) can0 025#000000027000009F
(1469304158.288713) can0 351#00000000
(1469304158.289810) can0 38A#0804000000
(1469304158.289832) can0 1C8#80
(1469304158.290838) can0 3F9#5198260100000014
(1469304158.291793) can0 0AA#1A6F1A6F1A6F1A6F
(1469304158.293660) can0 262#000000016A
(1469304158.297737) can0 020#0000072B
(1469304158.297949) can0 0B4#00000000020000BE
(1469304158.298238) can0 025#000000027000009F
(1469304158.298530) can0 024#520002004208804A
(1469304158.298652) can0 223#000000000000002D
(1469304158.303751) can0 260#0E00000000000078
(1469304158.303939) can0 0AA#1A6F1A6F1A6F1A6F
(1469304158.304178) can0 3B7#583B000000000008
(1469304158.304374) can0 263#00000000AF001B
(1469304158.305199) can0 1C4#095828080000FF5D
(1469304158.306107) can0 1C8#80
(1469304158.309760) can0 020#0000072B
(1469304158.309839) can0 0BA#060000C4
(1469304158.310199) can0 224#0000000000000008
(1469304158.310386) can0 024#520002054208804F
(1469304158.310619) can0 025#000000027000009F
(1469304158.311230) can0 3D0#00
(1469304158.314519) can0 1D0#12D2090000AC0072
(1469304158.315473) can0 2C1#08008402D7C400F4
(1469304158.315808) can0 0AA#1A6F1A6F1A6F1A6F
(1469304158.316009) can0 1AA#0000000000B1
(1469304158.318792) can0 4C8#0900000000000000
(1469304158.321789) can0 020#0000072B
(1469304158.322070) can0 0B4#00000000020000BE
(1469304158.322271) can0 025#000000027000009F
(1469304158.322542) can0 024#520002014208804B
(1469304158.322557) can0 1C8#80
(1469304158.322902) can0 223#000000000000002D
(1469304158.323768) can0 260#0E00000000000078
(1469304158.327919) can0 0AA#1A6F1A6F1A6F1A6F
(1469304158.328842) can0 263#00000000AF001B
(1469304158.329866) can0 1C4#094328080000FF48
(1469304158.330915) can0 361#0023000000000000
(1469304158.331083) can0 423#00
(1469304158.332967) can0 3BC#0020000000000000
(1469304158.333635) can0 262#000000016A
(1469304158.333824) can0 020#0000072B
(1469304158.333984) can0 0BA#060000C4
(1469304158.334278) can0 224#0000000000000008
(1469304158.334478) can0 024#520001FD420A8048
(1469304158.334720) can0 025#000000027000009F
(1469304158.334950) can0 399#00000000000000
(1469304158.338922) can0 1C8#80
(1469304158.339941) can0 0AA#1A6F1A6F1A6F1A6F
(1469304158.343694) can0 260#0E00000000000078
(1469304158.345887) can0 020#0000072B
(1469304158.346161) can0 0B4#00000000020000BE
(1469304158.346371) can0 024#520001F8420A8043
(1469304158.346639) can0 025#000000027000009F
(1469304158.346863) can0 223#000000000000002D
(1469304158.347312) can0 1D0#12AC090000AC004C
(1469304158.348293) can0 2C1#08008C0273C40098
(1469304158.348732) can0 351#00000000
(1469304158.351942) can0 0AA#1A6F1A6F1A6F1A6F
(1469304158.353248) can0 443#4002002F06000000
(1469304158.353543) can0 263#00000000AF001B
(1469304158.354515) can0 1C4#093528080000FF3A
(1469304158.355379) can0 1C8#80
(1469304158.357934) can0 020#0000072B
(1469304158.357996) can0 0BA#060000C4
(1469304158.358356) can0 024#520001F6420A8041
(1469304158.358550) can0 224#0000000000000008
(1469304158.359139) can0 025#000000027000009F
(1469304158.363718) can0 260#0E00000000000078
(1469304158.364014) can0 0AA#1A6F1A6F1A6F1A6F
(1469304158.364187) can0 1AA#0000000000B1
(1469304158.369967) can0 020#0000072B
(1469304158.370245) can0 0B4#00000000020000BE
(1469304158.370514) can0 024#520001F842088041
(1469304158.370656) can0 223#000000000000002D
(1469304158.371214) can0 025#00010002900000C0
(1469304158.371732) can0 1C8#80
(1469304158.373665) can0 262#000000016A
(1469304158.374188) can0 3A0#008F00000000006F
(1469304158.376043) can0 0AA#1A6F1A6F1A6F1A6F
(1469304158.378065) can0 263#00000000AF001B
(1469304158.379093) can0 1C4#092728080000FF2C
(1469304158.380141) can0 1D0#1281090000AC0021
(1469304158.381089) can0 2C1#080094021DC4004A
(1469304158.381985) can0 020#0000072B
(1469304158.382068) can0 0BA#060000C4
(1469304158.382407) can0 024#520001FD42068044
(1469304158.382680) can0 224#0000000000000008
(1469304158.383112) can0 025#00010002900000C0
(1469304158.383777) can0 260#0E00000000000078
(1469304158.388094) can0 0AA#1A6F1A6F1A6F1A6F
(1469304158.388120) can0 1C8#80
(1469304158.394015) can0 020#0000072B
(1469304158.394239) can0 0B4#00000000020000BE
(1469304158.394515) can0 024#520002004208804A
(1469304158.394739) can0 223#000000000000002D
(1469304158.395186) can0 025#00010002900000C0
(1469304158.396543) can0 361#001F000000000000
(1469304158.400123) can0 0AA#1A6F1A6F1A6F1A6F
(1469304158.402690) can0 263#00000000AF001B
(1469304158.403668) can0 260#0E00000000000078
(1469304158.403841) can0 1C4#092028080000FF25
(1469304158.404604) can0 1C8#80
(1469304158.406035) can0 020#0000072B
(1469304158.406115) can0 0BA#060000C4
(1469304158.406514) can0 024#52000200420A804C
(1469304158.406655) can0 224#0000000000000008
(1469304158.407124) can0 025#00010002900000C0
(1469304158.408687) can0 351#00000000
(1469304158.412146) can0 0AA#1A6F1A6F1A6F1A6F
(1469304158.412269) can0 1AA#0000000000B1
(1469304158.412969) can0 1D0#125D090000AC00FD
(1469304158.413561) can0 262#000000016A
(1469304158.413937) can0 2C1#08009801CCC400FC
(1469304158.418085) can0 020#0000072B
(1469304158.418357) can0 0B4#00000000020000BE
(1469304158.418552) can0 223#000000000000002D
(1469304158.419090) can0 025#000000027000009F
(1469304158.419315) can0 024#520001FD420A8048
(1469304158.421008) can0 1C8#80
(1469304158.423693) can0 260#0E00000000000078
(1469304158.424191) can0 0AA#1A6F1A6F1A6F1A6F
(1469304158.427292) can0 263#00000000AF001B
(1469304158.428341) can0 1C4#090528080000FF0A
(1469304158.430133) can0 020#0000072B
(1469304158.430211) can0 0BA#060000C4
(1469304158.430564) can0 224#0000000000000008
(1469304158.431015) can0 025#000000027000009F
(1469304158.431338) can0 024#520001FA420A8045
(1469304158.436219) can0 0AA#1A6F1A6F1A6F1A6F
(1469304158.437507) can0 1C8#80
(1469304158.442138) can0 020#0000072B
(1469304158.442410) can0 0B4#00000000020000BE
(1469304158.442651) can0 223#000000000000002D
(1469304158.443065) can0 025#000000027000009F
(1469304158.443300) can0 024#520001F8420A8043
(1469304158.443668) can0 260#0E00000000000078
(1469304158.445768) can0 1D0#122B090000AC00CB
(1469304158.446741) can0 2C1#0800A30185C500C1
(1469304158.448248) can0 0AA#1A6F1A6F1A6F1A6F
(1469304158.451874) can0 263#00000000AF001B
(1469304158.452939) can0 1C4#08E928080000FFED
(1469304158.453562) can0 262#000000016A
(1469304158.453833) can0 1C8#80
(1469304158.454170) can0 020#0000072B
(1469304158.454254) can0 0BA#060000C4
(1469304158.454581) can0 224#0000000000000008
(1469304158.454784) can0 440#4202001101000000
(1469304158.455038) can0 025#00010002900000C0
(1469304158.455293) can0 024#520001F842088041
(1469304158.460203) can0 0AA#1A6F1A6F1A6F1A6F
(1469304158.460514) can0 1AA#0000000000B1
(1469304158.462194) can0 361#001C000000000000
(1469304158.463623) can0 260#0E00000000000078
(1469304158.466136) can0 020#0000072B
(1469304158.466434) can0 0B4#00000000020000BE
(1469304158.466647) can0 223#000000000000002D
(1469304158.466971) can0 025#00010002900000C0
(1469304158.467271) can0 024#520001FA42088043
(1469304158.468555) can0 351#00000000
(1469304158.470180) can0 1C8#80
(1469304158.471289) can0 3B1#00000D0A00080000
(1469304158.472267) can0 0AA#1A6F1A6F1A6F1A6F
(1469304158.474463) can0 620#1080FFFFB0500040
(1469304158.476116) can0 3A0#008F00000000006F
(1469304158.476474) can0 263#00000000AF001B
(1469304158.477513) can0 1C4#08D128080000FFD5
(1469304158.478150) can0 020#0000072B
(1469304158.478333) can0 0BA#060000C4
(1469304158.478597) can0 1D0#11E9090000AC0088
(1469304158.478847) can0 224#0000000000000008
(1469304158.479071) can0 025#00010002900000C0
(1469304158.479320) can0 024#520001FF42088048
(1469304158.479552) can0 2C1#0800AF0142C5008A
(1469304158.483607) can0 260#0E00000000000078
(1469304158.484256) can0 0AA#1A6F1A6F1A6F1A6F
(1469304158.484486) can0 621#1100000000000000
(1469304158.485571) can0 354#01
(1469304158.486621) can0 1C8#80
(1469304158.490159) can0 020#0000072B
(1469304158.490436) can0 0B4#00000000020000BE
(1469304158.490683) can0 223#000000000000002D
(1469304158.490958) can0 025#000000027000009F
(1469304158.491305) can0 024#520002004208804A
(1469304158.493456) can0 622#1200481000000000
(1469304158.493630) can0 262#000000016A
(1469304158.496286) can0 0AA#1A6F1A6F1A6F1A6F
(1469304158.501093) can0 263#00000000AF001B
(1469304158.502177) can0 1C4#08C028080000FFC4
(1469304158.502312) can0 020#0000072B
(1469304158.502457) can0 0BA#060000C4
(1469304158.502734) can0 224#0000000000000008
(1469304158.503013) can0 025#00010002900000C0
(1469304158.503024) can0 1C8#80
(1469304158.503363) can0 024#520001FF420A804A
(1469304158.503620) can0 623#1900000000000000
(1469304158.503873) can0 260#0E00000000000078
(1469304158.506151) can0 4DC#1D00000200000000
(1469304158.508298) can0 0AA#1A6F1A6F1A6F1A6F
(1469304158.508541) can0 1AA#0000000000B1
(1469304158.511426) can0 1D0#11A8090000AC0047
(1469304158.512388) can0 2C1#0800B40109C50056
(1469304158.512592) can0 624#1A00414949400000
(1469304158.514294) can0 020#0000072B
(1469304158.514549) can0 0B4#00000000020000BE
(1469304158.514800) can0 223#000000000000002D
(1469304158.515052) can0 025#000000027000009F
(1469304158.515349) can0 024#520001FB420A8046
(1469304158.519490) can0 1C8#80
(1469304158.520390) can0 0AA#1A6F1A6F1A6F1A6F
(1469304158.521499) can0 626#1C00300000000000
(1469304158.523593) can0 260#0E00000000000078
(1469304158.525773) can0 263#00000000AF001B
(1469304158.526342) can0 020#0000072B
(1469304158.526491) can0 0BA#060000C4
(1469304158.526724) can0 224#0000000000000008
(1469304158.527025) can0 025#00010002900000C0
(1469304158.527279) can0 1C4#08A128080000FFA5
(1469304158.527481) can0 024#520001FA420C8047
(1469304158.527831) can0 361#001A000000000000
(1469304158.528563) can0 351#00000000
(1469304158.530498) can0 638#1300180100000000
(1469304158.532501) can0 0AA#1A6F1A6F1A6F1A6F
(1469304158.533495) can0 262#000000016A
(1469304158.535893) can0 1C8#80
(1469304158.538574) can0 020#0000072B
(1469304158.538783) can0 0B4#00000000020000BE
(1469304158.539087) can0 025#000000027000009F
(1469304158.539306) can0 223#000000000000002D
(1469304158.539514) can0 024#520001FA420C8047
(1469304158.539752) can0 63C#98005A5245172060
(1469304158.543562) can0 260#0E00000000000078
(1469304158.544155) can0 1D0#116C090000AC000B
(1469304158.544589) can0 0AA#1A6F1A6F1A6F1A6F
(1469304158.545138) can0 2C1#0800BF00D7C5002E
(1469304158.547225) can0 3F9#5198260100000014
(1469304158.548419) can0 63D#9900444558534B00
(1469304158.548503) can0 394#4300
(1469304158.550322) can0 263#00000000AF001B
(1469304158.550545) can0 020#0000072B
(1469304158.550713) can0 0BA#060000C4
(1469304158.550961) can0 025#000000027000009F
(1469304158.551210) can0 224#0000000000000008
(1469304158.551451) can0 024#520001FB420A8046
(1469304158.551675) can0 1C4#089428080000FF98
(1469304158.552237) can0 1C8#80
(1469304158.553274) can0 387#0000000000003F3F
(1469304158.554123) can0 442#4302000001000000
(1469304158.556635) can0 0AA#1A6F1A6F1A6F1A6F
(1469304158.556822) can0 1AA#0000000000B1
(1469304158.557425) can0 680#D800010000000000
(1469304158.562628) can0 020#0000072B
(1469304158.562834) can0 0B4#00000000020000BE
(1469304158.563076) can0 025#00010002900000C0
(1469304158.563323) can0 024#520001FD42088046
(1469304158.563557) can0 223#000000000000002D
(1469304158.563853) can0 260#08FFFF0000000070
(1469304158.567626) can0 3D0#00
(1469304158.568690) can0 0AA#1A6F1A6F1A6F1A6F
(1469304158.568745) can0 1C8#80
(1469304158.571306) can0 4DD#1E00000000000000
(1469304158.573481) can0 262#000000016A
(1469304158.574679) can0 020#0000072B
(1469304158.574810) can0 0BA#060000C4
(1469304158.575124) can0 224#0000000000000008
(1469304158.575310) can0 024#520001FF42088048
(1469304158.575587) can0 263#00000000AF001B
(1469304158.575792) can0 3A0#008F00000000006F
(1469304158.576018) can0 025#00010002900000C0
(1469304158.576272) can0 1C4#088628080000FF8A
(1469304158.576989) can0 1D0#1133090000AC00D2
(1469304158.577964) can0 2C1#0800C500AEC6000C
(1469304158.580772) can0 0AA#1A6F1A6F1A6F1A6F
(1469304158.583307) can0 389#0000000000000000
(1469304158.583492) can0 260#0800000000000072
(1469304158.585099) can0 1C8#80
(1469304158.586753) can0 020#0000072B
(1469304158.586961) can0 0B4#00000000020000BE
(1469304158.587249) can0 223#000000000000002D
(1469304158.587442) can0 024#520001FF420A804A
(1469304158.587882) can0 025#00010002900000C0
(1469304158.588526) can0 351#00000000
(1469304158.592859) can0 0AA#1A6F1A6F1A6F1A6F
(1469304158.593483) can0 361#0018000000000000
(1469304158.594480) can0 622#1280581000000000
(1469304158.598780) can0 020#0000072B
(1469304158.598910) can0 0BA#060000C4
(1469304158.599187) can0 224#0000000000000008
(1469304158.599481) can0 024#520001FD420C804A
(1469304158.599644) can0 263#00000000AF001B
(1469304158.599930) can0 025#00010002900000C0
(1469304158.600631) can0 1C4#087928080000FF7D
(1469304158.601497) can0 1C8#80
(1469304158.603533) can0 260#0800010000000073
(1469304158.604886) can0 0AA#1A6F1A6F1A6F1A6F
(1469304158.605067) can0 1AA#0000000000B1
(1469304158.605350) can0 3B7#583B000000000008
(1469304158.609861) can0 1D0#1109090000AC00A8
(1469304158.610835) can0 2C1#0800CB0090C600F4
(1469304158.610967) can0 020#0000072B
(1469304158.611247) can0 0B4#00000000020000BE
(1469304158.611446) can0 024#520001FB420A8046
(1469304158.611736) can0 223#000000000000002D
(1469304158.611943) can0 025#000000027000009F
(1469304158.613310) can0 38E#2020000000000000
(1469304158.613467) can0 262#000000016A
(1469304158.616911) can0 0AA#1A6F1A6F1A6F1A6F
(1469304158.617928) can0 1C8#80
(1469304158.622880) can0 020#0000072B
(1469304158.623011) can0 0BA#060000C4
(1469304158.623274) can0 224#0000000000000008
(1469304158.623502) can0 024#520001FB420A8046
(1469304158.623794) can0 260#0800000000000072
(1469304158.624001) can0 025#000000027000009F
(1469304158.624244) can0 263#00000000AF001B
(1469304158.625238) can0 1C4#086028080000FF64
(1469304158.628964) can0 0AA#1A6F1A6F1A6F1A6F
(1469304158.634352) can0 1C8#80
(1469304158.634878) can0 020#0000072B
(1469304158.635091) can0 0B4#00000000020000BE
(1469304158.635377) can0 024#520001FB420A8046
(1469304158.635573) can0 223#000000000000002D
(1469304158.635910) can0 025#000000027000009F
(1469304158.640987) can0 0AA#1A6F1A6F1A6F1A6F
(1469304158.642285) can0 38F#0300000000000000
(1469304158.642686) can0 1D0#10DA090000AC0078
(1469304158.643488) can0 260#0800000000000072
(1469304158.643673) can0 2C1#0800D50074C600E2
(1469304158.646931) can0 020#0000072B
(1469304158.647084) can0 0BA#060000C4
(1469304158.647389) can0 024#520001FD42088046
(1469304158.647574) can0 224#0000000000000008
(1469304158.647860) can0 025#00010002900000C0
(1469304158.648507) can0 351#00000000
(1469304158.648831) can0 263#00000000AF001B
(1469304158.649828) can0 1C4#084928080000FF4D
(1469304158.650752) can0 1C8#80
(1469304158.653038) can0 0AA#1A6F1A6F1A6F1A6F
(1469304158.653192) can0 1AA#0000000000B1
(1469304158.653469) can0 262#000000016A
(1469304158.653623) can0 443#4002002F06000000
(1469304158.656143) can0 380#C0A0400000004100
(1469304158.656485) can0 3B0#00B5005600180000
(1469304158.658956) can0 020#0000072B
(1469304158.659190) can0 0B4#00000000020000BE
(1469304158.659487) can0 024#520001FD42088046
(1469304158.659672) can0 223#000000000000002D
(1469304158.659918) can0 025#00010002900000C0
(1469304158.660183) can0 361#0017000000000000
(1469304158.663478) can0 260#08FFFF0000000070
(1469304158.665087) can0 0AA#1A6F1A6F1A6F1A6F
(1469304158.667151) can0 1C8#80
(1469304158.669487) can0 6E1#A180000000100000
(1469304158.670981) can0 020#0000072B
(1469304158.671114) can0 0BA#060000C4
(1469304158.671419) can0 024#520001FF42088048
(1469304158.671629) can0 224#0000000000000008
(1469304158.671915) can0 025#000000027000009F
(1469304158.673287) can0 3A5#0000000000007EFC
(1469304158.673471) can0 263#00000000AF001B
(1469304158.674484) can0 1C4#083A28080000FF3E
(1469304158.675511) can0 1D0#10A4090000AC0042
(1469304158.676485) can0 2C1#0800DD005CC600D2
(1469304158.677085) can0 0AA#1A6F1A6F1A6F1A6F
(1469304158.677294) can0 3A0#008F00000700006F
(1469304158.683054) can0 020#0000072B
(1469304158.683269) can0 0B4#00000000020000BE
(1469304158.683559) can0 223#000000000000002D
(1469304158.683582) can0 1C8#80
(1469304158.683954) can0 025#000000027000009F
(1469304158.684126) can0 260#0800000000000072
(1469304158.684425) can0 024#520001FD42088046
(1469304158.689126) can0 0AA#1A6F1A6F1A6F1A6F
(1469304158.690757) can0 354#01
(1469304158.693389) can0 262#000000016A
(1469304158.695142) can0 382#2338380000000000
(1469304158.695216) can0 020#0000072B
(1469304158.695513) can0 0BA#060000C4
(1469304158.695640) can0 224#0000000000000008
(1469304158.695936) can0 025#000000027000009F
(1469304158.696143) can0 381#0001019080000000
(1469304158.696412) can0 024#520001FD420A8048
(1469304158.698059) can0 263#00000000AF001B
(1469304158.699086) can0 1C4#081D28080000FF21
(1469304158.699977) can0 1C8#80
(1469304158.701185) can0 0AA#1A6F1A6F1A6F1A6F
(1469304158.701368) can0 1AA#0000000000B1
(1469304158.703288) can0 413#0101010900000000
(1469304158.703502) can0 260#0800000000000072
(1469304158.707134) can0 020#0000072B
(1469304158.707340) can0 0B4#00000000020000BE
(1469304158.707637) can0 223#000000000000002D
(1469304158.707846) can0 025#00010002900000C0
(1469304158.708335) can0 024#520001FD420A8048
(1469304158.708521) can0 1D0#106D090000AC000B
(1469304158.708687) can0 351#00000000
(1469304158.709265) can0 2C1#0800E7004EC700CF
(1469304158.713212) can0 0AA#1A6F1A6F1A6F1A6F
(1469304158.716377) can0 1C8#80
(1469304158.719129) can0 020#0000072B
(1469304158.719260) can0 0BA#060000C4
(1469304158.719581) can0 224#0000000000000008
(1469304158.719777) can0 025#000000027000009F
(1469304158.720314) can0 024#520001FB42088044
(1469304158.722689) can0 263#00000000AF001B
(1469304158.723489) can0 260#0800000000000072
(1469304158.723673) can0 1C4#080F28080000FF13
(1469304158.724761) can0 361#0017000000000000
(1469304158.725235) can0 0AA#1A6F1A6F1A6F1A6F
(1469304158.731131) can0 020#0000072B
(1469304158.731371) can0 0B4#00000000020000BE
(1469304158.731662) can0 223#000000000000002D
(1469304158.731845) can0 025#000000027000009F
(1469304158.732310) can0 434#3F00000000000000
(1469304158.732497) can0 024#520001FB42088044
(1469304158.732799) can0 1C8#80
(1469304158.733396) can0 262#000000016A
(1469304158.737263) can0 0AA#1A6F1A6F1A6F1A6F
(1469304158.741160) can0 1D0#1039090000AC00D7
(1469304158.742136) can0 2C1#08017D003DCB0059
(1469304158.743180) can0 020#0000072B
(1469304158.743313) can0 0BA#060000C4
(1469304158.743623) can0 224#0000000000000008
(1469304158.743820) can0 025#000000027000009F
(1469304158.744108) can0 260#0800000000000072
(1469304158.744320) can0 024#520001FD42088046
(1469304158.747286) can0 263#00000000AF001B
(1469304158.748311) can0 1C4#080528080000FF09
(1469304158.749285) can0 0AA#1A6F1A6F1A6F1A6F
(1469304158.749445) can0 1AA#0000000000B1
(1469304158.749541) can0 1C8#80
(1469304158.755164) can0 610#2000006480FFFD60
(1469304158.755246) can0 020#0000072B
(1469304158.755560) can0 0B4#00000000020000BE
(1469304158.755770) can0 025#000000027000009F
(1469304158.756058) can0 223#000000000000002D
(1469304158.756270) can0 440#4202001101000000
(1469304158.756535) can0 024#520001FD42088046
(1469304158.756745) can0 6E2#A28000FEFEFEFEFE
(1469304158.761299) can0 0AA#1A6F1A6F1A6F1A6F
(1469304158.761565) can0 4AC#2800600100000324
(1469304158.763285) can0 435#0F0505FFE00FE003
(1469304158.763497) can0 260#0800000000000072
(1469304158.765653) can0 1C8#80
(1469304158.767282) can0 020#0000072B
(1469304158.767445) can0 0BA#060000C4
(1469304158.767687) can0 224#0000000000000008
(1469304158.767919) can0 025#000000027000009F
(1469304158.768318) can0 024#520001FF420A804A
(1469304158.768463) can0 351#00000000
(1469304158.771301) can0 3B1#00000D0900080000
(1469304158.771935) can0 263#00000000AF001B
(1469304158.772986) can0 1C4#07F828080000FFFB
(1469304158.773331) can0 262#000000016A
(1469304158.773520) can0 0AA#1A6F1A6F1A6F1A6F
(1469304158.773967) can0 1D0#100E090000AC00AC
(1469304158.774443) can0 620#1000FFFFB0500040
(1469304158.774941) can0 2C1#0801860036CC005C
(1469304158.776050) can0 3A0#008F00000700006F
(1469304158.779261) can0 020#0000072B
(1469304158.779591) can0 0B4#00000000020000BE
(1469304158.779766) can0 025#000000027000009F
(1469304158.780054) can0 223#000000000000002D
(1469304158.780314) can0 024#520001FF420A804A
(1469304158.782037) can0 1C8#80
(1469304158.783490) can0 260#0800000000000072
(1469304158.785385) can0 0AA#1A6F1A6F1A6F1A6F
(1469304158.790485) can0 361#0017000000000000
(1469304158.791470) can0 020#0000072B
(1469304158.791630) can0 0BA#060000C4
(1469304158.791943) can0 224#0000000000000008
(1469304158.792293) can0 436#0000000000000000
(1469304158.792523) can0 024#520001FD42088046
(1469304158.792750) can0 025#00010002900000C0
(1469304158.796632) can0 263#00000000AF001B
(1469304158.797582) can0 0AA#1A6F1A6F1A6F1A6F
(1469304158.797765) can0 1AA#0000000000B1
(1469304158.798056) can0 1C4#07DF28080000FFE2
(1469304158.798546) can0 1C8#80
(1469304158.803335) can0 260#0800000000000072
(1469304158.803488) can0 020#0000072B
(1469304158.803806) can0 0B4#00000000020000BE
(1469304158.804016) can0 223#000000000000002D
(1469304158.804279) can0 3F9#5198260100000014
(1469304158.804494) can0 024#520001FB42088044
(1469304158.804755) can0 025#00010002900000C0
(1469304158.806776) can0 3D3#0259
(1469304158.807021) can0 1D0#0FEA090000AC0087
(1469304158.807885) can0 2C1#0801A50033CD0079
(1469304158.809632) can0 0AA#1A6F1A6F1A6F1A6F
(1469304158.813278) can0 262#000000016A
(1469304158.814949) can0 1C8#80
(1469304158.815557) can0 020#0000072B
(1469304158.815697) can0 0BA#060000C4
(1469304158.815950) can0 224#0000000000000008
(1469304158.816349) can0 024#520001FA42088043
(1469304158.816600) can0 025#000000027000009F
(1469304158.821237) can0 263#00000000AF001B
(1469304158.821660) can0 0AA#1A6F1A6F1A6F1A6F
(1469304158.822285) can0 1C4#07D128080000FFD4
(1469304158.823285) can0 437#FCFFFFFFFFFFFFFF
(1469304158.823495) can0 260#08FFFF0000FFF160
(1469304158.824128) can0 3D0#00
(1469304158.827584) can0 020#0000072B
(1469304158.827819) can0 0B4#00000000020000BE
(1469304158.828084) can0 223#000000000000002D
(1469304158.828322) can0 024#520001FB42088044
(1469304158.828470) can0 351#00000000
(1469304158.828761) can0 025#00010002900000C0
(1469304158.831342) can0 1C8#80
(1469304158.833686) can0 0AA#1A6F1A6F1A6F1A6F
(1469304158.839633) can0 020#0000072B
(1469304158.839768) can0 0BA#060000C4
(1469304158.840033) can0 1D0#0FBF090000AC005C
(1469304158.840268) can0 224#0000000000000008
(1469304158.840537) can0 024#520001FD420A8048
(1469304158.840745) can0 025#00010002900000C0
(1469304158.841010) can0 2C1#0802110035D000EB
(1469304158.843388) can0 260#0800000000000072
(1469304158.845716) can0 0AA#1A6F1A6F1A6F1A6F
(1469304158.845870) can0 1AA#0000000000B1
(1469304158.846092) can0 263#00000000AF001B
(1469304158.846887) can0 1C4#07BA28080000FFBD
(1469304158.847757) can0 1C8#80
(1469304158.848301) can0 394#4300
(1469304158.851617) can0 020#0000072B
(1469304158.851924) can0 0B4#00000000020000BE
(1469304158.852120) can0 223#000000000000002D
(1469304158.852341) can0 024#520001FF420A804A
(1469304158.852674) can0 025#000000027000009F
(1469304158.853259) can0 262#000000016A
(1469304158.854140) can0 442#4302000001000000
(1469304158.856139) can0 361#0017000000000000
(1469304158.857736) can0 0AA#1A6F1A6F1A6F1A6F
(1469304158.863312) can0 260#0800000000000072
(1469304158.863619) can0 020#0000072B
(1469304158.863813) can0 0BA#060000C4
(1469304158.864111) can0 224#0000000000000008
(1469304158.864123) can0 1C8#80
(1469304158.864486) can0 024#520001FF420A804A
(1469304158.864672) can0 025#000000027000009F
(1469304158.869788) can0 0AA#1A6F1A6F1A6F1A6F
(1469304158.870484) can0 263#00000000AF001B
(1469304158.871485) can0 1C4#07B428080000FFB7
(1469304158.872535) can0 1D0#0F8E090000AC002B
(1469304158.873513) can0 2C1#0801C5003DCE00A4
(1469304158.875060) can0 3A0#008F00000700006F
(1469304158.875731) can0 020#0000072B
(1469304158.875944) can0 0B4#00000000000000BC
(1469304158.876234) can0 223#000000000000002D
(1469304158.876446) can0 024#520001FD420A8048
(1469304158.876711) can0 025#000000027000009F
(1469304158.880594) can0 1C8#80
(1469304158.881835) can0 0AA#1A6F1A6F1A6F1A6F
(1469304158.883312) can0 260#08FFFF0000FFF160
(1469304158.887783) can0 020#0000072B
(1469304158.887913) can0 0BA#05FD00C0
(1469304158.888173) can0 224#0000000000000008
(1469304158.888496) can0 024#020001FB420A80F6
(1469304158.888650) can0 025#000000027000009F
(1469304158.888811) can0 351#00000000
(1469304158.893239) can0 262#000000016A
(1469304158.893887) can0 0AA#1A6F1A6F1A6F1A6F
(1469304158.894043) can0 1AA#0000000000B1
(1469304158.895161) can0 263#00000000AF001B
(1469304158.896169) can0 1C4#07AC28080000FFAF
(1469304158.896230) can0 354#01
(1469304158.897078) can0 1C8#80
(1469304158.899807) can0 020#0000072B
(1469304158.900039) can0 0B4#00000000000000BC
(1469304158.900325) can0 223#000000000000002D
(1469304158.900520) can0 024#020001FA420A80F5
(1469304158.900772) can0 025#00010002900000C0
(1469304158.903310) can0 260#08FFFF0000000070
(1469304158.905487) can0 1D0#0F69090000AC0006
(1469304158.905909) can0 0AA#1A6F1A6F1A6F1A6F
(1469304158.906121) can0 3B7#583B000000000008
(1469304158.906383) can0 2C1#0801D0004BCE00BD
(1469304158.911862) can0 020#0000072B
(1469304158.911993) can0 0BA#05FA00BD
(1469304158.912224) can0 224#0000000000000008
(1469304158.912459) can0 024#020001FB420A80F6
(1469304158.912708) can0 025#00010002900000C0
(1469304158.913424) can0 1C8#80
(1469304158.917964) can0 0AA#1A6F1A6F1A6F1A6F
(1469304158.919762) can0 263#00000000AF001B
(1469304158.920786) can0 1C4#079C28080000FF9F
(1469304158.921836) can0 361#0017000000000000
(1469304158.923312) can0 260#08FFFF0000FFF160
(1469304158.923908) can0 020#0000072B
(1469304158.924120) can0 0B4#00000000000000BC
(1469304158.924410) can0 024#020001FD420880F6
(1469304158.924622) can0 025#00010002900000C0
(1469304158.924910) can0 223#000000000000002D
(1469304158.930013) can0 0AA#1A6F1A6F1A6F1A6F
(1469304158.930026) can0 1C8#80
(1469304158.933206) can0 262#000000016A
(1469304158.935959) can0 020#0000072B
(1469304158.936090) can0 0BA#05FD00C0
(1469304158.936350) can0 024#020001FF420A80FA
(1469304158.936601) can0 025#000000027000009F
(1469304158.936886) can0 224#0000000000000008
(1469304158.938244) can0 1D0#0F4C090000AC00E9
(1469304158.939212) can0 2C1#08014A005BCA0043
(1469304158.942062) can0 0AA#1A6F1A6F1A6F1A6F
(1469304158.942219) can0 1AA#0000000000B1
(1469304158.943285) can0 260#0800000000000072
(1469304158.944391) can0 263#00000000AF001B
(1469304158.945414) can0 1C4#079728080000FF9A
(1469304158.946304) can0 1C8#80
(1469304158.947981) can0 020#0000072B
(1469304158.948195) can0 0B4#00000000000000BC
(1469304158.948486) can0 024#020001FF420A80FA
(1469304158.948695) can0 025#00010002900000C0
(1469304158.948984) can0 223#000000000000002D
(1469304158.949069) can0 351#00000000
(1469304158.953243) can0 443#4002002F06000000
(1469304158.954086) can0 0AA#1A6F1A6F1A6F1A6F
(1469304158.960013) can0 020#0000072B
(1469304158.960144) can0 0BA#05FF00C2
(1469304158.960488) can0 024#020001FD420A80F8
(1469304158.960646) can0 025#00010002900000C0
(1469304158.960920) can0 224#0000000000000008
(1469304158.962729) can0 1C8#80
(1469304158.963246) can0 260#0800000000000072
(1469304158.966109) can0 0AA#1A6F1A6F1A6F1A6F
(1469304158.969012) can0 263#00000000AF001B
(1469304158.970038) can0 1C4#078A28080000FF8D
(1469304158.971061) can0 1D0#0F30090000AC00CD
(1469304158.972063) can0 2C1#08015A0061CA0059
(1469304158.972146) can0 020#0000072B
(1469304158.972490) can0 0B4#00000000000000BC
(1469304158.972671) can0 025#00010002900000C0
(1469304158.972960) can0 223#000000000000002D
(1469304158.973235) can0 262#000000016A
(1469304158.973445) can0 024#020001FB420A80F6
(1469304158.974017) can0 3A0#008F00000700006E
(1469304158.978120) can0 0AA#1A6F1A6F1A6F1A6F
(1469304158.979129) can0 1C8#80
(1469304158.983264) can0 260#0800000000000072
(1469304158.984082) can0 020#0000072B
(1469304158.984214) can0 0BA#05FB00BE
(1469304158.984450) can0 024#020001FB420880F4
(1469304158.984733) can0 025#00010002900000C0
(1469304158.984944) can0 224#0000000000000008
(1469304158.987486) can0 361#0017000000000000
(1469304158.990191) can0 0AA#1A6F1A6F1A6F1A6F
(1469304158.990344) can0 1AA#0000000000B1
(1469304158.993595) can0 263#00000000AF001B
(1469304158.994660) can0 1C4#078028080000FF83
(1469304158.995555) can0 1C8#80
(1469304158.996123) can0 020#0000072B
(1469304158.996328) can0 0B4#00000000000000BC
(1469304158.996610) can0 025#000000027000009F
(1469304158.996821) can0 223#000000000000002D
(1469304158.997341) can0 024#020001FD420880F6
(1469304159.002176) can0 0AA#1A6F1A6F1A6F1A6F
(1469304159.003238) can0 260#08FFFF0000000070
(1469304159.003911) can0 1D0#0F15090000AC00B2
(1469304159.004886) can0 2C1#0801650061CB0065
(1469304159.008135) can0 020#0000072B
(1469304159.008266) can0 0BA#05FD00C0
(1469304159.008577) can0 025#00010002900000C0
(1469304159.008769) can0 224#0000000000000008
(1469304159.008937) can0 351#00000000
(1469304159.009378) can0 024#020001FD420880F6
(1469304159.011953) can0 1C8#80
(1469304159.012106) can0 3BB#0000AF00
(1469304159.013163) can0 262#000000016A
(1469304159.014261) can0 0AA#1A6F1A6F1A6F1A6F
(1469304159.018285) can0 263#00000000AF001B
(1469304159.019337) can0 1C4#077A28080000FF7D
(1469304159.020231) can0 020#0000072B
(1469304159.020446) can0 0B4#00000000000000BC
(1469304159.020734) can0 025#000000027000009F
(1469304159.020946) can0 223#000000000000002D
(1469304159.021485) can0 024#020001FF420880F8
(1469304159.023312) can0 260#0800000000000072
(1469304159.026311) can0 0AA#1A6F1A6F1A6F1A6F
(1469304159.028478) can0 1C8#80
(1469304159.032257) can0 020#0000072B
(1469304159.032442) can0 0BA#05FF00C2
(1469304159.032643) can0 224#0000000000000008
(1469304159.033379) can0 024#020001FD420880F6
(1469304159.033599) can0 025#000000027000009F
(1469304159.036791) can0 1D0#0F00090000AC009D
(1469304159.037761) can0 2C1#080176005CCB0071
(1469304159.038361) can0 0AA#1A6F1A6F1A6F1A6F
(1469304159.038520) can0 1AA#0000000000B1
(1469304159.042911) can0 263#00000000AF001B
(1469304159.043186) can0 260#08FFFF0000FFE251
(1469304159.043963) can0 1C4#076828080000FF6B
(1469304159.044291) can0 020#0000072B
(1469304159.044523) can0 0B4#00000000000000BC
(1469304159.044810) can0 223#000000000000002D
(1469304159.044822) can0 1C8#80
(1469304159.045375) can0 024#020001FD420880F6
(1469304159.045596) can0 025#000000027000009F
(1469304159.050526) can0 0AA#1A6F1A6F1A6F1A6F
(1469304159.053215) can0 361#0017000000000000
(1469304159.053347) can0 262#000000016A
(1469304159.054360) can0 440#4202001101000000
(1469304159.056480) can0 020#0000072B
(1469304159.056614) can0 0BA#05FD00C0
(1469304159.056924) can0 224#0000000000000008
(1469304159.057384) can0 024#020001FB420A80F6
(1469304159.057596) can0 025#000000027000009F
(1469304159.060362) can0 3F9#5198260100000014
(1469304159.061253) can0 1C8#80
(1469304159.062589) can0 0AA#1A6F1A6F1A6F1A6F
(1469304159.063211) can0 260#08FFFF0000FFF160
(1469304159.067536) can0 263#00000000AF001B
(1469304159.068183) can0 351#00000000
(1469304159.068590) can0 1C4#075828080000FF5B
(1469304159.068663) can0 020#0000072B
(1469304159.069009) can0 0B4#00000000000000BC
(1469304159.069205) can0 223#000000000000002D
(1469304159.069518) can0 024#020001FB420880F4
(1469304159.069689) can0 025#000000027000009F
(1469304159.069944) can0 1D0#0EE1090000AC007D
(1469304159.070168) can0 4C3#0300000100000000
(1469304159.070571) can0 2C1#0801860057CC007D
(1469304159.074376) can0 620#1000FFFFB0500040
(1469304159.074589) can0 0AA#1A6F1A6F1A6F1A6F
(1469304159.076090) can0 3A0#008F00000700006E
(1469304159.077707) can0 1C8#80
(1469304159.080588) can0 020#0000072B
(1469304159.080682) can0 0BA#05FB00BE
(1469304159.081031) can0 224#0000000000000008
(1469304159.081048) can0 3D0#00
(1469304159.081390) can0 025#00010002900000C0
(1469304159.081590) can0 024#020001FD420880F6
(1469304159.083265) can0 260#0800000000FFF162
(1469304159.086693) can0 0AA#1A6F1A6F1A6F1A6F
(1469304159.086837) can0 1AA#0000000000B1
(1469304159.092217) can0 263#00000000B0001C
(1469304159.092611) can0 020#0000072B
(1469304159.092813) can0 0B4#00000000000000BC
(1469304159.093067) can0 223#000000000000002D
(1469304159.093318) can0 1C4#074C28080000FF4F
(1469304159.093565) can0 024#020001FF420880F8
(1469304159.093799) can0 025#00010002900000C0
(1469304159.093959) can0 262#000000016A
(1469304159.094045) can0 1C8#80
(1469304159.098720) can0 0AA#1A6F1A6F1A6F1A6F
(1469304159.101283) can0 354#01
(1469304159.102516) can0 1D0#0EBB090000AC0057
(1469304159.103217) can0 260#08FFFF0000000070
(1469304159.103390) can0 2C1#0801970056CC008D
(1469304159.104662) can0 020#0000072B
(1469304159.104742) can0 0BA#05FF00C2
(1469304159.105101) can0 224#0000000000000008
(1469304159.105337) can0 025#000000027000009F
(1469304159.105593) can0 024#020001FD420880F6
(1469304159.110534) can0 1C8#80
(1469304159.110731) can0 0AA#1A6F1A6F1A6F1A6F
(1469304159.116713) can0 020#0000072B
(1469304159.116913) can0 0B4#00000000000000BC
(1469304159.117167) can0 223#000000000000002D
(1469304159.117515) can0 024#020001FD420A80F8
(1469304159.117664) can0 025#000000027000009F
(1469304159.117891) can0 263#00000000B0001C
(1469304159.118140) can0 1C4#073D28080000FF40
(1469304159.118890) can0 361#0017000000000000
(1469304159.122821) can0 0AA#1A6F1A6F1A6F1A6F
(1469304159.123215) can0 260#08FFFF0000000070
(1469304159.126932) can0 1C8#80
(1469304159.128163) can0 351#00000000
(1469304159.128762) can0 020#0000072B
(1469304159.128857) can0 0BA#05FD00C0
(1469304159.129184) can0 224#0000000000000008
(1469304159.129381) can0 025#000000027000009F
(1469304159.129645) can0 024#020001FB420A80F6
(1469304159.133167) can0 262#000000016A
(1469304159.134869) can0 0AA#1A6F1A6F1A6F1A6F
(1469304159.135011) can0 1AA#0000000000B1
(1469304159.135235) can0 1D0#0E93090000AC002F
(1469304159.136300) can0 2C1#0801AC0052CD009F
(1469304159.140788) can0 020#0000072B
(1469304159.141019) can0 0B4#00000000000000BC
(1469304159.141317) can0 223#000000000000002D
(1469304159.141490) can0 024#020001FB420A80F6
(1469304159.141745) can0 025#000000027000009F
(1469304159.141963) can0 263#00000000AF001B
(1469304159.142515) can0 1C4#072E28080000FF31
(1469304159.142664) can0 4C1#0100000500000000
(1469304159.143266) can0 260#0800000000FFF162
(1469304159.143285) can0 1C8#80
(1469304159.146916) can0 0AA#1A6F1A6F1A6F1A6F
(1469304159.148088) can0 394#4300
(1469304159.152827) can0 020#0000072B
(1469304159.154561) can0 0BA#05FB00BE
(1469304159.154580) can0 224#0000000000000008
(1469304159.154585) can0 024#020001FB420A80F6
(1469304159.154589) can0 025#000000027000009F
(1469304159.154592) can0 442#4302000001000000
(1469304159.158965) can0 0AA#1A6F1A6F1A6F1A6F
(1469304159.159760) can0 1C8#80
(1469304159.163168) can0 260#08FFFF0000000070
(1469304159.164888) can0 020#0000072B
(1469304159.165089) can0 0B4#00000000000000BC
(1469304159.165311) can0 025#000000027000009F
(1469304159.165590) can0 024#020001FB420880F4
(1469304159.165844) can0 223#000000000000002D
(1469304159.166074) can0 263#00000000B0001C
(1469304159.167052) can0 1C4#072728080000FF2A
(1469304159.168086) can0 1D0#0E6D090000AC0009
(1469304159.169090) can0 2C1#0801B60052CD00A9
(1469304159.170990) can0 0AA#1A6F1A6F1A6F1A6F
(1469304159.173115) can0 262#000000016A
(1469304159.175021) can0 3A0#008F00000700006E
(1469304159.176186) can0 1C8#80
(1469304159.176940) can0 020#0000072B
(1469304159.177014) can0 0BA#05FB00BE
(1469304159.177358) can0 025#00010002900000C0
(1469304159.177596) can0 024#020001FD420A80F8
(1469304159.177883) can0 224#0000000000000008
(1469304159.183048) can0 0AA#1A6F1A6F1A6F1A6F
(1469304159.183147) can0 1AA#0000000000B1
(1469304159.183481) can0 260#0800000000000072
(1469304159.184113) can0 640#A800005701330000
(1469304159.184473) can0 361#0017000000000000
(1469304159.188122) can0 351#00000000
(1469304159.188991) can0 020#0000072B
(1469304159.189213) can0 0B4#00000000000000BC
(1469304159.189521) can0 024#020001FD420880F6
(1469304159.189706) can0 025#00010002900000C0
(1469304159.189982) can0 223#000000000000002D
(1469304159.190695) can0 263#00000000AF001B
(1469304159.191724) can0 1C4#071628080000FF19
(1469304159.192585) can0 1C8#80
(1469304159.195028) can0 0AA#1A6F1A6F1A6F1A6F
(1469304159.200948) can0 1D0#0E4F090000AC00EB
(1469304159.201022) can0 020#0000072B
(1469304159.201290) can0 0BA#05FD00C0
(1469304159.201515) can0 024#020001FD420A80F8
(1469304159.201797) can0 025#00010002900000C0
(1469304159.202002) can0 224#0000000000000008
(1469304159.202278) can0 2C1#0801CD0057CE00C6
(1469304159.202482) can0 420#00000000FB0180A8
(1469304159.203176) can0 260#08FFFF0000000070
(1469304159.207124) can0 0AA#1A6F1A6F1A6F1A6F
(1469304159.207276) can0 3B7#583B000000000008
(1469304159.209013) can0 1C8#80
(1469304159.213074) can0 262#000000016A
(1469304159.213127) can0 020#0000072B
(1469304159.213521) can0 0B4#00000000000000BC
(1469304159.213702) can0 223#000000000000002D
(1469304159.214334) can0 025#00010002900000C0
(1469304159.214535) can0 024#020001FB420A80F6
(1469304159.215283) can0 263#00000000AF001B
(1469304159.216404) can0 1C4#070728080000FF0A
(1469304159.219145) can0 0AA#1A6F1A6F1A6F1A6F
(1469304159.223123) can0 260#0800000000000072
(1469304159.225092) can0 020#0000072B
(1469304159.225167) can0 0BA#05FB00BE
(1469304159.225519) can0 024#020001FD420A80F8
(1469304159.225700) can0 025#00010002900000C0
(1469304159.225759) can0 1C8#80
(1469304159.226059) can0 224#0000000000000008
(1469304159.231223) can0 0AA#1A6F1A6F1A6F1A6F
(1469304159.231323) can0 1AA#0000000000B1
(1469304159.233823) can0 1D0#0E28090000AC00C4
(1469304159.234795) can0 2C1#0801D6005CCE00D4
(1469304159.237141) can0 020#0000072B
(1469304159.237361) can0 0B4#00000000000000BC
(1469304159.237645) can0 024#020001FD420A80F8
(1469304159.237853) can0 223#000000000000002D
(1469304159.238134) can0 4C6#0700030000000000
(1469304159.238365) can0 025#00010002900000C0
(1469304159.239971) can0 263#00000000B0001C
(1469304159.240996) can0 1C4#06FB28080000FFFD
(1469304159.241888) can0 1C8#80
(1469304159.243146) can0 260#0800000000000072
(1469304159.243331) can0 0AA#1A6F1A6F1A6F1A6F
(1469304159.248098) can0 351#00000000
(1469304159.249189) can0 020#0000072B
(1469304159.249270) can0 0BA#05FD00C0
(1469304159.249621) can0 224#0000000000000008
(1469304159.250244) can0 361#0017000000000000
(1469304159.250531) can0 024#020001FD420880F6
(1469304159.250678) can0 025#000000027000009F
(1469304159.253098) can0 262#000000016A
(1469304159.253306) can0 443#4002002F06000000
(1469304159.255277) can0 0AA#1A6F1A6F1A6F1A6F
(1469304159.256107) can0 610#2000006480FFFD60
(1469304159.258286) can0 1C8#80
(1469304159.261267) can0 020#0000072B
(1469304159.261490) can0 0B4#00000000000000BC
(1469304159.261773) can0 223#000000000000002D
(1469304159.261978) can0 4AC#4800A00100000324
(1469304159.262321) can0 025#000000027000009F
(1469304159.262531) can0 024#020001FD420A80F8
(1469304159.263173) can0 260#08FFFF0000000070
(1469304159.264559) can0 263#00000000B0001C
(1469304159.265557) can0 1C4#06EC28080000FFEE
(1469304159.266675) can0 1D0#0E08090000AC00A4
(1469304159.267370) can0 0AA#1A6F1A6F1A6F1A6F
(1469304159.267586) can0 2C1#0801E80063CF00EE
(1469304159.268172) can0 611#21000020000062D4
(1469304159.271446) can0 3B1#00000D0500080000
(1469304159.273526) can0 020#0000072B
(1469304159.273548) can0 0BA#05FD00C0
(1469304159.273909) can0 224#0000000000000008
(1469304159.274193) can0 025#00010002900000C0
(1469304159.274452) can0 024#020001FD420880F6
(1469304159.274643) can0 1C8#80
(1469304159.277071) can0 3A0#008F00000700006F
(1469304159.279605) can0 0AA#1A6F1A6F1A6F1A6F
(1469304159.279704) can0 1AA#0000000000B1
(1469304159.283096) can0 260#0800000000FFF162
(1469304159.285516) can0 020#0000072B
(1469304159.285719) can0 0B4#00000000000000BC
(1469304159.285966) can0 223#000000000000002D
(1469304159.286284) can0 025#000000027000009F
(1469304159.286476) can0 024#020001FD420A80F8
(1469304159.289198) can0 263#00000000B0001C
(1469304159.290224) can0 1C4#06D928080000FFDB
(1469304159.291109) can0 1C8#80
(1469304159.291622) can0 0AA#1A6F1A6F1A6F1A6F
(1469304159.293041) can0 262#000000016A
(1469304159.297539) can0 020#0000072B
(1469304159.297614) can0 0BA#05FD00C0
(1469304159.297980) can0 224#0000000000000008
(1469304159.298194) can0 025#000000027000009F
(1469304159.298521) can0 024#020001FB420A80F6
(1469304159.298647) can0 4C8#0900000000000000
(1469304159.299520) can0 1D0#0DDA090000AC0075
(1469304159.300446) can0 2C1#0801FB0069CF0007
(1469304159.303148) can0 260#08FFFF0000000070
(1469304159.303646) can0 0AA#1A6F1A6F1A6F1A6F
(1469304159.306473) can0 354#01
(1469304159.307535) can0 1C8#80
(1469304159.308055) can0 351#00000000
(1469304159.309590) can0 020#0000072B
(1469304159.309878) can0 0B4#00000000000000BC
(1469304159.310082) can0 223#000000000000002D
(1469304159.310363) can0 025#00010002900000C0
(1469304159.310547) can0 024#020001FB420A80F6
(1469304159.313761) can0 263#00000000B0001C
(1469304159.314846) can0 1C4#06CC28080000FFCE
(1469304159.315686) can0 0AA#1A6F1A6F1A6F1A6F
(1469304159.315905) can0 361#0017000000000000
(1469304159.316778) can0 3F9#5198260100000014
(1469304159.321670) can0 020#0000072B
(1469304159.321755) can0 0BA#05FB00BE
(1469304159.322082) can0 224#0000000000000008
(1469304159.322289) can0 025#000000027000009F
(1469304159.322525) can0 024#020001FD420A80F8
(1469304159.323096) can0 260#08FFFF0000000070
(1469304159.323939) can0 1C8#80
(1469304159.327704) can0 0AA#1A6F1A6F1A6F1A6F
(1469304159.327877) can0 1AA#0000000000B1
(1469304159.332072) can0 3D3#01B1
(1469304159.332327) can0 1D0#0DB8090000AC0053
(1469304159.332882) can0 262#000000016A
(1469304159.333209) can0 2C1#0802210070D10037
(1469304159.333652) can0 020#0000072B
(1469304159.333901) can0 0B4#00000000000000BC
(1469304159.334150) can0 025#00010002900000C0
(1469304159.334458) can0 223#000000000000002D
(1469304159.334631) can0 024#020001FD420880F6
(1469304159.337176) can0 3D0#00
(1469304159.338148) can0 423#00
(1469304159.338457) can0 263#00000000B0001C
(1469304159.339458) can0 1C4#06B528080000FFB7
(1469304159.339733) can0 0AA#1A6F1A6F1A6F1A6F
(1469304159.340298) can0 1C8#80
(1469304159.343009) can0 260#08FFFE0000FFF15F
(1469304159.345655) can0 020#0000072B
(1469304159.345820) can0 0BA#05FD00C0
(1469304159.346094) can0 224#0000000000000008
(1469304159.346318) can0 025#000000027000009F
(1469304159.346583) can0 024#020001FD420880F6
(1469304159.351761) can0 0AA#1A6F1A6F1A6F1A6F
(1469304159.354283) can0 440#4202001101000000
(1469304159.356751) can0 1C8#80
(1469304159.357682) can0 020#0000072B
(1469304159.357976) can0 0B4#00000000000000BC
(1469304159.358225) can0 025#000000027000009F
(1469304159.358458) can0 024#020001FD420880F6
(1469304159.358707) can0 223#000000000000002D
(1469304159.363036) can0 260#08FFFF0000FFF160
(1469304159.363256) can0 263#00000000B0001C
(1469304159.363811) can0 0AA#1A6F1A6F1A6F1A6F
(1469304159.364027) can0 1C4#06AD28080000FFAF
(1469304159.365077) can0 1D0#0D89090000AC0024
(1469304159.366027) can0 2C1#08022E0079D1004D
(1469304159.368003) can0 351#00000000
(1469304159.369752) can0 020#0000072B
(1469304159.369920) can0 0BA#05FD00C0
(1469304159.370169) can0 224#0000000000000008
(1469304159.370458) can0 024#020001FD420A80F8
(1469304159.370681) can0 025#000000027000009F
(1469304159.372930) can0 262#000000016A
(1469304159.373146) can0 1C8#80
(1469304159.374309) can0 620#1000FFFFB0500040
(1469304159.375866) can0 0AA#1A6F1A6F1A6F1A6F
(1469304159.376059) can0 1AA#0000000000B1
(1469304159.376308) can0 3A0#008F00000700006F
(1469304159.381511) can0 361#0018000000000000
(1469304159.381801) can0 020#0000072B
(1469304159.382050) can0 0B4#00000000000000BC
(1469304159.382299) can0 025#000000027000009F
(1469304159.382558) can0 024#020001FB420A80F6
(1469304159.382782) can0 223#000000000000002D
(1469304159.383031) can0 260#0800000000000072
(1469304159.383585) can0 3BC#0020000000000000
(1469304159.385606) can0 399#00000000000000
(1469304159.387659) can0 263#00000000B0001C
(1469304159.387906) can0 0AA#1A6F1A6F1A6F1A6F
(1469304159.388683) can0 1C4#069728080000FF99
(1469304159.389548) can0 1C8#80
(1469304159.393934) can0 020#0000072B
(1469304159.394027) can0 0BA#05FB00BE
(1469304159.394355) can0 224#0000000000000008
(1469304159.394541) can0 024#020001FB420A80F6
(1469304159.394793) can0 025#000000027000009F
(1469304159.397951) can0 1D0#0D5F090000AC00FA
(1469304159.398940) can0 2C1#0802340080D1005A
(1469304159.400046) can0 0AA#1A6F1A6F1A6F1A6F
(1469304159.403041) can0 260#0800000000000072
(1469304159.405989) can0 020#0000072B
(1469304159.406220) can0 0B4#00000000000000BC
(1469304159.406480) can0 024#020001FD420A80F8
(1469304159.406501) can0 1C8#80
(1469304159.406809) can0 223#000000000000002D
(1469304159.407183) can0 025#000000027000009F
(1469304159.412096) can0 0AA#1A6F1A6F1A6F1A6F
(1469304159.412264) can0 263#00000000AF001B
(1469304159.412940) can0 262#000000016A
(1469304159.413339) can0 1C4#068728080000FF89
(1469304159.418017) can0 020#0000072B
(1469304159.418118) can0 0BA#05FD00C0
(1469304159.418519) can0 224#0000000000000008
(1469304159.418613) can0 024#020001FD420880F6
(1469304159.419162) can0 025#000000027000009F
(1469304159.422435) can0 1C8#80
(1469304159.423040) can0 260#0800000000000072
(1469304159.424077) can0 0AA#1A6F1A6F1A6F1A6F
(1469304159.424259) can0 1AA#0000000000B1
(1469304159.427963) can0 351#00000000
(1469304159.430062) can0 020#0000072B
(1469304159.430262) can0 0B4#00000000000000BC
(1469304159.430523) can0 024#020001FD420880F6
(1469304159.430774) can0 223#000000000000002D
(1469304159.430997) can0 1D0#0D31090000AC00CC
(1469304159.431301) can0 025#000000027000009F
(1469304159.431767) can0 2C1#080240008CD20073
(1469304159.436169) can0 0AA#1A6F1A6F1A6F1A6F
(1469304159.436895) can0 263#00000000B0001C
(1469304159.437926) can0 1C4#067828080000FF7A
(1469304159.438856) can0 1C8#80
(1469304159.442112) can0 020#0000072B
(1469304159.442206) can0 0BA#05FD00C0
(1469304159.442542) can0 024#020001FD420880F6
(1469304159.442738) can0 224#0000000000000008
(1469304159.443039) can0 260#0800000000000072
(1469304159.443239) can0 025#000000027000009F
(1469304159.447218) can0 361#0018000000000000
(1469304159.447895) can0 394#4300
(1469304159.448193) can0 0AA#1A6F1A6F1A6F1A6F
(1469304159.452863) can0 262#000000016A
(1469304159.454164) can0 442#4302000001000000
(1469304159.454237) can0 020#0000072B
(1469304159.454589) can0 0B4#00000000000000BC
(1469304159.454764) can0 223#000000000000002D
(1469304159.455114) can0 025#000000027000009F
(1469304159.455187) can0 1C8#80
(1469304159.455524) can0 024#020001FD420A80F8
(1469304159.460295) can0 0AA#1A6F1A6F1A6F1A6F
(1469304159.461590) can0 263#00000000B0001C
(1469304159.462619) can0 1C4#066928080000FF6B
(1469304159.462992) can0 260#0800000000000072
(1469304159.463645) can0 1D0#0D09090000AC00A4
(1469304159.464616) can0 2C1#0802520096D2008F
(1469304159.466210) can0 020#0000072B
(1469304159.466303) can0 0BA#05FD00C0
(1469304159.466596) can0 224#0000000000000008
(1469304159.466995) can0 025#000000027000009F
(1469304159.467453) can0 024#020001FB420A80F6
(1469304159.471656) can0 1C8#80
(1469304159.471853) can0 38A#0804000000
(1469304159.472422) can0 0AA#1A6F1A6F1A6F1A6F
(1469304159.472648) can0 1AA#0000000000B1
(1469304159.474965) can0 3A0#008F00000700006E
(1469304159.478388) can0 020#0000072B
(1469304159.478627) can0 0B4#00000000000000BC
(1469304159.478856) can0 223#000000000000002D
(1469304159.479128) can0 025#00010002900000C0
(1469304159.479477) can0 024#020001FB420A80F6
(1469304159.482952) can0 260#08FFFF0000000070
(1469304159.484376) can0 621#1100000000000000
(1469304159.484562) can0 0AA#1A6F1A6F1A6F1A6F
(1469304159.486245) can0 263#00000000B0001C
(1469304159.487270) can0 1C4#065A28080000FF5C
(1469304159.487938) can0 351#00000000
(1469304159.488124) can0 1C8#80
(1469304159.490518) can0 020#0000072B
(1469304159.490604) can0 0BA#05FB00BE
(1469304159.490932) can0 224#0000000000000008
(1469304159.491137) can0 025#000000027000009F
(1469304159.491524) can0 024#020001FB420A80F6
(1469304159.492910) can0 262#000000016A
(1469304159.494339) can0 623#1900000000000000
(1469304159.496526) can0 1D0#0CE1090000AC007B
(1469304159.496714) can0 0AA#1A6F1A6F1A6F1A6F
(1469304159.497471) can0 2C1#08028700A6D400D6
(1469304159.502538) can0 020#0000072B
(1469304159.502747) can0 0B4#00000000000000BC
(1469304159.503040) can0 025#000000027000009F
(1469304159.503258) can0 223#000000000000002D
(1469304159.503516) can0 024#020001FD420880F6
(1469304159.503731) can0 260#08FFFF0000FFF160
(1469304159.503968) can0 624#1A00414949400000
(1469304159.504551) can0 1C8#80
(1469304159.504982) can0 383#0100010000000000
(1469304159.505288) can0 4DC#1D00000200000000
(1469304159.508574) can0 0AA#1A6F1A6F1A6F1A6F
(1469304159.508803) can0 3B7#583B000000000008
(1469304159.510860) can0 263#00000000B0001C
(1469304159.511887) can0 1C4#064D28080000FF4F
(1469304159.512316) can0 626#1C00300000000000
(1469304159.512435) can0 354#01
(1469304159.512927) can0 361#0018000000000000
(1469304159.514483) can0 020#0000072B
(1469304159.514669) can0 0BA#05FD00C0
(1469304159.514927) can0 224#0000000000000008
(1469304159.515181) can0 025#000000027000009F
(1469304159.515468) can0 024#020001FD420880F6
(1469304159.520601) can0 0AA#1A6F1A6F1A6F1A6F
(1469304159.520790) can0 1AA#0000000000B1
(1469304159.520913) can0 1C8#80
(1469304159.521322) can0 638#1300180100000000
(1469304159.522931) can0 260#08FFFE0000FFF15F
(1469304159.526553) can0 020#0000072B
(1469304159.526830) can0 0B4#00000000000000BC
(1469304159.527045) can0 025#000000027000009F
(1469304159.527267) can0 223#000000000000002D
(1469304159.527514) can0 024#020001FD420880F6
(1469304159.529299) can0 1D0#0CB7090000AC0051
(1469304159.530306) can0 2C1#08026F00B1D300C8
(1469304159.530499) can0 63C#98005A5245172060
(1469304159.532659) can0 0AA#1A6F1A6F1A6F1A6F
(1469304159.532827) can0 262#000000016A
(1469304159.535509) can0 263#00000000B0001C
(1469304159.536505) can0 1C4#063D28080000FF3F
(1469304159.537392) can0 1C8#80
(1469304159.538564) can0 020#0000072B
(1469304159.538763) can0 0BA#05FD00C0
(1469304159.539003) can0 224#0000000000000008
(1469304159.539250) can0 025#000000027000009F
(1469304159.539459) can0 024#020001FD420A80F8
(1469304159.539714) can0 63D#9900444558534B00
(1469304159.542954) can0 260#0800000000FFF162
(1469304159.544730) can0 0AA#1A6F1A6F1A6F1A6F
(1469304159.547875) can0 351#00000000
(1469304159.548292) can0 680#D800010000000000
(1469304159.550647) can0 020#0000072B
(1469304159.550907) can0 0B4#00000000000000BC
(1469304159.551122) can0 025#00010002900000C0
(1469304159.551393) can0 223#000000000000002D
(1469304159.551610) can0 024#020001FB420A80F6
(1469304159.553282) can0 443#4002002F06000000
(1469304159.553546) can0 387#0000000000003F3F
(1469304159.553808) can0 1C8#80
(1469304159.556716) can0 0AA#1A6F1A6F1A6F1A6F
(1469304159.560075) can0 263#00000000B0001C
(1469304159.561102) can0 1C4#063328080000FF35
(1469304159.562127) can0 1D0#0C94090000AC002E
(1469304159.562672) can0 020#0000072B
(1469304159.562808) can0 0BA#05FB00BE
(1469304159.563068) can0 025#000000027000009F
(1469304159.563361) can0 224#0000000000000008
(1469304159.563616) can0 024#020001FB420A80F6
(1469304159.563805) can0 260#0800000000000072
(1469304159.564029) can0 2C1#08027D00BDD300E2
(1469304159.568732) can0 0AA#1A6F1A6F1A6F1A6F
(1469304159.568951) can0 1AA#0000000000B1
(1469304159.570192) can0 1C8#80
(1469304159.572823) can0 262#000000016A
(1469304159.573402) can0 3F9#5198260100000014
(1469304159.574719) can0 020#0000072B
(1469304159.574975) can0 0B4#00000000000000BC
(1469304159.575228) can0 025#000000027000009F
(1469304159.575500) can0 223#000000000000002D
(1469304159.575691) can0 024#020001FD420A80F8
(1469304159.576960) can0 3A0#008F00000700006F
(1469304159.578512) can0 361#0019000000000000
(1469304159.580826) can0 0AA#1A6F1A6F1A6F1A6F
(1469304159.581500) can0 4DD#1E00000000000000
(1469304159.582877) can0 260#0800000000FFF162
(1469304159.583300) can0 389#0000000000000000
(1469304159.584701) can0 263#00000000B0001C
(1469304159.585727) can0 1C4#062428080000FF26
(1469304159.586621) can0 1C8#80
(1469304159.586756) can0 020#0000072B
(1469304159.586915) can0 0BA#05FD00C0
(1469304159.587186) can0 224#0000000000000008
(1469304159.587455) can0 024#020001FD420A80F8
(1469304159.587955) can0 025#000000027000009F
(1469304159.592827) can0 0AA#1A6F1A6F1A6F1A6F
(1469304159.593768) can0 3D0#00
(1469304159.594317) can0 622#1200581000000000
(1469304159.594979) can0 1D0#0C70090000AC000A
(1469304159.595957) can0 2C1#08028800C7D400F8
(1469304159.598745) can0 020#0000072B
(1469304159.598983) can0 0B4#00000000000000BC
(1469304159.599275) can0 223#000000000000002D
(1469304159.599464) can0 024#020001FD420880F6
(1469304159.599996) can0 025#000000027000009F
(1469304159.602930) can0 260#0800000000FFEE5F
(1469304159.602945) can0 1C8#80
(1469304159.604879) can0 0AA#1A6F1A6F1A6F1A6F
(1469304159.607848) can0 351#00000000
(1469304159.609300) can0 263#00000000B0001C
(1469304159.610261) can0 1C4#061928080000FF1B
(1469304159.610796) can0 020#0000072B
(1469304159.610932) can0 0BA#05FD00C0
(1469304159.611194) can0 224#0000000000000008
(1469304159.611501) can0 024#020001FD420880F6
(1469304159.611990) can0 025#000000027000009F
(1469304159.612865) can0 262#000000016A
(1469304159.613314) can0 38E#2020000000000000
(1469304159.616884) can0 0AA#1A6F1A6F1A6F1A6F
(1469304159.617067) can0 1AA#0000000000B1
(1469304159.619394) can0 1C8#80
(1469304159.622866) can0 260#0800000000000072
(1469304159.622933) can0 020#0000072B
(1469304159.623283) can0 0B4#00000000000000BC
(1469304159.623466) can0 024#020001FD420880F6
(1469304159.623723) can0 223#000000000000002D
(1469304159.624021) can0 025#000000027000009F
(1469304159.627793) can0 1D0#0C4E090000AC00E8
(1469304159.628723) can0 2C1#08029300D3D4000F
(1469304159.628946) can0 0AA#1A6F1A6F1A6F1A6F
(1469304159.633943) can0 263#00000000B0001C
(1469304159.634940) can0 1C4#061528080000FF17
(1469304159.635034) can0 020#0000072B
(1469304159.635277) can0 0BA#05FD00C0
(1469304159.635503) can0 024#020001FB420A80F6
(1469304159.635747) can0 224#0000000000000008
(1469304159.636048) can0 025#000000027000009F
(1469304159.636064) can0 1C8#80
(1469304159.641023) can0 0AA#1A6F1A6F1A6F1A6F
(1469304159.642320) can0 38F#0300000000000000
(1469304159.642871) can0 260#0800000000FFEE5F
(1469304159.644224) can0 361#0019000000000000
(1469304159.646967) can0 020#0000072B
(1469304159.647171) can0 0B4#00000000000000BC
(1469304159.647500) can0 223#000000000000002D
(1469304159.647660) can0 024#020001FB420A80F6
(1469304159.647895) can0 025#00010002900000C0
(1469304159.652258) can0 1C8#80
(1469304159.652786) can0 262#000000016A
(1469304159.653083) can0 0AA#1A6F1A6F1A6F1A6F
(1469304159.654292) can0 440#4202001101000000
(1469304159.658020) can0 380#C0A0400000004100
(1469304159.658315) can0 3B0#00B5005600180000
(1469304159.658524) can0 263#00000000B0001C
(1469304159.658966) can0 020#0000072B
(1469304159.659132) can0 0BA#05FB00BE
(1469304159.659381) can0 224#0000000000000008
(1469304159.659624) can0 024#020001FB420A80F6
(1469304159.659917) can0 025#000000027000009F
(1469304159.660121) can0 1C4#060A28080000FF0C
(1469304159.660579) can0 1D0#0C32090000AC00CC
(1469304159.661499) can0 2C1#08029900DED40020
(1469304159.662871) can0 260#0800000000000072
(1469304159.665092) can0 0AA#1A6F1A6F1A6F1A6F
(1469304159.665253) can0 1AA#0000000000B1
(1469304159.667813) can0 351#00000000
(1469304159.668654) can0 1C8#80
(1469304159.669307) can0 6E1#A180000000100000
(1469304159.671038) can0 020#0000072B
(1469304159.671300) can0 0B4#00000000000000BC
(1469304159.671491) can0 024#020001FD420880F6
(1469304159.671746) can0 223#000000000000002D
(1469304159.671991) can0 025#00010002900000C0
(1469304159.673315) can0 3A5#0000000000007EFC
(1469304159.676016) can0 3A0#008F00000700006E
(1469304159.677141) can0 0AA#1A6F1A6F1A6F1A6F
(1469304159.678314) can0 620#1000FFFFB0500040
(1469304159.682768) can0 260#08FFFF0000FFEE5D
(1469304159.683022) can0 020#0000072B
(1469304159.683171) can0 0BA#05FD00C0
(1469304159.683456) can0 024#020001FD420880F6
(1469304159.683683) can0 224#0000000000000008
(1469304159.683913) can0 025#000000027000009F
(1469304159.684128) can0 263#00000000B0001C
(1469304159.684426) can0 1C4#060028080000FF02
(1469304159.685031) can0 1C8#80
(1469304159.689141) can0 0AA#1A6F1A6F1A6F1A6F
(1469304159.692762) can0 262#000000016A
(1469304159.693438) can0 1D0#0C1B090000AC00B5
(1469304159.694417) can0 2C1#0802A300E8D50035
(1469304159.695109) can0 020#0000072B
(1469304159.695356) can0 0B4#00000000000000BC
(1469304159.695585) can0 024#020001FD420880F6
(1469304159.695826) can0 223#000000000000002D
(1469304159.696076) can0 025#00010002900000C0
(1469304159.701168) can0 0AA#1A6F1A6F1A6F1A6F
(1469304159.701466) can0 1C8#80
(1469304159.702305) can0 413#0101010900000000
(1469304159.702816) can0 260#0800000000000072
(1469304159.707122) can0 020#0000072B
(1469304159.707284) can0 0BA#05FD00C0
(1469304159.707595) can0 024#020001FD420880F6
