(1469304288.916883) can0 440#40008011010F0F0F
(1469304288.919002) can0 442#42008000010F0F0F
(1469304289.016785) can0 440#4001801101000000
(1469304289.017004) can0 620#1080FFFF80500080
(1469304289.021032) can0 442#4201800001000000
(1469304289.110858) can0 440#4212001101000000
(1469304289.111025) can0 442#4002000001000000
(1469304289.210784) can0 440#4212001101000000
(1469304289.240032) can0 610#2000006480FFFD60
(1469304289.240828) can0 621#1100000000000000
(1469304289.249828) can0 622#1200481000000000
(1469304289.252028) can0 611#21000020000062D4
(1469304289.258828) can0 623#1900000000000000
(1469304289.267834) can0 624#1A00414949400000
(1469304289.276829) can0 626#1C00300000000000
(1469304289.285829) can0 638#1300180100000000
(1469304289.294830) can0 63C#98005A5245172060
(1469304289.303805) can0 63D#9900444558534B00
(1469304289.312012) can0 442#4002000001000000
(1469304289.312828) can0 680#D800010000000000
(1469304289.321805) can0 620#1080FFFF90500080
(1469304289.339054) can0 618#2200000080000000
(1469304289.347258) can0 443#4300802F060F0F0F
(1469304289.351007) can0 619#230000000C003A80
(1469304289.363027) can0 61A#2400000000014F60
(1469304289.375029) can0 61C#2600000000000000
(1469304289.398148) can0 020#0000072B
(1469304289.400806) can0 6E1#A100030000F00000
(1469304289.409804) can0 6E2#A200CCFEFEFEFEFE
(1469304289.410101) can0 020#0000072B
(1469304289.410379) can0 0B4#00000000020000BE
(1469304289.410628) can0 223#0008000000000035
(1469304289.410859) can0 420#0000000000008AB6
(1469304289.411160) can0 440#4202001101000000
(1469304289.411350) can0 640#A800000001330000
(1469304289.422195) can0 020#0000072B
(1469304289.422289) can0 0BA#06008044
(1469304289.422628) can0 224#0000000000000048
(1469304289.422826) can0 4C3#0300000100000000
(1469304289.428305) can0 0AA#1A6F1A6F1A6F1A6F
(1469304289.428473) can0 1AA#0000000000B1
(1469304289.434204) can0 020#0000072B
(1469304289.434531) can0 0B4#00000000020000BE
(1469304289.434675) can0 223#0008000000000035
(1469304289.440313) can0 0AA#1A6F1A6F1A6F1A6F
(1469304289.446255) can0 443#4301802F06000000
(1469304289.446349) can0 020#0000072B
(1469304289.446585) can0 0BA#06008044
(1469304289.446793) can0 224#0000000000000048
(1469304289.452530) can0 0AA#1A6F1A6F1A6F1A6F
(1469304289.458448) can0 020#0000072B
(1469304289.458655) can0 0B4#00000000020000BE
(1469304289.458904) can0 223#0008000000000035
(1469304289.464528) can0 0AA#1A6F1A6F1A6F1A6F
(1469304289.468529) can0 263#0000000001006D
(1469304289.469551) can0 1C4#0000000000003E0B
(1469304289.470530) can0 020#0000072B
(1469304289.470550) can0 0BA#06008044
(1469304289.470824) can0 224#0000000000000048
(1469304289.476556) can0 0AA#1A6F1A6F1A6F1A6F
(1469304289.476697) can0 1AA#0000000000B1
(1469304289.477591) can0 354#00
(1469304289.478617) can0 1C8#00
(1469304289.482521) can0 020#0000072B
(1469304289.482674) can0 0B4#00000000020000BE
(1469304289.482928) can0 223#0008000000000035
(1469304289.485779) can0 620#1080FFFFA0500080
(1469304289.486978) can0 1D0#00000100000000DA
(1469304289.487963) can0 2C1#08FFD412A1BE0017
(1469304289.488155) can0 3F9#5198260100000014
(1469304289.488576) can0 0AA#1A6F1A6F1A6F1A6F
(1469304289.493102) can0 263#00000000AF001B
(1469304289.494153) can0 1C4#000029000000FFF5
(1469304289.494525) can0 020#0000072B
(1469304289.494618) can0 0BA#06008044
(1469304289.494940) can0 224#0000000000000048
(1469304289.494957) can0 1C8#00
(1469304289.498255) can0 4C1#0100000500000000
(1469304289.500605) can0 0AA#1A6F1A6F1A6F1A6F
(1469304289.503378) can0 361#00A0000700000000
(1469304289.505430) can0 3BC#0020000000000000
(1469304289.506376) can0 3BB#8000AF00
(1469304289.506472) can0 020#0000072B
(1469304289.506779) can0 0B4#00000000020000BE
(1469304289.507080) can0 223#0008000000000035
(1469304289.507404) can0 399#00000000000000
(1469304289.508317) can0 3D0#00
(1469304289.511420) can0 1C8#00
(1469304289.512523) can0 38A#1C04000000
(1469304289.512699) can0 0AA#1A6F1A6F1A6F1A6F
(1469304289.512979) can0 442#4302000001000000
(1469304289.517709) can0 263#00000000AF001B
(1469304289.518570) can0 020#0000072B
(1469304289.518652) can0 0BA#06008044
(1469304289.518991) can0 1C4#000029000000FFF5
(1469304289.519196) can0 224#0000000000000048
(1469304289.519790) can0 1D0#0000010000AC0086
(1469304289.520732) can0 2C1#08FFD412A1BE0017
(1469304289.524680) can0 0AA#1A6F1A6F1A6F1A6F
(1469304289.524847) can0 1AA#0000000000B1
(1469304289.527845) can0 1C8#00
(1469304289.530622) can0 020#0000072B
(1469304289.530825) can0 0B4#00000000020000BE
(1469304289.531070) can0 223#0008000000000035
(1469304289.536706) can0 0AA#1A6F1A6F1A6F1A6F
(1469304289.542312) can0 263#00000000AF001B
(1469304289.542645) can0 020#0000072B
(1469304289.542729) can0 0BA#06008044
(1469304289.543061) can0 224#0000000000000048
(1469304289.543387) can0 1C4#000029000000FFF5
(1469304289.543729) can0 025#00010002900000C0
(1469304289.544241) can0 1C8#00
(1469304289.548729) can0 0AA#1A6F1A6F1A6F1A6F
(1469304289.549176) can0 260#0E00000000000078
(1469304289.552602) can0 1D0#0000010000AC0086
(1469304289.553601) can0 2C1#08FFD412A1BE0017
(1469304289.554145) can0 351#00000000
(1469304289.554696) can0 020#0000072B
(1469304289.554903) can0 0B4#00000000020000BE
(1469304289.555192) can0 223#0008000000000035
(1469304289.555831) can0 025#00010002900000C0
(1469304289.559123) can0 262#000000016A
(1469304289.560781) can0 0AA#1A6F1A6F1A6F1A6F
(1469304289.560799) can0 1C8#00
(1469304289.562951) can0 4C6#0700030000000000
(1469304289.564231) can0 4C8#0900000000000000
(1469304289.566721) can0 020#0000072B
(1469304289.566823) can0 0BA#06008044
(1469304289.567143) can0 224#0000000000000048
(1469304289.567315) can0 263#00000000AF001B
(1469304289.567763) can0 025#00010002900000C0
(1469304289.567956) can0 1C4#000029000000FFF5
(1469304289.568793) can0 423#00
(1469304289.569023) can0 361#00A0000700000000
(1469304289.569328) can0 260#0E00000000000078
(1469304289.572722) can0 0AA#1A6F1A6F1A6F1A6F
(1469304289.572903) can0 1AA#0000000000B1
(1469304289.573975) can0 394#4300
(1469304289.576975) can0 1C8#00
(1469304289.578616) can0 020#0000072B
(1469304289.578893) can0 0B4#00000000020000BE
(1469304289.579173) can0 223#0008000000000035
(1469304289.579720) can0 025#000000027000009F
(1469304289.584830) can0 0AA#1A6F1A6F1A6F1A6F
(1469304289.585427) can0 1D0#0000010000AC0086
(1469304289.586400) can0 2C1#08FFD412A1BE0017
(1469304289.589181) can0 260#0E00000000000078
(1469304289.590771) can0 020#0000072B
(1469304289.590864) can0 0BA#06008044
(1469304289.591173) can0 224#0000000000000048
(1469304289.591475) can0 263#00000000AF001B
(1469304289.591726) can0 025#00010002900000C0
(1469304289.592646) can0 1C4#000029000000FFF5
(1469304289.593518) can0 1C8#00
(1469304289.596882) can0 0AA#1A6F1A6F1A6F1A6F
(1469304289.599072) can0 262#000000016A
(1469304289.602825) can0 020#0000072B
(1469304289.603021) can0 0B4#00000000020000BE
(1469304289.603272) can0 223#0008000000000035
(1469304289.603778) can0 025#00010002900000C0
(1469304289.608930) can0 0AA#1A6F1A6F1A6F1A6F
(1469304289.609125) can0 260#0E00000000000078
(1469304289.609847) can0 1C8#00
(1469304289.612201) can0 443#4202002F06000000
(1469304289.614032) can0 351#00000000
(1469304289.614757) can0 020#0000072B
(1469304289.614950) can0 0BA#06008044
(1469304289.615198) can0 224#0000000000000048
(1469304289.615635) can0 025#000000027000009F
(1469304289.616177) can0 263#00000000AF001B
(1469304289.616752) can0 440#4201001101000000
(1469304289.617228) can0 1C4#000029000000FFF5
(1469304289.618254) can0 1D0#0000010000AC0086
(1469304289.619229) can0 2C1#08FFD412A1BE0017
(1469304289.620979) can0 0AA#1A6F1A6F1A6F1A6F
(1469304289.621115) can0 1AA#0000000000B1
(1469304289.621345) can0 3B7#583B000000000008
(1469304289.626291) can0 1C8#00
(1469304289.626896) can0 020#0000072B
(1469304289.627130) can0 0B4#00000000020000BE
(1469304289.627433) can0 223#0008000000000035
(1469304289.627779) can0 025#00010002900000C0
(1469304289.629175) can0 260#0E00000000000078
(1469304289.633004) can0 0AA#1A6F1A6F1A6F1A6F
(1469304289.634656) can0 361#00A0000700000000
(1469304289.638950) can0 020#0000072B
(1469304289.639045) can0 0BA#06008044
(1469304289.639369) can0 224#0000000000000048
(1469304289.639466) can0 262#000000016A
(1469304289.639806) can0 025#00010002900000C0
(1469304289.640775) can0 263#00000000AF001B
(1469304289.641781) can0 1C4#000029000000FFF5
(1469304289.642615) can0 1C8#00
(1469304289.645082) can0 0AA#1A6F1A6F1A6F1A6F
(1469304289.649129) can0 260#0E00000000000078
(1469304289.651055) can0 1D0#0000010000AC0086
(1469304289.651151) can0 020#0000072B
(1469304289.651526) can0 0B4#00000000020000BE
(1469304289.651645) can0 025#00010002900000C0
(1469304289.651901) can0 223#0008000000000035
(1469304289.652125) can0 2C1#08FFD412A1BE0017
(1469304289.657111) can0 0AA#1A6F1A6F1A6F1A6F
(1469304289.659119) can0 1C8#00
(1469304289.660004) can0 610#2080006480FFFD60
(1469304289.663019) can0 020#0000072B
(1469304289.663104) can0 0BA#06008044
(1469304289.663376) can0 224#0000000000000048
(1469304289.663649) can0 025#00010002900000C0
(1469304289.665364) can0 263#00000000AF001B
(1469304289.666454) can0 1C4#000029000000FFF5
(1469304289.669103) can0 260#0E00000000000078
(1469304289.669276) can0 0AA#1A6F1A6F1A6F1A6F
(1469304289.669502) can0 1AA#0000000000B1
(1469304289.672005) can0 611#21800020000062D4
(1469304289.674030) can0 351#00000000
(1469304289.675047) can0 020#0000072B
(1469304289.675249) can0 0B4#00000000020000BE
(1469304289.675506) can0 223#0008000000000035
(1469304289.675751) can0 025#00010002900000C0
(1469304289.675808) can0 1C8#00
(1469304289.679072) can0 262#000000016A
(1469304289.681155) can0 0AA#1A6F1A6F1A6F1A6F
(1469304289.682693) can0 354#07
(1469304289.683845) can0 1D0#0000010000AC0086
(1469304289.684138) can0 618#2280000080000000
(1469304289.684851) can0 2C1#08FFD412A1BE0017
(1469304289.687073) can0 020#0000072B
(1469304289.687167) can0 0BA#06008044
(1469304289.687526) can0 224#0000000000000048
(1469304289.687677) can0 025#00010002900000C0
(1469304289.689128) can0 260#0E00000000000078
(1469304289.690004) can0 263#00000000AF001B
(1469304289.691052) can0 1C4#000029000000FFF5
(1469304289.691888) can0 1C8#00
(1469304289.693134) can0 0AA#1A6F1A6F1A6F1A6F
(1469304289.696010) can0 619#238000000C003A80
(1469304289.699097) can0 020#0000072B
(1469304289.699294) can0 0B4#00000000020000BE
(1469304289.699555) can0 223#0008000000000035
(1469304289.699810) can0 025#00010002900000C0
(1469304289.700297) can0 361#00A0000700000000
(1469304289.705143) can0 0AA#1A6F1A6F1A6F1A6F
(1469304289.708005) can0 61A#2480000000014F60
(1469304289.708364) can0 1C8#00
(1469304289.709076) can0 260#0E00000000000078
(1469304289.711003) can0 442#4302000001000000
(1469304289.711097) can0 020#0000072B
(1469304289.711299) can0 0BA#06008044
(1469304289.711558) can0 224#0000000000000048
(1469304289.711788) can0 025#000000027000009F
(1469304289.714609) can0 263#00000000AF001B
(1469304289.715686) can0 1C4#000029000000FFF5
(1469304289.716706) can0 1D0#0000010000AC0086
(1469304289.717255) can0 0AA#1A6F1A6F1A6F1A6F
(1469304289.717391) can0 1AA#0000000000B1
(1469304289.717662) can0 2C1#08FFD412A1BE0017
(1469304289.719052) can0 262#000000016A
(1469304289.720010) can0 61C#2680000000000000
(1469304289.723180) can0 020#0000072B
(1469304289.723387) can0 0B4#00000000020000BE
(1469304289.723638) can0 025#00010002900000C0
(1469304289.723883) can0 223#0008000000000035
(1469304289.724724) can0 1C8#00
(1469304289.727433) can0 383#0100010000000000
(1469304289.727745) can0 381#0000000080000000
(1469304289.728020) can0 4DC#1D00000200000000
(1469304289.729080) can0 260#0E00000000000078
(1469304289.729457) can0 0AA#1A6F1A6F1A6F1A6F
(1469304289.734031) can0 351#00000000
(1469304289.735363) can0 020#0000072B
(1469304289.735543) can0 0BA#06008044
(1469304289.735783) can0 224#0000000000000048
(1469304289.736026) can0 025#00010002900000C0
(1469304289.739255) can0 263#00000000AF001B
(1469304289.740295) can0 1C4#00CB29000000FFC0
(1469304289.741172) can0 1C8#00
(1469304289.741531) can0 0AA#1A6F1A6F1A6F1A6F
(1469304289.744337) can0 3F9#5198260100000014
(1469304289.747429) can0 020#0000072B
(1469304289.747681) can0 0B4#00000000020000BE
(1469304289.747883) can0 223#0008000000000035
(1469304289.748655) can0 025#000000027000009F
(1469304289.749106) can0 260#0E00000000000078
(1469304289.749531) can0 1D0#0000010000AC0086
(1469304289.750532) can0 2C1#08FFD412A1BE0017
(1469304289.753533) can0 0AA#1A6F1A6F1A6F1A6F
(1469304289.756243) can0 387#0000000000003F3F
(1469304289.757596) can0 1C8#00
(1469304289.758978) can0 262#000000016A
(1469304289.759424) can0 020#0000072B
(1469304289.759552) can0 0BA#06008044
(1469304289.759803) can0 224#0000000000000048
(1469304289.760553) can0 025#00010002900000C0
(1469304289.763882) can0 263#00000000B0001C
(1469304289.764901) can0 1C4#00EE29000000FFE3
(1469304289.764931) can0 3D0#00
(1469304289.765526) can0 0AA#1A6F1A6F1A6F1A6F
(1469304289.765672) can0 1AA#0000000000B1
(1469304289.765929) can0 361#00A0000100000000
(1469304289.769079) can0 260#0E00000000000078
(1469304289.771446) can0 020#0000072B
(1469304289.771657) can0 0B4#00000000020000BE
(1469304289.771905) can0 223#0008000000000035
(1469304289.772582) can0 025#00010002900000C0
(1469304289.773947) can0 1C8#00
(1469304289.777558) can0 0AA#1A6F1A6F1A6F1A6F
(1469304289.782354) can0 1D0#0000010000AC0086
(1469304289.783303) can0 2C1#08055012A1EA00C5
(1469304289.783471) can0 020#0000072B
(1469304289.783652) can0 0BA#06008044
(1469304289.783944) can0 224#0000000000000048
(1469304289.784149) can0 4DD#1E00000000000000
(1469304289.784503) can0 025#000000027000009F
(1469304289.785727) can0 620#1000FFFFA0500080
(1469304289.787276) can0 389#0000000000000000
(1469304289.788528) can0 263#00000000B0001C
(1469304289.789051) can0 260#0E00000000000078
(1469304289.789529) can0 1C4#014729000000FF3D
(1469304289.789677) can0 0AA#1A6F1A6F1A6F1A6F
(1469304289.790393) can0 1C8#00
(1469304289.794023) can0 351#00000000
(1469304289.795547) can0 020#0000072B
(1469304289.795750) can0 0B4#00000000020000BE
(1469304289.796003) can0 223#0008000000000035
(1469304289.796605) can0 025#00010002900000C0
(1469304289.798997) can0 262#000000016A
(1469304289.801631) can0 0AA#1A6F1A6F1A6F1A6F
(1469304289.804129) can0 024#5E0009FF4A088064
(1469304289.806796) can0 1C8#00
(1469304289.807613) can0 020#0000072B
(1469304289.807670) can0 0BA#06008044
(1469304289.807996) can0 224#0000000000000048
(1469304289.808532) can0 025#000000027000009F
(1469304289.809056) can0 260#0E00000000000078
(1469304289.812260) can0 443#4002002F06000000
(1469304289.813106) can0 263#00000000AF001B
(1469304289.813640) can0 0AA#1A6F1A6F1A6F1A6F
(1469304289.813833) can0 1AA#0000000000B1
(1469304289.814086) can0 1C4#015129000000FF47
(1469304289.815116) can0 1D0#0000010000AC0086
(1469304289.816138) can0 024#5E0009FF4A088064
(1469304289.816324) can0 2C1#08055212A3EA00C9
(1469304289.817263) can0 38E#2020000000000000
(1469304289.819605) can0 020#0000072B
(1469304289.819837) can0 0B4#00000000020000BE
(1469304289.820136) can0 223#0008000000000035
(1469304289.820582) can0 025#00010002900000C0
(1469304289.823226) can0 1C8#00
(1469304289.825708) can0 0AA#1A6F1A6F1A6F1A6F
(1469304289.828135) can0 024#5E0009FF4A088064
(1469304289.828987) can0 260#0E00000000000078
(1469304289.831620) can0 361#00A0000000000000
(1469304289.831640) can0 020#0000072B
(1469304289.831858) can0 0BA#060000C4
(1469304289.832161) can0 224#0000000000000048
(1469304289.832525) can0 025#00010002900000C0
(1469304289.837703) can0 263#00000000B0001C
(1469304289.837913) can0 0AA#1A6F1A6F1A6F1A6F
(1469304289.838726) can0 1C4#014729000000FF3D
(1469304289.838898) can0 262#000000016A
(1469304289.839629) can0 1C8#00
(1469304289.840128) can0 024#5E0009FD4A088062
(1469304289.843674) can0 020#0000072B
(1469304289.843906) can0 0B4#00000000020000BE
(1469304289.844155) can0 223#0008000000000035
(1469304289.844506) can0 025#00010002900000C0
(1469304289.847256) can0 38F#0300000000000000
(1469304289.847979) can0 1D0#0000010000AC0086
(1469304289.848951) can0 2C1#08055212A3EA00C9
(1469304289.849160) can0 260#0E00000000000078
(1469304289.849800) can0 0AA#1A6F1A6F1A6F1A6F
(1469304289.852093) can0 024#5E0009FA4A0A8061
(1469304289.853996) can0 351#00000000
(1469304289.855714) can0 020#0000072B
(1469304289.855844) can0 0BA#060000C4
(1469304289.856180) can0 224#0000000000000048
(1469304289.856196) can0 1C8#00
(1469304289.856529) can0 025#00010002900000C0
(1469304289.861854) can0 0AA#1A6F1A6F1A6F1A6F
(1469304289.862021) can0 1AA#0000000000B1
(1469304289.862256) can0 263#00000000AF001B
(1469304289.863286) can0 1C4#015329000000FF49
(1469304289.864076) can0 024#5E0009FA4A0A8061
(1469304289.867779) can0 020#0000072B
(1469304289.868006) can0 0B4#00000000020000BE
(1469304289.868305) can0 223#0008000000000035
(1469304289.868476) can0 025#00010002900000C0
(1469304289.869025) can0 260#0E00000000000078
(1469304289.872520) can0 1C8#00
(1469304289.873877) can0 0AA#1A6F1A6F1A6F1A6F
(1469304289.873904) can0 394#4300
(1469304289.876127) can0 024#5E0009FA4A0A8061
(1469304289.877277) can0 3A5#0000000000007EFC
(1469304289.877476) can0 382#3838380000000000
(1469304289.878923) can0 262#000000016A
(1469304289.879825) can0 020#0000072B
(1469304289.879919) can0 0BA#060000C4
(1469304289.880262) can0 224#0000000000000048
(1469304289.880489) can0 025#00010002900000C0
(1469304289.880806) can0 1D0#0031010000AC00B7
(1469304289.881754) can0 2C1#08055212A3EA00C9
(1469304289.885940) can0 0AA#1A6F1A6F1A6F1A6F
(1469304289.886926) can0 263#00000000B0001C
(1469304289.887961) can0 1C4#015D29000000FF53
(1469304289.888155) can0 024#5E0009FD4A0A8064
(1469304289.888225) can0 354#07
(1469304289.889009) can0 260#0E00000000000078
(1469304289.889026) can0 1C8#00
(1469304289.891828) can0 020#0000072B
(1469304289.892080) can0 0B4#00000000020000BE
(1469304289.892383) can0 223#0008000000000035
(1469304289.892587) can0 025#00010002900000C0
(1469304289.897161) can0 361#00A0000000000000
(1469304289.897977) can0 0AA#1A6F1A6F1A6F1A6F
(1469304289.900130) can0 024#5E000A004A088066
(1469304289.903925) can0 020#0000072B
(1469304289.904011) can0 0BA#060000C4
(1469304289.904366) can0 224#0000000000000048
(1469304289.904552) can0 025#00010002900000C0
(1469304289.905223) can0 1C8#00
(1469304289.907252) can0 413#0101010900000000
(1469304289.908981) can0 260#0E00000000000078
(1469304289.910052) can0 0AA#1A6F1A6F1A6F1A6F
(1469304289.910164) can0 1AA#0000000000B1
(1469304289.910702) can0 440#4202001101000000
(1469304289.911551) can0 263#00000000AF001B
(1469304289.912150) can0 024#5E000A014A088067
(1469304289.912577) can0 1C4#015E29000000FF54
(1469304289.913602) can0 1D0#014E010000AC00D5
(1469304289.913928) can0 351#00000000
(1469304289.914511) can0 2C1#08055012A4EA00C8
(1469304289.915933) can0 020#0000072B
(1469304289.916187) can0 0B4#00000000020000BE
(1469304289.916525) can0 025#00010002900000C0
(1469304289.916700) can0 223#0008000000000035
(1469304289.918925) can0 262#000000016A
(1469304289.921670) can0 1C8#00
(1469304289.922091) can0 0AA#1A6F1A6F1A6F1A6F
(1469304289.922289) can0 3B7#583B000000000008
(1469304289.924130) can0 024#5E000A004A088066
(1469304289.925704) can0 6E1#A180000000100000
(1469304289.928024) can0 020#0000072B
(1469304289.928117) can0 0BA#060000C4
(1469304289.928535) can0 224#0000000000000048
(1469304289.928630) can0 025#00010002900000C0
(1469304289.928905) can0 260#0E00000000000078
(1469304289.934160) can0 0AA#1A6F1A6F1A6F1A6F
(1469304289.936164) can0 024#5E0009FD4A0A8064
(1469304289.936330) can0 263#00000000B0001C
(1469304289.936605) can0 434#3F00000000000000
(1469304289.937175) can0 1C4#016229000000FF58
(1469304289.938067) can0 1C8#00
(1469304289.940078) can0 020#0000072B
(1469304289.940270) can0 0B4#00000000020000BE
(1469304289.940531) can0 025#000000027000009F
(1469304289.940787) can0 223#0008000000000035
(1469304289.946204) can0 0AA#1A6F1A6F1A6F1A6F
(1469304289.946406) can0 1D0#018B010000AC0012
(1469304289.947406) can0 2C1#08055012A4EA00C8
(1469304289.948156) can0 024#5E0009FA4A0A8061
(1469304289.948951) can0 260#0E00000000000078
(1469304289.952153) can0 020#0000072B
(1469304289.952294) can0 0BA#060000C4
(1469304289.952557) can0 025#00010002900000C0
(1469304289.952810) can0 224#0000000000000048
(1469304289.954517) can0 1C8#00
(1469304289.958401) can0 0AA#1A6F1A6F1A6F1A6F
(1469304289.958548) can0 1AA#0000000000B1
(1469304289.958801) can0 262#000000016A
(1469304289.960156) can0 024#5E0009F64A0A805D
(1469304289.960774) can0 263#00000000B0001C
(1469304289.961804) can0 1C4#016929000000FF5F
(1469304289.962826) can0 361#00A0000000000000
(1469304289.964349) can0 020#0000072B
(1469304289.964554) can0 0B4#00000000020000BE
(1469304289.964804) can0 223#0008000000000035
(1469304289.965401) can0 025#000000027000009F
(1469304289.967252) can0 435#0F0505FFE00FE003
(1469304289.968954) can0 260#0E00000000000078
(1469304289.970429) can0 0AA#1A6F1A6F1A6F1A6F
(1469304289.970893) can0 1C8#00
(1469304289.972180) can0 024#5E0009F84A0A805F
(1469304289.973895) can0 351#00000000
(1469304289.976397) can0 020#0000072B
(1469304289.976492) can0 0BA#060000C4
(1469304289.976774) can0 224#0000000000000048
(1469304289.977088) can0 6E2#A28000FEFEFEFEFE
(1469304289.977337) can0 025#00010002900000C0
(1469304289.979119) can0 3D3#00FD
(1469304289.979353) can0 1D0#01D5010000AC005C
(1469304289.980204) can0 2C1#08055012A4EA00C8
(1469304289.982527) can0 0AA#1A6F1A6F1A6F1A6F
(1469304289.984166) can0 024#5E0009FD4A0C8066
(1469304289.984357) can0 3B1#00000E0A00080000
(1469304289.984606) can0 4AC#0802200500000004
(1469304289.985375) can0 263#00000000AF001B
(1469304289.986401) can0 1C4#018429000000FF7A
(1469304289.987292) can0 1C8#00
(1469304289.988448) can0 020#0000072B
(1469304289.988655) can0 0B4#00000000020000BE
(1469304289.988903) can0 223#0008000000000035
(1469304289.989149) can0 260#0E00000000000078
(1469304289.989368) can0 025#00010002900000C0
(1469304289.994462) can0 0AA#1A6F1A6F1A6F1A6F
(1469304289.996108) can0 024#5E000A004A0C806A
(1469304289.996371) can0 436#0000000000000000
(1469304289.998820) can0 262#000000016A
(1469304290.000521) can0 020#0000072B
(1469304290.000548) can0 0BA#060000C4
(1469304290.000916) can0 224#0000000000000048
(1469304290.001112) can0 3F9#5198260100000014
(1469304290.001340) can0 025#00010002900000C0
(1469304290.003719) can0 1C8#00
(1469304290.006600) can0 0AA#1A6F1A6F1A6F1A6F
(1469304290.006745) can0 1AA#0000000000B1
(1469304290.008177) can0 024#5E00020342088059
(1469304290.008902) can0 260#0E00000000000078
(1469304290.010025) can0 263#00000000B0001C
(1469304290.011001) can0 442#4302000001000000
(1469304290.011174) can0 1C4#01F729000000FFED
(1469304290.012055) can0 1D0#0223010000AC00AB
(1469304290.012521) can0 020#0000072B
(1469304290.012719) can0 0B4#00000000020000BE
(1469304290.012972) can0 223#000000000000002D
(1469304290.013194) can0 2C1#08054D12A5EA00C6
(1469304290.013527) can0 025#000000027000009F
(1469304290.018603) can0 0AA#1A6F1A6F1A6F1A6F
(1469304290.020184) can0 024#5E00020142058054
(1469304290.020202) can0 1C8#00
(1469304290.021093) can0 3D0#00
(1469304290.024549) can0 020#0000072B
(1469304290.024642) can0 0BA#060000C4
(1469304290.024967) can0 224#0000000000000048
(1469304290.025316) can0 025#00010002900000C0
(1469304290.027254) can0 437#FCFFFFFFFFFFFFFF
(1469304290.028527) can0 361#0054000000000000
(1469304290.028899) can0 260#0E00000000000078
(1469304290.030376) can0 3B0#00B6000000000000
(1469304290.030694) can0 0AA#1A6F1A6F1A6F1A6F
(1469304290.032186) can0 024#5E0001FF42068052
(1469304290.033833) can0 351#00000000
(1469304290.034628) can0 263#00000000AF001B
(1469304290.035653) can0 1C4#035D29080000FF5D
(1469304290.036598) can0 020#0000072B
(1469304290.036799) can0 0B4#00000000020000BE
(1469304290.036872) can0 1C8#80
(1469304290.037141) can0 223#000000000000002D
(1469304290.037444) can0 025#00010002900000C0
(1469304290.038847) can0 262#000000016A
(1469304290.042729) can0 0AA#1A6F1A6F1A6F1A6F
(1469304290.044181) can0 024#5E0001FA420A8051
(1469304290.044901) can0 1D0#0387010000AC0010
(1469304290.045851) can0 2C1#0805500A5AEA0076
(1469304290.048646) can0 020#0000072B
(1469304290.048740) can0 0BA#060000C4
(1469304290.049092) can0 224#0000000000000048
(1469304290.049265) can0 025#00010002900000C0
(1469304290.049575) can0 260#0E00000000000078
(1469304290.052948) can0 1C8#80
(1469304290.054753) can0 0AA#1A6F1A6F1A6F1A6F
(1469304290.054922) can0 1AA#0000000000B1
(1469304290.056184) can0 024#5E0001F3420A804A
(1469304290.057226) can0 384#F0F000000000
(1469304290.059227) can0 263#00000000B0001C
(1469304290.060254) can0 1C4#040C29080000FF0D
(1469304290.060722) can0 020#0000072B
(1469304290.060928) can0 0B4#00000000020000BE
(1469304290.061179) can0 223#000000000000002D
(1469304290.061524) can0 025#000000027000009F
(1469304290.066828) can0 0AA#1A6F1A6F1A6F1A6F
(1469304290.068130) can0 024#5E0001F1420A8048
(1469304290.068875) can0 260#0E00000000000078
(1469304290.069367) can0 1C8#80
(1469304290.072752) can0 020#0000072B
(1469304290.072845) can0 0BA#060000C4
(1469304290.073171) can0 224#0000000000000048
(1469304290.073366) can0 025#000000027000009F
(1469304290.077703) can0 1D0#05D8010000AC0063
(1469304290.078350) can0 380#0000000000008000
(1469304290.078678) can0 2C1#0804EB0A61E70014
(1469304290.078851) can0 0AA#1A6F1A6F1A6F1A6F
(1469304290.079016) can0 262#000000016A
(1469304290.080184) can0 024#5E0001F8420A804F
(1469304290.083852) can0 263#00000000B0001C
(1469304290.084770) can0 020#0000072B
(1469304290.084969) can0 0B4#00000000020000BE
(1469304290.085222) can0 1C4#048329080000FF84
(1469304290.085495) can0 025#00010002900000C0
(1469304290.085699) can0 223#000000000000002D
(1469304290.085774) can0 1C8#80
(1469304290.086116) can0 620#1000FFFFA0500080
(1469304290.087222) can0 386#000000070003
(1469304290.088903) can0 260#0E00000000000078
(1469304290.090850) can0 0AA#1A6F1A6F1A6F1A6F
(1469304290.092180) can0 024#5E000201420C805B
(1469304290.092942) can0 354#01
(1469304290.093776) can0 351#00000000
(1469304290.094087) can0 361#0054000000000000
(1469304290.096385) can0 3A0#008B00000000006D
(1469304290.096769) can0 020#0000072B
(1469304290.096861) can0 0BA#060000C4
(1469304290.097196) can0 224#0000000000000048
(1469304290.097391) can0 025#00010002900000C0
(1469304290.102168) can0 1C8#80
(1469304290.102875) can0 0AA#1A6F1A6F1A6F1A6F
(1469304290.103022) can0 1AA#0000000000B1
(1469304290.104180) can0 024#5E000208420A8060
(1469304290.108529) can0 263#00000000AF001B
(1469304290.108842) can0 260#0E00000000000078
(1469304290.108901) can0 020#0000072B
(1469304290.109242) can0 0B4#00000000020000BE
(1469304290.109502) can0 025#000000027000009F
(1469304290.109676) can0 1C4#04F429080000FFF5
(1469304290.109974) can0 223#000000000000002D
(1469304290.110526) can0 1D0#0806010000AC0094
(1469304290.111535) can0 2C1#08042A0A52E1003E
(1469304290.112255) can0 443#4002002F06000000
(1469304290.114902) can0 0AA#1A6F1A6F1A6F1A6F
(1469304290.116179) can0 024#5600020542088053
(1469304290.117197) can0 3E6#0000000000
(1469304290.118591) can0 1C8#80
(1469304290.118727) can0 262#000000016A
(1469304290.120848) can0 020#0000072B
(1469304290.120942) can0 0BA#060000C4
(1469304290.121289) can0 224#0000000000000048
(1469304290.121475) can0 025#00010002900000C0
(1469304290.126953) can0 0AA#1A6F1A6F1A6F1A6F
(1469304290.128185) can0 024#560001FF4208804C
(1469304290.128833) can0 260#0E00000000000078
(1469304290.132899) can0 020#0000072B
(1469304290.133094) can0 0B4#00000000020000BE
(1469304290.133346) can0 025#00010002900000C0
(1469304290.133578) can0 223#000000000000002D
(1469304290.133815) can0 263#00000000AF001B
(1469304290.134428) can0 1C4#055A29080000FF5C
(1469304290.135016) can0 1C8#80
(1469304290.138983) can0 0AA#1A6F1A6F1A6F1A6F
(1469304290.140183) can0 024#560001F6420A8045
(1469304290.143352) can0 1D0#09E1010000AC0070
(1469304290.144333) can0 2C1#08038A0A27DC006D
(1469304290.144918) can0 020#0000072B
(1469304290.145010) can0 0BA#060000C4
(1469304290.145337) can0 025#00010002900000C0
(1469304290.145525) can0 224#0000000000000008
(1469304290.147254) can0 3E7#00000000000000
(1469304290.148830) can0 260#0E00000000000078
(1469304290.151005) can0 0AA#1A6F1A6F1A6F1A6F
(1469304290.151148) can0 1AA#0000000000B1
(1469304290.151368) can0 1C8#80
(1469304290.152203) can0 024#560001ED42068038
(1469304290.153797) can0 351#00000000
(1469304290.156928) can0 020#0000072B
(1469304290.157157) can0 0B4#00000000020000BE
(1469304290.157387) can0 025#00010002900000C0
(1469304290.157694) can0 223#000000000000002D
(1469304290.157849) can0 263#00000000AF001B
(1469304290.158725) can0 1C4#060329080000FF06
(1469304290.158870) can0 262#000000016A
(1469304290.159787) can0 361#004E000000000000
(1469304290.161001) can0 610#2000006480FFFD60
(1469304290.163051) can0 0AA#1A6F1A6F1A6F1A6F
(1469304290.164206) can0 024#560001F14205803B
(1469304290.167824) can0 1C8#80
(1469304290.168776) can0 260#0E00000000000078
(1469304290.168972) can0 020#0000072B
(1469304290.169132) can0 0BA#060000C4
(1469304290.169366) can0 025#00010002900000C0
(1469304290.169692) can0 224#0000000000000008
(1469304290.173723) can0 394#4300
(1469304290.175101) can0 0AA#1A6F1A6F1A6F1A6F
(1469304290.176185) can0 1D0#0B80010000AC0011
(1469304290.176354) can0 024#560001FB42068046
(1469304290.177152) can0 2C1#0802A609FBD50054
(1469304290.177348) can0 3E8#0000000000000000
(1469304290.181049) can0 020#0000072B
(1469304290.181244) can0 0B4#00000000020000BE
(1469304290.181515) can0 223#000000000000002D
(1469304290.182249) can0 025#000000027000009F
(1469304290.182488) can0 263#00000000AF001B
(1469304290.183348) can0 1C4#068629080000FF89
(1469304290.184247) can0 1C8#80
(1469304290.187126) can0 0AA#1A6F1A6F1A6F1A6F
(1469304290.188203) can0 024#56000206420D8059
(1469304290.188800) can0 260#0E00000000000078
(1469304290.193072) can0 020#0000072B
(1469304290.193165) can0 0BA#060000C4
(1469304290.193525) can0 224#0000000000000008
(1469304290.194174) can0 025#00010002900000C0
(1469304290.194349) can0 024#5200020A420F805B
(1469304290.198357) can0 3A0#008B00000000006D
(1469304290.198723) can0 262#000000016A
(1469304290.199173) can0 0AA#1A6F1A6F1A6F1A6F
(1469304290.199321) can0 1AA#0000000000B1
(1469304290.200641) can0 1C8#80
(1469304290.205123) can0 020#0000072B
(1469304290.205353) can0 0B4#00000000020000BE
(1469304290.205660) can0 223#000000000000002D
(1469304290.206229) can0 024#52000208420F8059
(1469304290.206400) can0 025#000000027000009F
(1469304290.206653) can0 3E9#0000000000000000
(1469304290.206989) can0 263#00000000B0001C
(1469304290.208010) can0 1C4#072529080000FF29
(1469304290.208853) can0 260#0E00000000000078
(1469304290.209024) can0 1D0#0D07010000AC009A
(1469304290.209976) can0 2C1#0801D50983CE0003
(1469304290.210650) can0 440#4202001101000000
(1469304290.211335) can0 0AA#1A6F1A6F1A6F1A6F
(1469304290.213677) can0 351#00000000
(1469304290.217047) can0 1C8#80
(1469304290.217272) can0 020#0000072B
(1469304290.217432) can0 0BA#060000C4
(1469304290.217693) can0 224#0000000000000008
(1469304290.218098) can0 025#000000027000009F
(1469304290.218329) can0 024#52000200420A804C
(1469304290.223376) can0 0AA#1A6F1A6F1A6F1A6F
(1469304290.223612) can0 3B7#583B000000000008
(1469304290.225452) can0 361#0048000000000000
(1469304290.228754) can0 260#0E00000000000078
(1469304290.229371) can0 020#0000072B
(1469304290.229576) can0 0B4#00000000020000BE
(1469304290.229829) can0 223#000000000000002D
(1469304290.230201) can0 025#00010002900000C0
(1469304290.230375) can0 024#520001F64205803C
(1469304290.231603) can0 263#00000000AF001B
(1469304290.232627) can0 1C4#078E29080000FF92
(1469304290.233570) can0 3BB#0000B000
(1469304290.233600) can0 1C8#80
(1469304290.235526) can0 0AA#1A6F1A6F1A6F1A6F
(1469304290.238632) can0 262#000000016A
(1469304290.240653) can0 621#1100000000000000
(1469304290.241395) can0 020#0000072B
(1469304290.241480) can0 0BA#060000C4
(1469304290.241825) can0 224#0000000000000008
(1469304290.241998) can0 1D0#0ECB090000AC0067
(1469304290.242298) can0 024#520001EF42038033
(1469304290.242475) can0 025#00010002900000C0
(1469304290.242825) can0 2C1#08014F08E7CA00DC
(1469304290.247532) can0 0AA#1A6F1A6F1A6F1A6F
(1469304290.247606) can0 1AA#0000000000B1
(1469304290.248726) can0 260#0E00000000000078
(1469304290.249650) can0 622#1200481000000000
(1469304290.249877) can0 1C8#80
(1469304290.253400) can0 020#0000072B
(1469304290.253638) can0 0B4#00000000020000BE
(1469304290.253858) can0 223#000000000000002D
(1469304290.254174) can0 025#00010002900000C0
(1469304290.254373) can0 024#520001F142058037
(1469304290.256236) can0 263#00000000B0001C
(1469304290.257275) can0 1C4#07F229080000FFF6
(1469304290.257475) can0 3F9#5198260100000014
(1469304290.258650) can0 623#1900000000000000
(1469304290.259525) can0 0AA#1A6F1A6F1A6F1A6F
(1469304290.265449) can0 020#0000072B
(1469304290.265546) can0 0BA#060000C4
(1469304290.265895) can0 224#0000000000000008
(1469304290.266093) can0 025#000000027000009F
(1469304290.266321) can0 024#520001FA420C8047
(1469304290.266459) can0 1C8#80
(1469304290.267658) can0 620#1080FFFFB0500080
(1469304290.268752) can0 260#0E00000000000078
(1469304290.271534) can0 0AA#1A6F1A6F1A6F1A6F
(1469304290.273700) can0 351#00000000
(1469304290.274700) can0 1D0#0FE2090000AC007F
(1469304290.275681) can0 2C1#0800F7083BC700D4
(1469304290.276651) can0 624#1A00414949400000
(1469304290.277520) can0 020#0000072B
(1469304290.277668) can0 0B4#00000000020000BE
(1469304290.277923) can0 223#000000000000002D
(1469304290.278175) can0 025#00010002900000C0
(1469304290.278527) can0 024#52000205420F8056
(1469304290.278695) can0 262#000000016A
(1469304290.280887) can0 263#00000000B0001C
(1469304290.281876) can0 1C4#085F29080000FF64
(1469304290.282767) can0 1C8#80
(1469304290.283552) can0 0AA#1A6F1A6F1A6F1A6F
(1469304290.285650) can0 626#1C00300000000000
(1469304290.288705) can0 260#0E00000000000078
(1469304290.289522) can0 020#0000072B
(1469304290.289601) can0 0BA#060000C4
(1469304290.289943) can0 224#0000000000000008
(1469304290.290116) can0 025#00010002900000C0
(1469304290.290369) can0 024#5200020A420C8058
(1469304290.291092) can0 361#0040000000000000
(1469304290.294652) can0 638#1300180100000000
(1469304290.295606) can0 0AA#1A6F1A6F1A6F1A6F
(1469304290.295747) can0 1AA#0000000000B1
(1469304290.297329) can0 3A0#008B00000000006D
(1469304290.298193) can0 354#01
(1469304290.299217) can0 1C8#80
(1469304290.301544) can0 020#0000072B
(1469304290.301779) can0 0B4#00000000020000BE
(1469304290.302003) can0 223#000000000000002D
(1469304290.302308) can0 024#5200020642088050
(1469304290.302501) can0 025#000000027000009F
(1469304290.303636) can0 63C#98005A5245172060
(1469304290.305525) can0 263#00000000B0001C
(1469304290.306555) can0 1C4#08AD29080000FFB2
(1469304290.307616) can0 1D0#10DD090000AC007B
(1469304290.307743) can0 0AA#1A6F1A6F1A6F1A6F
(1469304290.308558) can0 2C1#0800CD0756C600C3
(1469304290.308761) can0 260#0E00000000000078
(1469304290.310981) can0 442#4302000001000000
(1469304290.312635) can0 63D#9900444558534B00
(1469304290.313602) can0 020#0000072B
(1469304290.313688) can0 0BA#060000C4
(1469304290.314019) can0 224#0000000000000008
(1469304290.314224) can0 024#520001FD42058043
(1469304290.314486) can0 025#000000027000009F
(1469304290.315651) can0 1C8#80
(1469304290.318652) can0 262#000000016A
(1469304290.319690) can0 0AA#1A6F1A6F1A6F1A6F
(1469304290.320000) can0 610#2080006480FFFD60
(1469304290.321613) can0 680#D800010000000000
(1469304290.325653) can0 020#0000072B
(1469304290.325857) can0 0B4#00000000020000BE
(1469304290.326104) can0 025#00010002900000C0
(1469304290.326350) can0 024#520001F34206803A
(1469304290.326586) can0 223#000000000000002D
(1469304290.328759) can0 260#0E00000000000078
(1469304290.330130) can0 263#00000000AF001B
(1469304290.331155) can0 1C4#08F029080000FFF5
(1469304290.331674) can0 0AA#1A6F1A6F1A6F1A6F
(1469304290.332008) can0 618#2280000080000000
(1469304290.332024) can0 1C8#80
(1469304290.333677) can0 351#00000000
(1469304290.337680) can0 020#0000072B
(1469304290.337763) can0 0BA#060000C4
(1469304290.338097) can0 025#00010002900000C0
(1469304290.338302) can0 024#520001EF420A803A
(1469304290.338537) can0 224#0000000000000008
(1469304290.340438) can0 1D0#11B6090000AC0055
(1469304290.341382) can0 2C1#0800B2067EC500CE
(1469304290.343761) can0 0AA#1A6F1A6F1A6F1A6F
(1469304290.343948) can0 1AA#0000000000B1
(1469304290.344184) can0 619#238000000C003A80
(1469304290.348450) can0 1C8#80
(1469304290.348708) can0 260#0E00000000000078
(1469304290.349702) can0 020#0000072B
(1469304290.349909) can0 0B4#00000000020000BE
(1469304290.350160) can0 025#000000027000009F
(1469304290.350407) can0 024#520001F6420C8043
(1469304290.350626) can0 223#000000000000002D
(1469304290.354713) can0 263#00000000B0001C
(1469304290.355761) can0 1C4#092B29080000FF31
(1469304290.355946) can0 0AA#1A6F1A6F1A6F1A6F
(1469304290.356184) can0 4C3#0300000100000000
(1469304290.356492) can0 61A#2480000000014F60
(1469304290.356808) can0 361#0037000000000000
(1469304290.358602) can0 262#000000016A
(1469304290.361703) can0 020#0000072B
(1469304290.361788) can0 0BA#060000C4
(1469304290.362076) can0 025#00010002900000C0
(1469304290.362335) can0 024#52000200420C804E
(1469304290.362598) can0 224#0000000000000008
(1469304290.364873) can0 1C8#80
(1469304290.367796) can0 0AA#1A6F1A6F1A6F1A6F
(1469304290.368023) can0 61C#2680000000000000
(1469304290.368657) can0 260#0E00000000000078
(1469304290.373236) can0 1D0#1265090000AC0005
(1469304290.373683) can0 020#0000072B
(1469304290.373920) can0 0B4#00000000020000BE
(1469304290.374139) can0 025#00010002900000C0
(1469304290.374441) can0 024#5200020842088052
(1469304290.374640) can0 223#000000000000002D
(1469304290.374888) can0 2C1#08009D05B8C400F1
(1469304290.379290) can0 263#00000000B0001C
(1469304290.379811) can0 0AA#1A6F1A6F1A6F1A6F
(1469304290.380383) can0 1C4#094729080000FF4D
(1469304290.381272) can0 1C8#80
(1469304290.385755) can0 020#0000072B
(1469304290.385841) can0 0BA#060000C4
(1469304290.386197) can0 224#0000000000000008
(1469304290.386399) can0 024#5200020842068050
(1469304290.386637) can0 025#000000027000009F
(1469304290.388685) can0 260#0E00000000000078
(1469304290.391884) can0 0AA#1A6F1A6F1A6F1A6F
(1469304290.392018) can0 1AA#0000000000B1
(1469304290.393601) can0 351#00000000
(1469304290.397677) can0 1C8#80
(1469304290.397805) can0 020#0000072B
(1469304290.398069) can0 0B4#00000000020000BE
(1469304290.398315) can0 024#5200020142068049
(1469304290.398559) can0 223#000000000000002D
(1469304290.398733) can0 262#000000016A
(1469304290.399131) can0 025#000000027000009F
(1469304290.399335) can0 3A0#008B00000000006D
(1469304290.403937) can0 0AA#1A6F1A6F1A6F1A6F
(1469304290.404125) can0 263#00000000B0001C
(1469304290.405008) can0 1C4#095729080000FF5D
(1469304290.406058) can0 1D0#12D4090000AC0074
(1469304290.407036) can0 2C1#0800930501C40030
(1469304290.408685) can0 260#0E00000000000078
(1469304290.409849) can0 020#0000072B
(1469304290.409935) can0 0BA#060000C4
(1469304290.410267) can0 224#0000000000000008
(1469304290.410491) can0 024#520001F8420A8043
(1469304290.411056) can0 025#000000027000009F
(1469304290.412259) can0 443#4002002F06000000
(1469304290.412939) can0 640#A800005701330000
(1469304290.414126) can0 1C8#80
(1469304290.415939) can0 0AA#1A6F1A6F1A6F1A6F
(1469304290.416142) can0 420#00000000FB0182AA
(1469304290.421880) can0 020#0000072B
(1469304290.422112) can0 0B4#00000000020000BE
(1469304290.422335) can0 024#520001F1420C803E
(1469304290.422637) can0 223#000000000000002D
(1469304290.422841) can0 361#002F000000000000
(1469304290.423059) can0 025#000000027000009F
(1469304290.427986) can0 0AA#1A6F1A6F1A6F1A6F
(1469304290.428632) can0 260#0E00000000000078
(1469304290.428817) can0 263#00000000B0001C
(1469304290.429633) can0 1C4#096F29080000FF75
(1469304290.430550) can0 1C8#80
(1469304290.431668) can0 4C1#0100000500000000
(1469304290.433902) can0 020#0000072B
(1469304290.433990) can0 0BA#060000C4
(1469304290.434346) can0 024#520001F4420A803F
(1469304290.434551) can0 224#0000000000000008
(1469304290.435031) can0 025#00010002900000C0
(1469304290.438580) can0 262#000000016A
(1469304290.438905) can0 1D0#130C090000AC00AD
(1469304290.439886) can0 2C1#08008B0460C40086
(1469304290.440076) can0 0AA#1A6F1A6F1A6F1A6F
(1469304290.440260) can0 1AA#0000000000B1
(1469304290.445956) can0 020#0000072B
(1469304290.446159) can0 0B4#00000000020000BE
(1469304290.446404) can0 024#520001FB42088044
(1469304290.446641) can0 223#000000000000002D
(1469304290.446925) can0 1C8#80
(1469304290.447176) can0 025#00010002900000C0
(1469304290.448686) can0 260#0E00000000000078
(1469304290.452036) can0 0AA#1A6F1A6F1A6F1A6F
(1469304290.453255) can0 263#00000000B0001C
(1469304290.453579) can0 351#00000000
(1469304290.454279) can0 1C4#097F29080000FF85
(1469304290.457979) can0 020#0000072B
(1469304290.458065) can0 0BA#060000C4
(1469304290.458397) can0 224#0000000000000008
(1469304290.458933) can0 025#000000027000009F
(1469304290.459253) can0 024#520002054206804D
(1469304290.463380) can0 1C8#80
(1469304290.464093) can0 0AA#1A6F1A6F1A6F1A6F
(1469304290.468611) can0 260#0E00000000000078
(1469304290.470026) can0 020#0000072B
(1469304290.470263) can0 0B4#00000000020000BE
(1469304290.470492) can0 223#000000000000002D
(1469304290.470979) can0 025#00010002900000C0
(1469304290.471230) can0 024#5200020642088050
(1469304290.471709) can0 1D0#1322090000AC00C3
(1469304290.472686) can0 2C1#08008903CDC400F0
(1469304290.473584) can0 394#4300
(1469304290.476134) can0 0AA#1A6F1A6F1A6F1A6F
(1469304290.477856) can0 263#00000000B0001C
(1469304290.478528) can0 262#000000016A
(1469304290.478879) can0 1C4#096F29080000FF75
(1469304290.479754) can0 1C8#80
(1469304290.482252) can0 020#0000072B
(1469304290.482339) can0 0BA#060000C4
(1469304290.482682) can0 224#0000000000000008
(1469304290.482886) can0 025#00010002900000C0
(1469304290.483276) can0 024#520002014208804B
(1469304290.484218) can0 4AC#18024005000002E4
(1469304290.488115) can0 361#0028000000000000
(1469304290.488350) can0 0AA#1A6F1A6F1A6F1A6F
(1469304290.488550) can0 1AA#0000000000B1
(1469304290.488785) can0 260#0E00000000000078
(1469304290.494228) can0 020#0000072B
(1469304290.494507) can0 0B4#00000000020000BE
(1469304290.494731) can0 223#000000000000002D
(1469304290.494980) can0 025#000000027000009F
(1469304290.495233) can0 024#520001FB420A8046
(1469304290.495488) can0 3A0#008B00000000006D
(1469304290.496152) can0 1C8#80
(1469304290.500341) can0 0AA#1A6F1A6F1A6F1A6F
(1469304290.502487) can0 263#00000000B0001C
(1469304290.503516) can0 1C4#096929080000FF6F
(1469304290.503561) can0 354#01
(1469304290.504523) can0 3D3#0472
(1469304290.504726) can0 1D0#1309090000AC00AA
(1469304290.505581) can0 2C1#08008D0345C4006C
(1469304290.506303) can0 020#0000072B
(1469304290.506493) can0 0BA#060000C4
(1469304290.506704) can0 224#0000000000000008
(1469304290.506921) can0 025#00010002900000C0
(1469304290.507223) can0 024#520001F6420C8043
(1469304290.508609) can0 260#0E00000000000078
(1469304290.510564) can0 440#4202001101000000
(1469304290.512417) can0 0AA#1A6F1A6F1A6F1A6F
(1469304290.512620) can0 1C8#80
(1469304290.513526) can0 351#00000000
(1469304290.513765) can0 3F9#5198260100000014
(1469304290.518294) can0 020#0000072B
(1469304290.518594) can0 0B4#00000000020000BE
(1469304290.518794) can0 223#000000000000002D
(1469304290.519035) can0 025#000000027000009F
(1469304290.519281) can0 024#520001F6420A8041
(1469304290.519495) can0 262#000000016A
(1469304290.523008) can0 4C6#0700030000000000
(1469304290.524442) can0 0AA#1A6F1A6F1A6F1A6F
(1469304290.524644) can0 3B7#583B000000000008
(1469304290.527156) can0 263#00000000B0001C
(1469304290.528168) can0 1C4#095429080000FF5A
(1469304290.528581) can0 260#0E00000000000078
(1469304290.529154) can0 38A#0804000000
(1469304290.529178) can0 1C8#80
(1469304290.530381) can0 020#0000072B
(1469304290.530464) can0 0BA#060000C4
(1469304290.530726) can0 224#0000000000000008
(1469304290.530975) can0 025#00010002900000C0
(1469304290.531254) can0 024#520001FA42088043
(1469304290.534106) can0 3D0#00
(1469304290.536458) can0 0AA#1A6F1A6F1A6F1A6F
(1469304290.536642) can0 1AA#0000000000B1
(1469304290.537429) can0 1D0#12DC090000AC007C
(1469304290.538405) can0 2C1#08009702D0C40000
(1469304290.538981) can0 610#2080006480FFFD60
(1469304290.542383) can0 020#0000072B
(1469304290.542614) can0 0B4#00000000020000BE
(1469304290.542879) can0 025#000000027000009F
(1469304290.543095) can0 223#000000000000002D
(1469304290.543345) can0 024#520002004208804A
(1469304290.543634) can0 4C8#0900000000000000
(1469304290.545454) can0 1C8#80
(1469304290.548462) can0 0AA#1A6F1A6F1A6F1A6F
(1469304290.548681) can0 260#0E00000000000078
(1469304290.550905) can0 611#21800020000062D4
(1469304290.551746) can0 263#00000000B0001C
(1469304290.552774) can0 1C4#094929080000FF4F
(1469304290.553820) can0 361#0023000000000000
(1469304290.554349) can0 020#0000072B
(1469304290.554477) can0 0BA#060000C4
(1469304290.554820) can0 224#0000000000000008
(1469304290.555039) can0 025#00010002900000C0
(1469304290.555318) can0 024#520002034208804D
(1469304290.555898) can0 3BC#0020000000000000
(1469304290.556598) can0 620#1000FFFFB0500080
(1469304290.557893) can0 399#00000000000000
(1469304290.558516) can0 262#000000016A
(1469304290.560523) can0 0AA#1A6F1A6F1A6F1A6F
(1469304290.561885) can0 1C8#80
(1469304290.566440) can0 020#0000072B
(1469304290.566672) can0 0B4#00000000020000BE
(1469304290.566900) can0 025#000000027000009F
(1469304290.567149) can0 223#000000000000002D
(1469304290.567372) can0 024#52000201420A804D
(1469304290.568599) can0 260#0E00000000000078
(1469304290.570222) can0 1D0#12AE090000AC004E
(1469304290.571195) can0 2C1#08009A026DC400A0
(1469304290.572493) can0 0AA#1A6F1A6F1A6F1A6F
(1469304290.573430) can0 351#00000000
(1469304290.575785) can0 423#00
(1469304290.576279) can0 263#00000000B0001C
(1469304290.577348) can0 1C4#093C29080000FF42
(1469304290.578239) can0 1C8#80
(1469304290.578468) can0 020#0000072B
(1469304290.578531) can0 0BA#060000C4
(1469304290.578804) can0 224#0000000000000008
(1469304290.579109) can0 025#000000027000009F
(1469304290.579357) can0 024#520001FB420A8046
(1469304290.584526) can0 0AA#1A6F1A6F1A6F1A6F
(1469304290.584748) can0 1AA#0000000000B1
(1469304290.588522) can0 260#0E00000000000078
(1469304290.590517) can0 020#0000072B
(1469304290.590730) can0 0B4#00000000020000BE
(1469304290.591013) can0 025#000000027000009F
(1469304290.591227) can0 223#000000000000002D
(1469304290.591530) can0 024#520001F8420A8043
(1469304290.594699) can0 1C8#80
(1469304290.596609) can0 0AA#1A6F1A6F1A6F1A6F
(1469304290.597311) can0 3A0#008B00000000006D
(1469304290.598427) can0 262#000000016A
(1469304290.601010) can0 263#00000000B0001C
(1469304290.602033) can0 1C4#093929080000FF3F
(1469304290.602524) can0 020#0000072B
(1469304290.602610) can0 0BA#060000C4
(1469304290.602967) can0 224#0000000000000008
(1469304290.603169) can0 025#000000027000009F
(1469304290.603395) can0 024#520001F6420A8041
(1469304290.603636) can0 1D0#127C090000AC001C
(1469304290.603981) can0 2C1#08009E0214C4004B
(1469304290.608518) can0 260#0E00000000000078
(1469304290.608733) can0 0AA#1A6F1A6F1A6F1A6F
(1469304290.610981) can0 442#4302000001000000
(1469304290.611046) can0 1C8#80
(1469304290.614578) can0 020#0000072B
(1469304290.614821) can0 0B4#00000000020000BE
(1469304290.615043) can0 025#000000027000009F
(1469304290.615247) can0 024#520001F842088041
(1469304290.615535) can0 223#000000000000002D
(1469304290.619535) can0 361#001F000000000000
(1469304290.620655) can0 0AA#1A6F1A6F1A6F1A6F
(1469304290.625607) can0 263#00000000B0001C
(1469304290.626630) can0 1C4#093329080000FF39
(1469304290.626713) can0 020#0000072B
(1469304290.626967) can0 0BA#060000C4
(1469304290.627170) can0 224#0000000000000008
(1469304290.627507) can0 024#520001FD42088046
(1469304290.627840) can0 025#00010002900000C0
(1469304290.628557) can0 260#0E00000000000078
(1469304290.632710) can0 0AA#1A6F1A6F1A6F1A6F
(1469304290.632840) can0 1AA#0000000000B1
(1469304290.633448) can0 351#00000000
(1469304290.635883) can0 1D0#1269090000AC0009
(1469304290.636855) can0 2C1#0800A001C2C500FB
(1469304290.638403) can0 262#000000016A
(1469304290.638602) can0 020#0000072B
(1469304290.638854) can0 0B4#00000000020000BE
(1469304290.639107) can0 223#000000000000002D
(1469304290.639418) can0 024#520002004208804A
(1469304290.639891) can0 025#00010002900000C0
(1469304290.643950) can0 1C8#80
(1469304290.644731) can0 0AA#1A6F1A6F1A6F1A6F
(1469304290.648536) can0 260#0E00000000000078
(1469304290.650229) can0 263#00000000B0001C
(1469304290.650681) can0 020#0000072B
(1469304290.650767) can0 0BA#060000C4
(1469304290.651121) can0 224#0000000000000008
(1469304290.651308) can0 024#52000200420A804C
(1469304290.651536) can0 1C4#092429080000FF2A
(1469304290.651784) can0 025#000000027000009F
(1469304290.656786) can0 0AA#1A6F1A6F1A6F1A6F
(1469304290.660351) can0 1C8#80
(1469304290.662701) can0 020#0000072B
(1469304290.662950) can0 0B4#00000000020000BE
(1469304290.663206) can0 223#000000000000002D
(1469304290.663409) can0 024#520001FD420C804A
(1469304290.663811) can0 025#000000027000009F
(1469304290.668534) can0 260#0E00000000000078
(1469304290.668721) can0 1D0#124C090000AC00EC
(1469304290.668934) can0 0AA#1A6F1A6F1A6F1A6F
(1469304290.669634) can0 2C1#0800AA017DC500C0
(1469304290.674730) can0 020#0000072B
(1469304290.674900) can0 0BA#060000C4
(1469304290.675178) can0 224#0000000000000008
(1469304290.675394) can0 024#520001FA420A8045
(1469304290.675634) can0 263#00000000B0001C
(1469304290.675889) can0 025#000000027000009F
(1469304290.676069) can0 1C4#090029080000FF06
(1469304290.676704) can0 1C8#80
(1469304290.678411) can0 262#000000016A
(1469304290.680910) can0 0AA#1A6F1A6F1A6F1A6F
(1469304290.681040) can0 1AA#0000000000B1
(1469304290.685135) can0 361#001C000000000000
(1469304290.686826) can0 020#0000072B
(1469304290.687061) can0 0B4#00000000020000BE
(1469304290.687284) can0 024#520001F8420A8043
(1469304290.687588) can0 223#000000000000002D
(1469304290.687822) can0 025#000000027000009F
(1469304290.688530) can0 260#0E00000000000078
(1469304290.692934) can0 0AA#1A6F1A6F1A6F1A6F
(1469304290.693082) can0 1C8#80
(1469304290.693423) can0 351#00000000
(1469304290.694281) can0 3B1#00000D0A00080000
(1469304290.698876) can0 020#0000072B
(1469304290.698958) can0 0BA#060000C4
(1469304290.699321) can0 224#0000000000000008
(1469304290.699508) can0 024#520001F842088041
(1469304290.699816) can0 025#00010002900000C0
(1469304290.699967) can0 263#00000000B0001C
(1469304290.700279) can0 3A0#008B00000000006D
(1469304290.700494) can0 1C4#08EB29080000FFF0
(1469304290.700742) can0 620#1080FFFFB0500040
(1469304290.701489) can0 1D0#121A090000AC00BA
(1469304290.702494) can0 2C1#0800B50141C5008F
(1469304290.705010) can0 0AA#1A6F1A6F1A6F1A6F
(1469304290.708462) can0 260#0E00000000000078
(1469304290.708480) can0 354#01
(1469304290.709571) can0 1C8#80
(1469304290.710953) can0 020#0000072B
(1469304290.711242) can0 0B4#00000000020000BE
(1469304290.711394) can0 024#520001FB42088044
(1469304290.711709) can0 223#000000000000002D
(1469304290.711915) can0 025#000000027000009F
(1469304290.712253) can0 443#4002002F06000000
(1469304290.717057) can0 0AA#1A6F1A6F1A6F1A6F
(1469304290.718353) can0 262#000000016A
(1469304290.722982) can0 020#0000072B
(1469304290.723078) can0 0BA#060000C4
(1469304290.723400) can0 024#520001FF42088048
(1469304290.723613) can0 224#0000000000000008
(1469304290.723834) can0 025#000000027000009F
(1469304290.724050) can0 263#00000000B0001C
(1469304290.725106) can0 1C4#08D829080000FFDD
(1469304290.725996) can0 1C8#80
(1469304290.728533) can0 260#0E00000000000078
(1469304290.729080) can0 0AA#1A6F1A6F1A6F1A6F
(1469304290.729215) can0 1AA#0000000000B1
(1469304290.729487) can0 4DC#1D00000200000000
(1469304290.734388) can0 1D0#11D8090000AC0077
(1469304290.735002) can0 020#0000072B
(1469304290.735236) can0 0B4#00000000020000BE
(1469304290.735539) can0 223#000000000000002D
(1469304290.735725) can0 025#00010002900000C0
(1469304290.735948) can0 2C1#0800BE010AC50061
(1469304290.736236) can0 024#520002004208804A
(1469304290.741109) can0 0AA#1A6F1A6F1A6F1A6F
(1469304290.742447) can0 1C8#80
(1469304290.747038) can0 020#0000072B
(1469304290.747129) can0 0BA#060000C4
(1469304290.747532) can0 224#0000000000000008
(1469304290.747670) can0 025#00010002900000C0
(1469304290.748306) can0 024#520001FD420A8048
(1469304290.748509) can0 260#0E00000000000078
(1469304290.748738) can0 263#00000000B0001C
(1469304290.749756) can0 1C4#08C529080000FFCA
(1469304290.750761) can0 361#001A000000000000
(1469304290.753309) can0 0AA#1A6F1A6F1A6F1A6F
(1469304290.753372) can0 351#00000000
(1469304290.757195) can0 387#0000000000003F3F
(1469304290.758326) can0 262#000000016A
(1469304290.758872) can0 1C8#80
(1469304290.759214) can0 020#0000072B
(1469304290.759530) can0 0B4#00000000020000BE
(1469304290.759669) can0 025#000000027000009F
(1469304290.759935) can0 223#000000000000002D
(1469304290.760256) can0 024#520001FB420A8046
(1469304290.765261) can0 0AA#1A6F1A6F1A6F1A6F
(1469304290.767206) can0 1D0#11A4090000AC0043
(1469304290.768170) can0 2C1#0800C900DAC6003C
(1469304290.768371) can0 260#0E00000000000078
(1469304290.770254) can0 3F9#5198260100000014
(1469304290.771253) can0 020#0000072B
(1469304290.771337) can0 0BA#060000C4
(1469304290.771686) can0 224#0000000000000008
(1469304290.771888) can0 025#00010002900000C0
(1469304290.772310) can0 024#520001FA42088043
(1469304290.773279) can0 263#00000000B0001C
(1469304290.773385) can0 394#4300
(1469304290.774285) can0 1C4#08A729080000FFAC
(1469304290.775175) can0 1C8#80
(1469304290.777307) can0 0AA#1A6F1A6F1A6F1A6F
(1469304290.777491) can0 1AA#0000000000B1
(1469304290.783247) can0 020#0000072B
(1469304290.783508) can0 0B4#00000000020000BE
(1469304290.783763) can0 025#00010002900000C0
(1469304290.784012) can0 223#000000000000002D
(1469304290.784253) can0 024#520001FA42088043
(1469304290.787208) can0 389#0000000000000000
(1469304290.788453) can0 260#0E00000000000078
(1469304290.789404) can0 0AA#1A6F1A6F1A6F1A6F
(1469304290.790666) can0 3D0#00
(1469304290.791696) can0 1C8#80
(1469304290.794303) can0 4DD#1E00000000000000
(1469304290.795320) can0 020#0000072B
(1469304290.795470) can0 0BA#060000C4
(1469304290.795728) can0 025#000000027000009F
(1469304290.795972) can0 224#0000000000000008
(1469304290.796316) can0 024#520001FB42088044
(1469304290.797999) can0 263#00000000B0001C
(1469304290.798234) can0 3A0#008B00000000006D
(1469304290.798534) can0 262#000000016A
(1469304290.798963) can0 1C4#088B29080000FF90
(1469304290.799989) can0 1D0#115E090000AC00FD
(1469304290.800949) can0 2C1#0800D600B2C60021
(1469304290.801371) can0 0AA#1A6F1A6F1A6F1A6F
(1469304290.807375) can0 020#0000072B
(1469304290.807621) can0 0B4#00000000020000BE
(1469304290.807792) can0 025#000000027000009F
(1469304290.808078) can0 223#000000000000002D
(1469304290.808382) can0 024#520001FD42088046
(1469304290.808451) can0 1C8#80
(1469304290.808740) can0 260#0800000000000072
(1469304290.810554) can0 440#4202001101000000
(1469304290.813334) can0 351#00000000
(1469304290.813579) can0 0AA#1A6F1A6F1A6F1A6F
(1469304290.816485) can0 361#0018000000000000
(1469304290.817190) can0 38E#2020000000000000
(1469304290.819387) can0 020#0000072B
(1469304290.819536) can0 0BA#060000C4
(1469304290.819818) can0 224#0000000000000008
(1469304290.820290) can0 024#520001FF42088048
(1469304290.820601) can0 025#000000027000009F
(1469304290.822584) can0 263#00000000B0001C
(1469304290.823691) can0 1C4#087729080000FF7C
(1469304290.824542) can0 1C8#80
(1469304290.825555) can0 0AA#1A6F1A6F1A6F1A6F
(1469304290.825664) can0 1AA#0000000000B1
(1469304290.826000) can0 3B7#583B000000000008
(1469304290.828349) can0 260#0800000000000072
(1469304290.831534) can0 020#0000072B
(1469304290.831652) can0 0B4#00000000020000BE
(1469304290.831980) can0 223#000000000000002D
(1469304290.832329) can0 024#520001FF42088048
(1469304290.832657) can0 025#00010002900000C0
(1469304290.832804) can0 1D0#1119090000AC00B8
(1469304290.833788) can0 2C1#0800DE008EC60005
(1469304290.837541) can0 0AA#1A6F1A6F1A6F1A6F
(1469304290.838258) can0 262#000000016A
(1469304290.840519) can0 622#1280581000000000
(1469304290.840904) can0 1C8#80
(1469304290.843484) can0 020#0000072B
(1469304290.843608) can0 0BA#060000C4
(1469304290.843899) can0 224#0000000000000008
(1469304290.844271) can0 024#520001FD420A8048
(1469304290.844533) can0 025#000000027000009F
(1469304290.847211) can0 38F#0300000000000000
(1469304290.847486) can0 263#00000000B0001C
(1469304290.848193) can0 1C4#087229080000FF77
(1469304290.848483) can0 260#0800000000000072
(1469304290.849564) can0 0AA#1A6F1A6F1A6F1A6F
(1469304290.855508) can0 020#0000072B
(1469304290.855768) can0 0B4#00000000020000BE
(1469304290.855984) can0 223#000000000000002D
(1469304290.856260) can0 024#520001FB420A8046
(1469304290.856544) can0 025#000000027000009F
(1469304290.857273) can0 1C8#80
(1469304290.861656) can0 0AA#1A6F1A6F1A6F1A6F
(1469304290.865733) can0 1D0#10EE090000AC008C
(1469304290.866707) can0 2C1#0800E20074C700F0
(1469304290.867593) can0 020#0000072B
(1469304290.867669) can0 0BA#060000C4
(1469304290.867980) can0 224#0000000000000008
(1469304290.868281) can0 024#520001FA420A8045
(1469304290.868525) can0 025#000000027000009F
(1469304290.868823) can0 260#0800000000000072
(1469304290.871883) can0 263#00000000B0001C
(1469304290.872909) can0 1C4#086029080000FF65
(1469304290.873428) can0 351#00000000
(1469304290.873633) can0 0AA#1A6F1A6F1A6F1A6F
(1469304290.873858) can0 1AA#0000000000B1
(1469304290.873902) can0 1C8#80
(1469304290.877263) can0 3A5#0000000000007EFC
(1469304290.878252) can0 262#000000016A
(1469304290.879282) can0 380#C0A0400000004200
(1469304290.879592) can0 3B0#00B6005600180000
(1469304290.879654) can0 020#0000072B
(1469304290.880006) can0 0B4#00000000020000BE
(1469304290.880210) can0 223#000000000000002D
(1469304290.880487) can0 024#520001FB420A8046
(1469304290.880697) can0 025#00010002900000C0
(1469304290.882135) can0 361#0017000000000000
(1469304290.885718) can0 0AA#1A6F1A6F1A6F1A6F
(1469304290.888333) can0 260#0800000000000072
(1469304290.890200) can0 1C8#80
(1469304290.890558) can0 6E1#A180000000100000
(1469304290.891681) can0 020#0000072B
(1469304290.891766) can0 0BA#060000C4
(1469304290.892061) can0 224#0000000000000008
(1469304290.892327) can0 024#520001FB42088044
(1469304290.892540) can0 025#000000027000009F
(1469304290.896474) can0 263#00000000B0001C
(1469304290.897533) can0 1C4#084B29080000FF50
(1469304290.897738) can0 0AA#1A6F1A6F1A6F1A6F
(1469304290.898557) can0 1D0#10CD090000AC006B
(1469304290.899531) can0 2C1#0800EB0060C700E5
(1469304290.900281) can0 3A0#008B00000700006D
(1469304290.903704) can0 020#0000072B
(1469304290.903946) can0 0B4#00000000020000BE
(1469304290.904209) can0 223#000000000000002D
(1469304290.904412) can0 024#520001FD42088046
(1469304290.904662) can0 025#000000027000009F
(1469304290.906628) can0 1C8#80
(1469304290.907245) can0 413#0101010900000000
(1469304290.908385) can0 260#0800000000000072
(1469304290.909807) can0 0AA#1A6F1A6F1A6F1A6F
(1469304290.910982) can0 442#4302000001000000
(1469304290.913778) can0 354#01
(1469304290.915729) can0 020#0000072B
(1469304290.915814) can0 0BA#060000C4
(1469304290.916149) can0 224#0000000000000008
(1469304290.916351) can0 024#520001FF42088048
(1469304290.916586) can0 025#000000027000009F
(1469304290.918258) can0 382#2338380000000000
(1469304290.918390) can0 262#000000016A
(1469304290.918660) can0 381#0001019080000000
(1469304290.921067) can0 263#00000000B0001C
(1469304290.921806) can0 0AA#1A6F1A6F1A6F1A6F
(1469304290.921990) can0 1AA#0000000000B1
(1469304290.922212) can0 1C4#083929080000FF3E
(1469304290.923025) can0 1C8#80
(1469304290.927760) can0 020#0000072B
(1469304290.927960) can0 0B4#00000000020000BE
(1469304290.928211) can0 223#000000000000002D
(1469304290.928484) can0 024#520001FF420A804A
(1469304290.928691) can0 025#000000027000009F
(1469304290.928937) can0 260#0800000000000072
(1469304290.931383) can0 1D0#10A2090000AC0040
(1469304290.932360) can0 2C1#0800F5004FC700DE
(1469304290.933378) can0 351#00000000
(1469304290.933832) can0 0AA#1A6F1A6F1A6F1A6F
(1469304290.937260) can0 434#3F00000000000000
(1469304290.939392) can0 1C8#80
(1469304290.939717) can0 020#0000072B
(1469304290.939896) can0 0BA#060000C4
(1469304290.940197) can0 224#0000000000000008
(1469304290.940402) can0 024#520001FD420A8048
(1469304290.940635) can0 025#000000027000009F
(1469304290.945734) can0 263#00000000B0001C
(1469304290.945920) can0 0AA#1A6F1A6F1A6F1A6F
(1469304290.946756) can0 1C4#083029080000FF35
(1469304290.947783) can0 361#0017000000000000
(1469304290.948306) can0 260#0800000000000072
(1469304290.951778) can0 020#0000072B
(1469304290.952012) can0 0B4#00000000020000BE
(1469304290.952233) can0 223#000000000000002D
(1469304290.952541) can0 024#520001FB420A8046
(1469304290.952743) can0 025#00010002900000C0
(1469304290.955849) can0 1C8#80
(1469304290.957883) can0 0AA#1A6F1A6F1A6F1A6F
(1469304290.958202) can0 262#000000016A
(1469304290.963833) can0 020#0000072B
(1469304290.963918) can0 0BA#060000C4
(1469304290.964248) can0 1D0#1070090000AC000E
(1469304290.964508) can0 024#520001FB420A8046
(1469304290.964710) can0 025#000000027000009F
(1469304290.964960) can0 224#0000000000000008
(1469304290.965181) can0 2C1#0801860043CC0069
(1469304290.967259) can0 435#0F0505FFE00FE003
(1469304290.968336) can0 260#0800000000000072
(1469304290.969956) can0 0AA#1A6F1A6F1A6F1A6F
(1469304290.970091) can0 1AA#0000000000B1
(1469304290.970334) can0 263#00000000B0001C
(1469304290.971358) can0 1C4#081B29080000FF20
(1469304290.972248) can0 1C8#80
(1469304290.975884) can0 020#0000072B
(1469304290.976087) can0 0B4#00000000020000BE
(1469304290.976340) can0 024#520001FD42088046
(1469304290.976584) can0 025#000000027000009F
(1469304290.976834) can0 223#000000000000002D
(1469304290.977049) can0 6E2#A28000FEFEFEFEFE
(1469304290.981957) can0 0AA#1A6F1A6F1A6F1A6F
(1469304290.984338) can0 4AC#2800600100000324
(1469304290.987879) can0 020#0000072B
(1469304290.987965) can0 0BA#060000C4
(1469304290.988316) can0 224#0000000000000008
(1469304290.988519) can0 024#520001FD42088046
(1469304290.988761) can0 025#000000027000009F
(1469304290.988805) can0 1C8#80
(1469304290.989171) can0 260#0800000000FFF162
(1469304290.993329) can0 351#00000000
(1469304290.993980) can0 0AA#1A6F1A6F1A6F1A6F
(1469304290.994331) can0 3B1#00000D0900080000
(1469304290.995005) can0 263#00000000B0001C
(1469304290.996037) can0 1C4#080B29080000FF10
(1469304290.997061) can0 1D0#103E090000AC00DC
(1469304290.997266) can0 436#0000000000000000
(1469304290.998031) can0 2C1#0801AD003DCD008B
(1469304290.998116) can0 262#000000016A
(1469304290.999258) can0 3A0#008B00000700006D
(1469304290.999930) can0 020#0000072B
(1469304291.000099) can0 0B4#00000000020000BE
(1469304291.000380) can0 024#520001FF42088048
(1469304291.000635) can0 025#000000027000009F
(1469304291.000852) can0 223#000000000000002D
(1469304291.001482) can0 620#1000FFFFB0500040
(1469304291.005083) can0 1C8#80
(1469304291.006010) can0 0AA#1A6F1A6F1A6F1A6F
(1469304291.008239) can0 260#0800000000000072
(1469304291.011953) can0 020#0000072B
(1469304291.012038) can0 0BA#060000C4
(1469304291.012370) can0 024#520001FF42088048
(1469304291.012574) can0 025#00010002900000C0
(1469304291.012835) can0 224#0000000000000008
(1469304291.013053) can0 443#4002002F06000000
(1469304291.013532) can0 361#0017000000000000
(1469304291.018060) can0 0AA#1A6F1A6F1A6F1A6F
(1469304291.018190) can0 1AA#0000000000B1
(1469304291.019635) can0 263#00000000B0001C
(1469304291.020633) can0 1C4#07F429080000FFF8
(1469304291.021521) can0 1C8#80
(1469304291.023984) can0 020#0000072B
(1469304291.024218) can0 0B4#00000000020000BE
(1469304291.024533) can0 024#520001FD420A8048
(1469304291.024718) can0 025#000000027000009F
(1469304291.024960) can0 223#000000000000002D
(1469304291.026758) can0 3F9#5198260100000014
(1469304291.027256) can0 437#FCFFFFFFFFFFFFFF
(1469304291.028310) can0 260#0800000000000072
(1469304291.029748) can0 3D3#0255
(1469304291.029989) can0 1D0#1012090000AC00B0
(1469304291.030208) can0 0AA#1A6F1A6F1A6F1A6F
(1469304291.030859) can0 2C1#0801A0003DCD007E
(1469304291.035979) can0 020#0000072B
(1469304291.036112) can0 0BA#060000C4
(1469304291.036379) can0 024#520001FB420A8046
(1469304291.036641) can0 025#000000027000009F
(1469304291.036883) can0 224#0000000000000008
(1469304291.037949) can0 1C8#80
(1469304291.038150) can0 262#000000016A
(1469304291.039993) can0 610#2000006480FFFD60
(1469304291.042232) can0 0AA#1A6F1A6F1A6F1A6F
(1469304291.044234) can0 263#00000000B0001C
(1469304291.045259) can0 1C4#07EB29080000FFEF
(1469304291.047126) can0 3D0#00
(1469304291.048235) can0 260#0800000000000072
(1469304291.048299) can0 020#0000072B
(1469304291.048656) can0 0B4#00000000020000BE
(1469304291.048860) can0 223#000000000000002D
(1469304291.049330) can0 024#520001FB42088044
(1469304291.049533) can0 025#000000027000009F
(1469304291.053304) can0 351#00000000
(1469304291.054260) can0 0AA#1A6F1A6F1A6F1A6F
(1469304291.054285) can0 1C8#80
(1469304291.060178) can0 020#0000072B
(1469304291.060261) can0 0BA#060000C4
(1469304291.060631) can0 224#0000000000000008
(1469304291.060833) can0 025#00010002900000C0
(1469304291.061333) can0 024#520001FD42088046
(1469304291.062706) can0 1D0#0FE4090000AC0081
(1469304291.063659) can0 2C1#0801A60043CD008A
(1469304291.066281) can0 0AA#1A6F1A6F1A6F1A6F
(1469304291.066486) can0 1AA#0000000000B1
(1469304291.068234) can0 260#0800000000000072
(1469304291.068831) can0 263#00000000B0001C
(1469304291.069882) can0 1C4#07EB29080000FFEF
(1469304291.070747) can0 1C8#80
(1469304291.072234) can0 020#0000072B
(1469304291.072540) can0 0B4#00000000020000BE
(1469304291.072726) can0 223#000000000000002D
(1469304291.073284) can0 024#520001FD42088046
(1469304291.073517) can0 025#000000027000009F
(1469304291.073622) can0 394#4300
(1469304291.078153) can0 262#000000016A
(1469304291.078356) can0 0AA#1A6F1A6F1A6F1A6F
(1469304291.079107) can0 361#0017000000000000
(1469304291.084281) can0 020#0000072B
(1469304291.084367) can0 0BA#060000C4
(1469304291.084710) can0 224#0000000000000008
(1469304291.085332) can0 024#520001FD42088046
(1469304291.085536) can0 025#000000027000009F
(1469304291.087147) can0 1C8#80
(1469304291.088238) can0 260#0800000000000072
(1469304291.090359) can0 0AA#1A6F1A6F1A6F1A6F
(1469304291.093535) can0 263#00000000B0001C
(1469304291.094531) can0 1C4#07E129080000FFE5
(1469304291.095531) can0 1D0#0FD2090000AC006F
(1469304291.096299) can0 020#0000072B
(1469304291.096507) can0 0B4#00000000000000BC
(1469304291.096761) can0 223#000000000000002D
(1469304291.097007) can0 2C1#0801B10048CD009A
(1469304291.097294) can0 024#520001FD42088046
(1469304291.097594) can0 025#000000027000009F
(1469304291.098255) can0 3A0#008B00000700006D
(1469304291.102382) can0 0AA#1A6F1A6F1A6F1A6F
(1469304291.103602) can0 1C8#80
(1469304291.108187) can0 260#08FFFF0000000070
(1469304291.108271) can0 020#0000072B
(1469304291.108528) can0 0BA#05FD00C0
(1469304291.108731) can0 224#0000000000000008
(1469304291.109329) can0 025#000000027000009F
(1469304291.109532) can0 024#520001FD420A8048
(1469304291.113227) can0 351#00000000
(1469304291.114459) can0 0AA#1A6F1A6F1A6F1A6F
(1469304291.114591) can0 1AA#0000000000B1
(1469304291.116533) can0 440#4202001101000000
(1469304291.118083) can0 263#00000000B0001C
(1469304291.118167) can0 262#000000016A
(1469304291.119108) can0 1C4#07D529080000FFD9
(1469304291.119124) can0 354#01
(1469304291.120004) can0 1C8#80
(1469304291.120399) can0 020#0000072B
(1469304291.120624) can0 0B4#00000000000000BC
(1469304291.120920) can0 223#000000000000002D
(1469304291.121330) can0 024#020001FB420A80F6
(1469304291.121533) can0 025#000000027000009F
(1469304291.126533) can0 0AA#1A6F1A6F1A6F1A6F
(1469304291.126669) can0 3B7#583B000000000008
(1469304291.128186) can0 260#0800000000001486
(1469304291.128369) can0 1D0#0FBA090000AC0057
(1469304291.129308) can0 2C1#0801BC0053CD00B0
(1469304291.132425) can0 020#0000072B
(1469304291.132508) can0 0BA#05FB00BE
(1469304291.132879) can0 224#0000000000000008
(1469304291.133306) can0 025#000000027000009F
(1469304291.133510) can0 024#020001FD420880F6
(1469304291.136405) can0 1C8#80
(1469304291.138558) can0 0AA#1A6F1A6F1A6F1A6F
(1469304291.142705) can0 263#00000000B0001C
(1469304291.143694) can0 1C4#07CF29080000FFD3
(1469304291.144525) can0 020#0000072B
(1469304291.144729) can0 0B4#00000000000000BC
(1469304291.144952) can0 223#000000000000002D
(1469304291.145199) can0 361#0017000000000000
(1469304291.145483) can0 024#020001FB420880F4
(1469304291.145701) can0 025#000000027000009F
(1469304291.148260) can0 260#08FFFF0000000070
(1469304291.150581) can0 0AA#1A6F1A6F1A6F1A6F
(1469304291.152824) can0 1C8#80
(1469304291.156531) can0 020#0000072B
(1469304291.156617) can0 0BA#05FB00BE
(1469304291.156971) can0 224#0000000000000008
(1469304291.157290) can0 025#000000027000009F
(1469304291.157492) can0 024#020001FD420880F6
(1469304291.158128) can0 262#000000016A
(1469304291.161185) can0 1D0#0FA9090000AC0046
(1469304291.162158) can0 2C1#080138005EC90033
(1469304291.162647) can0 0AA#1A6F1A6F1A6F1A6F
(1469304291.162773) can0 1AA#0000000000B1
(1469304291.167311) can0 263#00000000B0001C
(1469304291.168141) can0 260#0800000000000072
(1469304291.168343) can0 1C4#07C129080000FFC5
(1469304291.168529) can0 020#0000072B
(1469304291.168808) can0 0B4#00000000000000BC
(1469304291.169025) can0 223#000000000000002D
(1469304291.169281) can0 025#000000027000009F
(1469304291.169533) can0 024#020001FD420A80F8
(1469304291.169580) can0 1C8#80
(1469304291.173202) can0 351#00000000
(1469304291.174706) can0 0AA#1A6F1A6F1A6F1A6F
(1469304291.180633) can0 020#0000072B
(1469304291.180719) can0 0BA#05FD00C0
(1469304291.181050) can0 224#0000000000000008
(1469304291.181253) can0 025#000000027000009F
(1469304291.181521) can0 024#020001FD420A80F8
(1469304291.185650) can0 1C8#80
(1469304291.186732) can0 0AA#1A6F1A6F1A6F1A6F
(1469304291.188134) can0 260#08FFFF0000FFF160
(1469304291.191934) can0 263#00000000B0001C
(1469304291.192633) can0 020#0000072B
(1469304291.192874) can0 0B4#00000000000000BC
(1469304291.193145) can0 1C4#07B829080000FFBC
(1469304291.193356) can0 024#020001FD420A80F8
(1469304291.193589) can0 025#000000027000009F
(1469304291.193859) can0 223#000000000000002D
(1469304291.194122) can0 1D0#0F90090000AC002D
(1469304291.194983) can0 2C1#0801450062CA0045
(1469304291.197238) can0 3A0#008B00000700006D
(1469304291.198251) can0 262#000000016A
(1469304291.198781) can0 0AA#1A6F1A6F1A6F1A6F
(1469304291.202052) can0 1C8#80
(1469304291.204707) can0 020#0000072B
(1469304291.204801) can0 0BA#05FD00C0
(1469304291.205116) can0 224#0000000000000008
(1469304291.205319) can0 025#000000027000009F
(1469304291.205587) can0 024#020001FD420A80F8
(1469304291.208161) can0 260#08FFFF0000000070
(1469304291.210408) can0 361#0017000000000000
(1469304291.210807) can0 0AA#1A6F1A6F1A6F1A6F
(1469304291.210989) can0 1AA#0000000000B1
(1469304291.211237) can0 442#4302000001000000
(1469304291.216560) can0 263#00000000B0001C
(1469304291.216687) can0 020#0000072B
(1469304291.216977) can0 0B4#00000000000000BC
(1469304291.217194) can0 025#000000027000009F
(1469304291.217492) can0 024#020001FB420880F4
(1469304291.217688) can0 1C4#07AA29080000FFAE
(1469304291.217989) can0 223#000000000000002D
(1469304291.218446) can0 1C8#80
(1469304291.222865) can0 0AA#1A6F1A6F1A6F1A6F
(1469304291.226809) can0 1D0#0F6E090000AC000B
(1469304291.227783) can0 2C1#0801580064CA005A
(1469304291.228106) can0 260#0800000000000072
(1469304291.228776) can0 020#0000072B
(1469304291.228861) can0 0BA#05FB00BE
(1469304291.229197) can0 224#0000000000000008
(1469304291.229401) can0 024#020001FB420880F4
(1469304291.229664) can0 025#000000027000009F
(1469304291.233179) can0 351#00000000
(1469304291.234884) can0 0AA#1A6F1A6F1A6F1A6F
(1469304291.234899) can0 1C8#80
(1469304291.238031) can0 262#000000016A
(1469304291.240532) can0 621#1100000000000000
(1469304291.240843) can0 020#0000072B
(1469304291.241046) can0 0B4#00000000000000BC
(1469304291.241283) can0 025#000000027000009F
(1469304291.241502) can0 024#020001FB420880F4
(1469304291.241758) can0 223#000000000000002D
(1469304291.241976) can0 263#00000000B0001C
(1469304291.242267) can0 1C4#079929080000FF9D
(1469304291.246937) can0 0AA#1A6F1A6F1A6F1A6F
(1469304291.248115) can0 260#0800000000000072
(1469304291.250532) can0 623#1900000000000000
(1469304291.251300) can0 1C8#80
(1469304291.252879) can0 020#0000072B
(1469304291.252963) can0 0BA#05FB00BE
(1469304291.253296) can0 224#0000000000000008
(1469304291.253520) can0 024#020001FD420880F6
(1469304291.253731) can0 025#000000027000009F
(1469304291.258985) can0 0AA#1A6F1A6F1A6F1A6F
(1469304291.259118) can0 1AA#0000000000B1
(1469304291.259411) can0 624#1A00414949400000
(1469304291.259668) can0 1D0#0F4C090000AC00E9
(1469304291.260633) can0 2C1#08016A0061CB006A
(1469304291.264904) can0 020#0000072B
(1469304291.265136) can0 0B4#00000000000000BC
(1469304291.265442) can0 024#020001FD420A80F8
(1469304291.265627) can0 025#000000027000009F
(1469304291.265861) can0 223#000000000000002D
(1469304291.266077) can0 263#00000000B0001C
(1469304291.266806) can0 1C4#078C29080000FF90
(1469304291.267729) can0 1C8#80
(1469304291.268172) can0 260#0800000000000072
(1469304291.268530) can0 626#1C00300000000000
(1469304291.271033) can0 0AA#1A6F1A6F1A6F1A6F
(1469304291.276085) can0 361#0017000000000000
(1469304291.277126) can0 020#0000072B
(1469304291.277209) can0 0BA#05FD00C0
(1469304291.277558) can0 224#0000000000000008
(1469304291.277760) can0 638#1300180100000000
(1469304291.277950) can0 262#000000016A
(1469304291.278234) can0 025#000000027000009F
(1469304291.278493) can0 024#020001FF420A80FA
(1469304291.283210) can0 0AA#1A6F1A6F1A6F1A6F
(1469304291.283414) can0 3F9#5198260100000014
(1469304291.284136) can0 1C8#80
(1469304291.284252) can0 3BB#0000B000
(1469304291.286457) can0 63C#98005A5245172060
(1469304291.288086) can0 260#08FFFF0000000070
(1469304291.289150) can0 020#0000072B
(1469304291.289353) can0 0B4#00000000000000BC
(1469304291.289613) can0 223#000000000000002D
(1469304291.289857) can0 4C3#0300000100000000
(1469304291.290235) can0 025#000000027000009F
(1469304291.290545) can0 024#020001FD420A80F8
(1469304291.290620) can0 263#00000000B0001C
(1469304291.291387) can0 1C4#077529080000FF79
(1469304291.292533) can0 1D0#0F1E090000AC00BB
(1469304291.293151) can0 351#00000000
(1469304291.293459) can0 2C1#080182005DCC007F
(1469304291.295196) can0 0AA#1A6F1A6F1A6F1A6F
(1469304291.295540) can0 63D#9900444558534B00
(1469304291.299210) can0 3A0#008B00000700006D
(1469304291.300549) can0 1C8#80
(1469304291.301172) can0 020#0000072B
(1469304291.301255) can0 0BA#05FD00C0
(1469304291.301606) can0 224#0000000000000008
(1469304291.302155) can0 025#000000027000009F
(1469304291.302357) can0 024#020001FD420880F6
(1469304291.303624) can0 3D0#00
(1469304291.304461) can0 680#D800010000000000
(1469304291.307258) can0 0AA#1A6F1A6F1A6F1A6F
(1469304291.307391) can0 1AA#0000000000B1
(1469304291.308059) can0 260#08FFFF0000000070
(1469304291.312242) can0 443#4002002F06000000
(1469304291.313201) can0 020#0000072B
(1469304291.313404) can0 0B4#00000000000000BC
(1469304291.313662) can0 223#000000000000002D
(1469304291.313910) can0 620#1000FFFFB0500040
(1469304291.314191) can0 025#000000027000009F
(1469304291.314418) can0 024#020001FB420880F4
(1469304291.315081) can0 263#00000000B0001C
(1469304291.316074) can0 1C4#076D29080000FF71
(1469304291.316996) can0 1C8#80
(1469304291.318077) can0 262#000000016A
(1469304291.319311) can0 0AA#1A6F1A6F1A6F1A6F
(1469304291.324150) can0 354#01
(1469304291.325250) can0 020#0000072B
(1469304291.325333) can0 0BA#05FB00BE
(1469304291.325656) can0 1D0#0EF7090000AC0093
(1469304291.325898) can0 224#0000000000000008
(1469304291.326119) can0 025#000000027000009F
(1469304291.326416) can0 024#020001FB420880F4
(1469304291.326619) can0 2C1#08018E005ACC0088
(1469304291.328075) can0 260#0800000000000072
(1469304291.331356) can0 0AA#1A6F1A6F1A6F1A6F
(1469304291.333400) can0 1C8#80
(1469304291.337305) can0 020#0000072B
(1469304291.337509) can0 0B4#00000000000000BC
(1469304291.337759) can0 223#000000000000002D
(1469304291.338182) can0 025#000000027000009F
(1469304291.338385) can0 024#020001FD420880F6
(1469304291.339712) can0 263#00000000B0001C
(1469304291.340709) can0 1C4#076429080000FF68
(1469304291.341757) can0 361#0017000000000000
(1469304291.343382) can0 0AA#1A6F1A6F1A6F1A6F
(1469304291.348035) can0 260#0800000000000072
(1469304291.349353) can0 020#0000072B
(1469304291.349437) can0 0BA#05FD00C0
(1469304291.349776) can0 224#0000000000000008
(1469304291.349793) can0 1C8#80
(1469304291.350137) can0 025#000000027000009F
(1469304291.350340) can0 024#020001FD420A80F8
(1469304291.353103) can0 351#00000000
(1469304291.355431) can0 0AA#1A6F1A6F1A6F1A6F
(1469304291.355592) can0 1AA#0000000000B1
(1469304291.357954) can0 262#000000016A
(1469304291.358159) can0 1D0#0EDC090000AC0078
(1469304291.359131) can0 2C1#08019D0057CC0094
(1469304291.361354) can0 020#0000072B
(1469304291.361558) can0 0B4#00000000000000BC
(1469304291.361816) can0 223#000000000000002D
(1469304291.362135) can0 025#000000027000009F
(1469304291.362359) can0 024#020001FD420A80F8
(1469304291.364301) can0 263#00000000B0001C
(1469304291.365276) can0 1C4#075329080000FF57
(1469304291.365584) can0 4C1#0100000500000000
(1469304291.366216) can0 1C8#80
(1469304291.367432) can0 0AA#1A6F1A6F1A6F1A6F
(1469304291.368028) can0 260#0800000000001486
(1469304291.372923) can0 394#4300
(1469304291.373363) can0 020#0000072B
(1469304291.373451) can0 0BA#05FD00C0
(1469304291.373799) can0 224#0000000000000008
(1469304291.374111) can0 025#000000027000009F
(1469304291.374337) can0 024#020001FD420A80F8
(1469304291.379529) can0 0AA#1A6F1A6F1A6F1A6F
(1469304291.382617) can0 1C8#80
(1469304291.385399) can0 020#0000072B
(1469304291.385637) can0 0B4#00000000000000BC
(1469304291.385938) can0 223#000000000000002D
(1469304291.386099) can0 025#000000027000009F
(1469304291.386400) can0 024#020001FB420A80F6
(1469304291.388055) can0 260#0800000000000072
(1469304291.388926) can0 263#00000000B0001C
(1469304291.389929) can0 1C4#074429080000FF48
(1469304291.390977) can0 1D0#0EB9090000AC0055
(1469304291.391535) can0 0AA#1A6F1A6F1A6F1A6F
(1469304291.391958) can0 2C1#0801B00056CD00A7
(1469304291.397451) can0 020#0000072B
(1469304291.397547) can0 0BA#05FB00BE
(1469304291.397900) can0 224#0000000000000008
(1469304291.398067) can0 025#000000027000009F
(1469304291.398260) can0 262#000000016A
(1469304291.398502) can0 024#020001FB420A80F6
(1469304291.398763) can0 3A0#008B00000700006D
(1469304291.399013) can0 1C8#80
(1469304291.403595) can0 0AA#1A6F1A6F1A6F1A6F
(1469304291.403693) can0 1AA#0000000000B1
(1469304291.407401) can0 361#0017000000000000
(1469304291.407984) can0 260#0800000000000072
(1469304291.409520) can0 020#0000072B
(1469304291.409693) can0 0B4#00000000000000BC
(1469304291.409994) can0 223#000000000000002D
(1469304291.410192) can0 025#000000027000009F
(1469304291.410480) can0 024#020001FB420A80F6
(1469304291.410677) can0 440#4202001101000000
(1469304291.411979) can0 640#A800005701330000
(1469304291.413074) can0 351#00000000
(1469304291.413527) can0 263#00000000B0001C
(1469304291.414484) can0 1C4#073729080000FF3B
(1469304291.415440) can0 1C8#80
(1469304291.415629) can0 0AA#1A6F1A6F1A6F1A6F
(1469304291.421473) can0 020#0000072B
(1469304291.421652) can0 0BA#05FB00BE
(1469304291.421898) can0 224#0000000000000008
(1469304291.422148) can0 025#000000027000009F
(1469304291.422369) can0 024#020001FD420880F6
(1469304291.422605) can0 420#00000000FB0180A8
(1469304291.423712) can0 1D0#0E93090000AC002F
(1469304291.424687) can0 2C1#0801BC0058CD00B5
(1469304291.427591) can0 0AA#1A6F1A6F1A6F1A6F
(1469304291.427807) can0 3B7#583B000000000008
(1469304291.428063) can0 260#08FFFF0000FFF160
(1469304291.431850) can0 1C8#80
(1469304291.433575) can0 020#0000072B
(1469304291.433781) can0 0B4#00000000000000BC
(1469304291.434140) can0 025#000000027000009F
(1469304291.434232) can0 223#000000000000002D
(1469304291.434508) can0 024#020001FD420A80F8
(1469304291.437978) can0 262#000000016A
(1469304291.438180) can0 263#00000000B0001C
(1469304291.439183) can0 1C4#072E29080000FF32
(1469304291.439692) can0 0AA#1A6F1A6F1A6F1A6F
(1469304291.445630) can0 020#0000072B
(1469304291.445715) can0 0BA#05FD00C0
(1469304291.446024) can0 224#0000000000000008
(1469304291.446259) can0 025#00010002900000C0
(1469304291.446557) can0 024#020001FF420A80FA
(1469304291.448011) can0 260#0800000000000072
(1469304291.448236) can0 1C8#80
(1469304291.451738) can0 0AA#1A6F1A6F1A6F1A6F
(1469304291.451866) can0 1AA#0000000000B1
(1469304291.456636) can0 1D0#0E6F090000AC000B
(1469304291.457580) can0 2C1#0801CE005BCE00CB
(1469304291.457666) can0 020#0000072B
(1469304291.457999) can0 0B4#00000000000000BC
(1469304291.458202) can0 025#000000027000009F
(1469304291.458487) can0 024#020001FD420A80F8
(1469304291.458704) can0 223#000000000000002D
(1469304291.462717) can0 263#00000000B0001C
(1469304291.463763) can0 0AA#1A6F1A6F1A6F1A6F
(1469304291.463967) can0 1C4#071C29080000FF20
(1469304291.464625) can0 1C8#80
(1469304291.467984) can0 260#0800000000000072
(1469304291.469701) can0 020#0000072B
(1469304291.469788) can0 0BA#05FD00C0
(1469304291.470120) can0 224#0000000000000008
(1469304291.470323) can0 025#000000027000009F
(1469304291.470561) can0 024#020001FB420A80F6
(1469304291.473037) can0 361#0017000000000000
(1469304291.473123) can0 351#00000000
(1469304291.475821) can0 0AA#1A6F1A6F1A6F1A6F
(1469304291.477878) can0 262#000000016A
(1469304291.481074) can0 1C8#80
(1469304291.481749) can0 020#0000072B
(1469304291.482041) can0 0B4#00000000000000BC
(1469304291.482192) can0 025#000000027000009F
(1469304291.482534) can0 024#020001FB420880F4
(1469304291.482716) can0 223#000000000000002D
(1469304291.483184) can0 4C6#0700030000000000
(1469304291.484412) can0 4AC#4800A00100000324
(1469304291.487380) can0 263#00000000B0001C
(1469304291.487839) can0 0AA#1A6F1A6F1A6F1A6F
(1469304291.488045) can0 260#08FFFF0000000070
(1469304291.488415) can0 1C4#070829080000FF0C
(1469304291.489459) can0 1D0#0E45090000AC00E1
(1469304291.490410) can0 2C1#080208005FD0000C
(1469304291.493778) can0 020#0000072B
(1469304291.493875) can0 0BA#05FB00BE
(1469304291.494192) can0 025#000000027000009F
(1469304291.494394) can0 024#020001FB420A80F6
(1469304291.494636) can0 224#0000000000000008
(1469304291.494882) can0 3B1#00000D0500080000
(1469304291.497522) can0 1C8#80
(1469304291.499884) can0 0AA#1A6F1A6F1A6F1A6F
(1469304291.500016) can0 1AA#0000000000B1
(1469304291.500285) can0 3A0#008B00000700006D
(1469304291.505853) can0 020#0000072B
(1469304291.506056) can0 0B4#00000000000000BC
(1469304291.506308) can0 223#000000000000002D
(1469304291.506557) can0 024#020001FB420880F4
(1469304291.507015) can0 025#00010002900000C0
(1469304291.507982) can0 260#0800000000000072
(1469304291.510955) can0 442#4302000001000000
(1469304291.511960) can0 0AA#1A6F1A6F1A6F1A6F
(1469304291.512145) can0 263#00000000B0001C
(1469304291.513031) can0 1C4#06FB29080000FFFE
(1469304291.513900) can0 1C8#80
(1469304291.517854) can0 262#000000016A
(1469304291.517941) can0 020#0000072B
(1469304291.518192) can0 0BA#05FB00BE
(1469304291.518531) can0 024#020001FD420A80F8
(1469304291.518616) can0 224#0000000000000008
(1469304291.518967) can0 025#000000027000009F
(1469304291.522216) can0 1D0#0E23090000AC00BF
(1469304291.523033) can0 4C8#0900000000000000
(1469304291.523240) can0 2C1#0802490068D20058
(1469304291.524161) can0 0AA#1A6F1A6F1A6F1A6F
(1469304291.527934) can0 260#08FFFE000000006F
(1469304291.529271) can0 354#01
(1469304291.530099) can0 020#0000072B
(1469304291.530305) can0 0B4#00000000000000BC
(1469304291.530563) can0 024#020001FD420880F6
(1469304291.530607) can0 1C8#80
(1469304291.530927) can0 223#000000000000002D
(1469304291.531157) can0 025#000000027000009F
(1469304291.532888) can0 351#00000000
(1469304291.536220) can0 0AA#1A6F1A6F1A6F1A6F
(1469304291.536605) can0 263#00000000B0001C
(1469304291.537605) can0 1C4#06EB29080000FFEE
(1469304291.537979) can0 610#2000006480FFFD60
(1469304291.538680) can0 361#0017000000000000
(1469304291.539641) can0 3F9#5198260100000014
(1469304291.542127) can0 020#0000072B
(1469304291.542212) can0 0BA#05FD00C0
(1469304291.542557) can0 224#0000000000000008
(1469304291.542930) can0 025#000000027000009F
(1469304291.543404) can0 024#020001FD420880F6
(1469304291.546751) can0 1C8#80
(1469304291.547933) can0 260#08FFFF0000FFF160
(1469304291.548241) can0 0AA#1A6F1A6F1A6F1A6F
(1469304291.548366) can0 1AA#0000000000B1
(1469304291.552959) can0 611#21000020000062D4
(1469304291.554150) can0 020#0000072B
(1469304291.554390) can0 0B4#00000000000000BC
(1469304291.554617) can0 223#000000000000002D
(1469304291.554979) can0 025#000000027000009F
(1469304291.555005) can0 3D3#01B2
(1469304291.555372) can0 1D0#0DF5090000AC0090
(1469304291.555617) can0 024#020001FB420880F4
(1469304291.556002) can0 2C1#0802050070D0001A
(1469304291.557871) can0 262#000000016A
(1469304291.560020) can0 3D0#00
(1469304291.560215) can0 0AA#1A6F1A6F1A6F1A6F
(1469304291.561225) can0 263#00000000B0001C
(1469304291.562252) can0 1C4#06DD29080000FFE0
(1469304291.563079) can0 1C8#80
(1469304291.566201) can0 020#0000072B
(1469304291.566296) can0 0BA#05FB00BE
(1469304291.566626) can0 224#0000000000000008
(1469304291.566860) can0 025#000000027000009F
(1469304291.567379) can0 024#020001FB420A80F6
(1469304291.567885) can0 260#0800000000000072
(1469304291.572305) can0 0AA#1A6F1A6F1A6F1A6F
(1469304291.578161) can0 020#0000072B
(1469304291.578421) can0 0B4#00000000000000BC
(1469304291.578643) can0 223#000000000000002D
(1469304291.578933) can0 025#000000027000009F
(1469304291.579332) can0 024#020001FB420A80F6
(1469304291.579469) can0 1C8#80
(1469304291.583859) can0 423#00
(1469304291.584384) can0 0AA#1A6F1A6F1A6F1A6F
(1469304291.585830) can0 263#00000000B0001C
(1469304291.586855) can0 1C4#06CD29080000FFD0
(1469304291.587909) can0 1D0#0DCC090000AC0067
(1469304291.588078) can0 260#0800000000000072
(1469304291.588855) can0 2C1#0802150078D00032
(1469304291.590329) can0 020#0000072B
(1469304291.590464) can0 0BA#05FB00BE
(1469304291.590705) can0 224#0000000000000008
(1469304291.590952) can0 025#000000027000009F
(1469304291.591348) can0 024#020001FB420880F4
(1469304291.592906) can0 351#00000000
(1469304291.595953) can0 1C8#80
(1469304291.596447) can0 0AA#1A6F1A6F1A6F1A6F
(1469304291.596631) can0 1AA#0000000000B1
(1469304291.597802) can0 262#000000016A
(1469304291.599182) can0 3A0#008B00000700006D
(1469304291.600417) can0 620#1000FFFFB0500040
(1469304291.602375) can0 020#0000072B
(1469304291.602581) can0 0B4#00000000000000BC
(1469304291.602837) can0 025#000000027000009F
(1469304291.603083) can0 223#000000000000002D
(1469304291.603360) can0 024#020001FD420A80F8
(1469304291.604310) can0 361#0018000000000000
(1469304291.606386) can0 3BC#0020000000000000
(1469304291.607935) can0 260#0800000000000072
(1469304291.608376) can0 399#00000000000000
(1469304291.608599) can0 0AA#1A6F1A6F1A6F1A6F
(1469304291.610457) can0 263#00000000B0001C
(1469304291.611456) can0 1C4#06BA29080000FFBD
(1469304291.612237) can0 443#4002002F06000000
(1469304291.612259) can0 1C8#80
(1469304291.614427) can0 020#0000072B
(1469304291.614501) can0 0BA#05FD00C0
(1469304291.614857) can0 224#0000000000000008
(1469304291.615061) can0 025#000000027000009F
(1469304291.615443) can0 024#020001FD420A80F8
(1469304291.620535) can0 0AA#1A6F1A6F1A6F1A6F
(1469304291.620738) can0 1D0#0D9E090000AC0039
(1469304291.621706) can0 2C1#08024A0082D20073
(1469304291.626453) can0 020#0000072B
(1469304291.626704) can0 0B4#00000000000000BC
(1469304291.626951) can0 025#000000027000009F
(1469304291.627204) can0 223#000000000000002D
(1469304291.627406) can0 024#020001FD420A80F8
(1469304291.627909) can0 260#08FFFF0000000070
(1469304291.628708) can0 1C8#80
(1469304291.632562) can0 0AA#1A6F1A6F1A6F1A6F
(1469304291.635131) can0 263#00000000B0001C
(1469304291.636162) can0 1C4#06AF29080000FFB2
(1469304291.637803) can0 262#000000016A
(1469304291.638529) can0 020#0000072B
(1469304291.638554) can0 0BA#05FD00C0
(1469304291.638830) can0 025#000000027000009F
(1469304291.639168) can0 224#0000000000000008
(1469304291.639372) can0 024#020001FB420A80F6
(1469304291.644586) can0 0AA#1A6F1A6F1A6F1A6F
(1469304291.644716) can0 1AA#0000000000B1
(1469304291.645245) can0 1C8#80
(1469304291.647799) can0 260#08FFFF0000FFF160
(1469304291.650525) can0 020#0000072B
(1469304291.650763) can0 0B4#00000000000000BC
(1469304291.651070) can0 025#000000027000009F
(1469304291.651213) can0 223#000000000000002D
(1469304291.651488) can0 024#020001FB420880F4
(1469304291.652926) can0 351#00000000
(1469304291.653606) can0 1D0#0D7D090000AC0018
(1469304291.654558) can0 2C1#08022E008CD10060
(1469304291.656640) can0 0AA#1A6F1A6F1A6F1A6F
(1469304291.659759) can0 263#00000000B0001C
(1469304291.660757) can0 1C4#06A729080000FFAA
(1469304291.661647) can0 1C8#80
(1469304291.662601) can0 020#0000072B
(1469304291.662687) can0 0BA#05FB00BE
(1469304291.663019) can0 224#0000000000000008
(1469304291.663221) can0 025#000000027000009F
(1469304291.663492) can0 024#020001FB420880F4
(1469304291.667875) can0 260#0800000000000072
(1469304291.668671) can0 0AA#1A6F1A6F1A6F1A6F
(1469304291.669997) can0 361#0018000000000000
(1469304291.672769) can0 394#4300
(1469304291.674616) can0 020#0000072B
(1469304291.674895) can0 0B4#00000000000000BC
(1469304291.675071) can0 025#000000027000009F
(1469304291.675325) can0 223#000000000000002D
(1469304291.675580) can0 024#020001FD420880F6
(1469304291.677819) can0 262#000000016A
(1469304291.678020) can0 1C8#80
(1469304291.680729) can0 0AA#1A6F1A6F1A6F1A6F
(1469304291.684376) can0 263#00000000B0001C
(1469304291.685395) can0 1C4#069B29080000FF9E
(1469304291.686448) can0 1D0#0D5A090000AC00F5
(1469304291.686624) can0 020#0000072B
(1469304291.686788) can0 0BA#05FD00C0
(1469304291.687066) can0 224#0000000000000008
(1469304291.687412) can0 024#020001FD420880F6
(1469304291.687622) can0 2C1#08023B0096D10077
(1469304291.687846) can0 025#000000027000009F
(1469304291.688125) can0 260#08FFFF0000000070
(1469304291.692734) can0 0AA#1A6F1A6F1A6F1A6F
(1469304291.692931) can0 1AA#0000000000B1
(1469304291.694476) can0 1C8#80
(1469304291.698176) can0 3A0#008B00000700006E
(1469304291.698641) can0 020#0000072B
(1469304291.698905) can0 0B4#00000000000000BC
(1469304291.699151) can0 223#000000000000002D
(1469304291.699451) can0 024#020001FD420880F6
(1469304291.699794) can0 025#000000027000009F
(1469304291.704811) can0 0AA#1A6F1A6F1A6F1A6F
(1469304291.707783) can0 260#08FFFF0000000070
(1469304291.708953) can0 263#00000000B0001C
(1469304291.709981) can0 1C4#068329080000FF86
(1469304291.710370) can0 440#4202001101000000
(1469304291.710724) can0 020#0000072B
(1469304291.710860) can0 0BA#05FD00C0
(1469304291.710951) can0 1C8#80
(1469304291.711288) can0 224#0000000000000008
(1469304291.711523) can0 024#020001FD420880F6
(1469304291.711777) can0 025#000000027000009F
(1469304291.711914) can0 38A#0804000000
(1469304291.712850) can0 351#00000000
(1469304291.716860) can0 0AA#1A6F1A6F1A6F1A6F
(1469304291.717705) can0 262#000000016A
(1469304291.719231) can0 1D0#0D38090000AC00D3
(1469304291.720206) can0 2C1#08025300A0D2009A
(1469304291.722779) can0 020#0000072B
(1469304291.723052) can0 0B4#00000000000000BC
(1469304291.723301) can0 223#000000000000002D
(1469304291.723539) can0 024#020001FD420880F6
(1469304291.723804) can0 025#000000027000009F
(1469304291.727271) can0 1C8#80
(1469304291.727813) can0 260#0800000000000072
(1469304291.728139) can0 383#0100010000000000
(1469304291.728505) can0 4DC#1D00000200000000
(1469304291.728881) can0 0AA#1A6F1A6F1A6F1A6F
(1469304291.729130) can0 3B7#583B000000000008
(1469304291.733581) can0 263#00000000B0001C
(1469304291.734612) can0 1C4#066E29080000FF71
(1469304291.734627) can0 354#01
(1469304291.734889) can0 020#0000072B
(1469304291.735025) can0 0BA#05FD00C0
(1469304291.735265) can0 224#0000000000000008
(1469304291.735555) can0 024#020001FB420A80F6
(1469304291.735804) can0 025#000000027000009F
(1469304291.736053) can0 361#0018000000000000
(1469304291.740877) can0 0AA#1A6F1A6F1A6F1A6F
(1469304291.741082) can0 1AA#0000000000B1
(1469304291.743704) can0 1C8#80
(1469304291.747028) can0 020#0000072B
(1469304291.747303) can0 0B4#00000000000000BC
(1469304291.747544) can0 024#020001FB420880F4
(1469304291.747782) can0 223#000000000000002D
(1469304291.748029) can0 025#00010002900000C0
(1469304291.748265) can0 260#0800000000001486
(1469304291.752059) can0 1D0#0D08090000AC00A3
(1469304291.753004) can0 2C1#08029C00A8D400ED
(1469304291.753192) can0 0AA#1A6F1A6F1A6F1A6F
(1469304291.757207) can0 387#0000000000003F3F
(1469304291.757702) can0 262#000000016A
(1469304291.758179) can0 263#00000000B0001C
(1469304291.759052) can0 020#0000072B
(1469304291.759187) can0 0BA#05FB00BE
(1469304291.759530) can0 024#020001FD420A80F8
(1469304291.759703) can0 025#000000027000009F
(1469304291.759911) can0 1C4#065C29080000FF5F
(1469304291.760163) can0 224#0000000000000008
(1469304291.760244) can0 1C8#80
(1469304291.765093) can0 0AA#1A6F1A6F1A6F1A6F
(1469304291.767736) can0 260#0800000000000072
(1469304291.771075) can0 020#0000072B
(1469304291.771350) can0 0B4#00000000000000BC
(1469304291.771590) can0 024#020001FD420A80F8
(1469304291.771830) can0 025#000000027000009F
(1469304291.772078) can0 223#000000000000002D
(1469304291.772803) can0 351#00000000
(1469304291.776499) can0 1C8#80
(1469304291.777170) can0 0AA#1A6F1A6F1A6F1A6F
(1469304291.782805) can0 263#00000000B0001C
(1469304291.783122) can0 020#0000072B
(1469304291.783258) can0 0BA#05FD00C0
(1469304291.783518) can0 224#0000000000000008
(1469304291.783792) can0 025#000000027000009F
(1469304291.784004) can0 1C4#064C29080000FF4F
(1469304291.784418) can0 024#020001FD420A80F8
(1469304291.784842) can0 1D0#0CDC090000AC0076
(1469304291.785818) can0 2C1#08027C00B3D300D7
(1469304291.787193) can0 389#0000000000000000
(1469304291.787795) can0 260#0800000000000072
(1469304291.789221) can0 0AA#1A6F1A6F1A6F1A6F
(1469304291.789375) can0 1AA#0000000000B1
(1469304291.792911) can0 1C8#80
(1469304291.795136) can0 020#0000072B
(1469304291.795352) can0 0B4#00000000000000BC
(1469304291.795646) can0 223#000000000000002D
(1469304291.795853) can0 025#000000027000009F
(1469304291.796115) can0 3F9#5198260100000014
(1469304291.796370) can0 024#020001FD420880F6
(1469304291.797691) can0 262#000000016A
(1469304291.800121) can0 3A0#008B00000700006D
(1469304291.801247) can0 0AA#1A6F1A6F1A6F1A6F
(1469304291.801454) can0 361#0019000000000000
(1469304291.804395) can0 4DD#1E00000000000000
(1469304291.807162) can0 020#0000072B
(1469304291.807295) can0 0BA#05FD00C0
(1469304291.807600) can0 224#0000000000000008
(1469304291.807808) can0 025#000000027000009F
(1469304291.808097) can0 260#08FFFF0000FFF160
(1469304291.808279) can0 263#00000000B0001C
(1469304291.808568) can0 024#020001FD420880F6
(1469304291.808752) can0 1C4#064329080000FF46
(1469304291.809271) can0 1C8#80
(1469304291.810877) can0 442#4302000001000000
(1469304291.813294) can0 0AA#1A6F1A6F1A6F1A6F
(1469304291.816195) can0 38E#2020000000000000
(1469304291.816494) can0 3D0#00
(1469304291.817669) can0 1D0#0CAB090000AC0045
(1469304291.818645) can0 2C1#08028200C1D400EC
(1469304291.819212) can0 020#0000072B
(1469304291.819480) can0 0B4#00000000000000BC
(1469304291.819680) can0 025#000000027000009F
(1469304291.819967) can0 223#000000000000002D
(1469304291.820392) can0 024#020001FB420A80F6
(1469304291.825286) can0 0AA#1A6F1A6F1A6F1A6F
(1469304291.825708) can0 1C8#80
(1469304291.827695) can0 260#0800000000000072
(1469304291.831199) can0 020#0000072B
(1469304291.831370) can0 0BA#05FB00BE
(1469304291.831695) can0 224#0000000000000008
(1469304291.831878) can0 025#00010002900000C0
(1469304291.832141) can0 263#00000000B0001C
(1469304291.832354) can0 024#01FF01FB420A80F4
(1469304291.832737) can0 351#00000000
(1469304291.833039) can0 1C4#063229080000FF35
(1469304291.837311) can0 0AA#1A6F1A6F1A6F1A6F
(1469304291.837499) can0 1AA#0000000000B1
(1469304291.837745) can0 262#000000016A
(1469304291.840329) can0 622#1200581000000000
(1469304291.842133) can0 1C8#80
(1469304291.843287) can0 020#0000072B
(1469304291.843508) can0 0B4#00000000000000BC
(1469304291.843793) can0 025#000000027000009F
(1469304291.844002) can0 223#000000000000002D
(1469304291.844392) can0 024#020001FB420A80F6
(1469304291.847153) can0 38F#0300000000000000
(1469304291.847744) can0 260#0800000000001486
(1469304291.849367) can0 0AA#1A6F1A6F1A6F1A6F
(1469304291.850492) can0 1D0#0C7F090000AC0019
(1469304291.851452) can0 2C1#08029600D1D40010
(1469304291.855323) can0 020#0000072B
(1469304291.855443) can0 0BA#05FB00BE
(1469304291.855715) can0 224#0000000000000008
(1469304291.855942) can0 025#000000027000009F
(1469304291.856363) can0 024#020001FD420A80F8
(1469304291.856656) can0 263#00000000B0001C
(1469304291.857617) can0 1C4#062B29080000FF2E
(1469304291.858506) can0 1C8#80
(1469304291.861401) can0 0AA#1A6F1A6F1A6F1A6F
(1469304291.866930) can0 361#0019000000000000
(1469304291.867377) can0 020#0000072B
(1469304291.867635) can0 0B4#00000000000000BC
(1469304291.867882) can0 025#000000027000009F
(1469304291.868120) can0 223#000000000000002D
(1469304291.868355) can0 260#08FFFF0000000070
(1469304291.868606) can0 024#020001FD420A80F8
(1469304291.873472) can0 0AA#1A6F1A6F1A6F1A6F
(1469304291.874971) can0 1C8#80
(1469304291.877205) can0 3A5#0000000000007EFC
(1469304291.877600) can0 262#000000016A
(1469304291.879375) can0 020#0000072B
(1469304291.879511) can0 0BA#05FD00C0
(1469304291.879760) can0 224#0000000000000008
(1469304291.880049) can0 025#000000027000009F
(1469304291.880363) can0 024#020001FD420A80F8
(1469304291.881071) can0 380#C0A0400000004200
(1469304291.881297) can0 263#00000000B0001C
(1469304291.881545) can0 3B0#00B6005600180000
(1469304291.882235) can0 1C4#062D29080000FF30
(1469304291.883261) can0 1D0#0C66090000AC0000
(1469304291.884237) can0 2C1#08029000E0D40019
(1469304291.885466) can0 0AA#1A6F1A6F1A6F1A6F
(1469304291.885637) can0 1AA#0000000000B1
(1469304291.887640) can0 260#08FFFF0000000070
(1469304291.890355) can0 6E1#A180000000100000
(1469304291.891390) can0 020#0000072B
(1469304291.891631) can0 0B4#00000000000000BC
(1469304291.891701) can0 1C8#80
(1469304291.892001) can0 223#000000000000002D
(1469304291.892354) can0 024#020001FD420880F6
(1469304291.892652) can0 025#000000027000009F
(1469304291.892748) can0 351#00000000
(1469304291.897529) can0 0AA#1A6F1A6F1A6F1A6F
(1469304291.899104) can0 3A0#008B00000700006D
(1469304291.900329) can0 620#1000FFFFB0500040
(1469304291.903499) can0 020#0000072B
(1469304291.903563) can0 0BA#05FD00C0
(1469304291.903918) can0 224#0000000000000008
(1469304291.904393) can0 024#020001FD420880F6
(1469304291.904628) can0 025#000000027000009F
(1469304291.905876) can0 263#00000000B0001C
(1469304291.906881) can0 1C4#062E29080000FF31
(1469304291.907226) can0 413#0101010900000000
(1469304291.907706) can0 260#08FFFF0000FFF160
(1469304291.907720) can0 1C8#80
(1469304291.909577) can0 0AA#1A6F1A6F1A6F1A6F
(1469304291.912163) can0 443#4002002F06000000
(1469304291.915498) can0 020#0000072B
(1469304291.915772) can0 0B4#00000000000000BC
(1469304291.916019) can0 223#000000000000002D
(1469304291.916243) can0 1D0#0C55090000AC00EF
(1469304291.916501) can0 024#020001FB420A80F6
(1469304291.916750) can0 025#000000027000009F
(1469304291.917056) can0 2C1#08028E00EED40025
(1469304291.917599) can0 262#000000016A
(1469304291.921582) can0 0AA#1A6F1A6F1A6F1A6F
(1469304291.924150) can0 1C8#80
(1469304291.927628) can0 260#08FFFF0000000070
(1469304291.927723) can0 020#0000072B
(1469304291.927938) can0 0BA#05FB00BE
(1469304291.928212) can0 224#0000000000000008
(1469304291.928502) can0 024#020001FD420A80F8
(1469304291.928719) can0 025#000000027000009F
(1469304291.930471) can0 263#00000000B0001C
(1469304291.931508) can0 1C4#062B29080000FF2E
(1469304291.932577) can0 361#0019000000000000
(1469304291.933627) can0 0AA#1A6F1A6F1A6F1A6F
(1469304291.933843) can0 1AA#0000000000B1
(1469304291.937205) can0 434#3F00000000000000
(1469304291.939590) can0 020#0000072B
(1469304291.939852) can0 0B4#00000000000000BC
(1469304291.940064) can0 223#000000000000002D
(1469304291.940112) can0 354#01
(1469304291.940449) can0 024#020001FD420A80F8
(1469304291.940654) can0 025#000000027000009F
(1469304291.940748) can0 1C8#80
(1469304291.945703) can0 0AA#1A6F1A6F1A6F1A6F
(1469304291.947630) can0 260#08FFFF0000FFF160
(1469304291.948979) can0 1D0#0C4C090000AC00E6
(1469304291.949953) can0 2C1#08029300F8D40034
(1469304291.951629) can0 020#0000072B
