(1469304452.967518) can0 440#40008011010F0F0F
(1469304452.975990) can0 442#42008000010F0F0F
(1469304453.067440) can0 440#4001801101000000
(1469304453.067692) can0 620#1080FFFF80500080
(1469304453.074990) can0 442#4201800001000000
(1469304453.161470) can0 440#4212001101000000
(1469304453.258018) can0 442#4002000001000000
(1469304453.291444) can0 621#1100000000000000
(1469304453.297016) can0 610#2000006480FFFD60
(1469304453.300442) can0 622#1200481000000000
(1469304453.309019) can0 611#21000020000062D4
(1469304453.309440) can0 623#1900000000000000
(1469304453.318447) can0 624#1A00414949400000
(1469304453.327447) can0 626#1C00300000000000
(1469304453.336444) can0 638#1300180100000000
(1469304453.345442) can0 63C#98005A5245172060
(1469304453.354412) can0 63D#9900444558534B00
(1469304453.356418) can0 440#4212001101000000
(1469304453.363433) can0 680#D800010000000000
(1469304453.372435) can0 620#1080FFFF90500080
(1469304453.384631) can0 443#4300802F060F0F0F
(1469304453.399039) can0 618#2200000080000000
(1469304453.411018) can0 619#230000000C003A80
(1469304453.423023) can0 61A#2400000000014F60
(1469304453.435020) can0 61C#2600000000000000
(1469304453.440193) can0 020#0000072B
(1469304453.441417) can0 6E1#A100030000F00000
(1469304453.447066) can0 640#A800000001340000
(1469304453.450419) can0 6E2#A200CCFEFEFEFEFE
(1469304453.452238) can0 020#0000072B
(1469304453.452541) can0 0B4#00000000020000BE
(1469304453.452652) can0 223#0008000000000035
(1469304453.452989) can0 420#0000000000008AB6
(1469304453.456020) can0 442#4002000001000000
(1469304453.464287) can0 020#0000072B
(1469304453.464494) can0 0BA#06008044
(1469304453.464706) can0 224#0000000000000048
(1469304453.464988) can0 4C3#0300000100000000
(1469304453.470570) can0 0AA#1A6F1A6F1A6F1A6F
(1469304453.470675) can0 1AA#0000000000B1
(1469304453.476539) can0 020#0000072B
(1469304453.476685) can0 0B4#00000000020000BE
(1469304453.477009) can0 223#0008000000000035
(1469304453.482623) can0 0AA#1A6F1A6F1A6F1A6F
(1469304453.483668) can0 443#4301802F06000000
(1469304453.488564) can0 020#0000072B
(1469304453.488643) can0 0BA#06008044
(1469304453.489002) can0 224#0000000000000048
(1469304453.494668) can0 0AA#1A6F1A6F1A6F1A6F
(1469304453.500588) can0 020#0000072B
(1469304453.500875) can0 0B4#00000000020000BE
(1469304453.501058) can0 223#0008000000000035
(1469304453.506694) can0 0AA#1A6F1A6F1A6F1A6F
(1469304453.507934) can0 263#0000000001006D
(1469304453.509012) can0 1C4#0000000000003E0B
(1469304453.512558) can0 020#0000072B
(1469304453.512681) can0 0BA#06008044
(1469304453.512953) can0 224#0000000000000048
(1469304453.517041) can0 354#00
(1469304453.518080) can0 1C8#00
(1469304453.518714) can0 0AA#1A6F1A6F1A6F1A6F
(1469304453.518861) can0 1AA#0000000000B1
(1469304453.524690) can0 020#0000072B
(1469304453.524868) can0 0B4#00000000020000BE
(1469304453.525135) can0 223#0008000000000035
(1469304453.526371) can0 1D0#00000100000000DA
(1469304453.527415) can0 2C1#08FFDD12A1BE0020
(1469304453.527627) can0 3F9#5198260100000014
(1469304453.530769) can0 0AA#1A6F1A6F1A6F1A6F
(1469304453.532573) can0 263#00000000B2001E
(1469304453.533622) can0 1C4#000029000000FFF5
(1469304453.534536) can0 1C8#00
(1469304453.536402) can0 620#1080FFFFA0500080
(1469304453.536630) can0 020#0000072B
(1469304453.536815) can0 0BA#06008044
(1469304453.537086) can0 224#0000000000000048
(1469304453.537672) can0 4C1#0100000500000000
(1469304453.542752) can0 0AA#1A6F1A6F1A6F1A6F
(1469304453.542999) can0 361#00A0000700000000
(1469304453.544902) can0 3BC#0020000000000000
(1469304453.545798) can0 3BB#8000B200
(1469304453.546895) can0 399#00000000000000
(1469304453.547789) can0 3D0#00
(1469304453.548680) can0 020#0000072B
(1469304453.548929) can0 0B4#00000000020000BE
(1469304453.549153) can0 223#0008000000000035
(1469304453.550821) can0 1C8#00
(1469304453.551900) can0 38A#1C04000000
(1469304453.554772) can0 0AA#1A6F1A6F1A6F1A6F
(1469304453.556348) can0 440#4202001101000000
(1469304453.557127) can0 263#00000000B2001E
(1469304453.558245) can0 1C4#000029000000FFF5
(1469304453.559245) can0 1D0#0000010000AC0086
(1469304453.560168) can0 2C1#08FFDD12A1BE0020
(1469304453.560766) can0 020#0000072B
(1469304453.560849) can0 0BA#06008044
(1469304453.561207) can0 224#0000000000000048
(1469304453.566871) can0 0AA#1A6F1A6F1A6F1A6F
(1469304453.566983) can0 1AA#0000000000B1
(1469304453.567244) can0 1C8#00
(1469304453.572794) can0 020#0000072B
(1469304453.572990) can0 0B4#00000000020000BE
(1469304453.573244) can0 223#0008000000000035
(1469304453.573865) can0 025#000000027000009F
(1469304453.578867) can0 0AA#1A6F1A6F1A6F1A6F
(1469304453.581793) can0 263#00000000B2001E
(1469304453.582844) can0 1C4#000029000000FFF5
(1469304453.583716) can0 1C8#00
(1469304453.584811) can0 020#0000072B
(1469304453.584904) can0 0BA#06008044
(1469304453.585227) can0 224#0000000000000048
(1469304453.585817) can0 025#000000027000009F
(1469304453.589019) can0 4C6#0700030000000000
(1469304453.589969) can0 260#0E00000000000078
(1469304453.590891) can0 0AA#1A6F1A6F1A6F1A6F
(1469304453.592072) can0 1D0#0000010000AC0086
(1469304453.593066) can0 2C1#08FFD412A1BE0017
(1469304453.593856) can0 423#00
(1469304453.594810) can0 351#00000000
(1469304453.596814) can0 020#0000072B
(1469304453.597008) can0 0B4#00000000020000BE
(1469304453.597311) can0 223#0008000000000035
(1469304453.597864) can0 025#000000027000009F
(1469304453.599919) can0 262#000000016A
(1469304453.600080) can0 1C8#00
(1469304453.602917) can0 0AA#1A6F1A6F1A6F1A6F
(1469304453.604864) can0 4C8#0900000000000000
(1469304453.606419) can0 263#00000000B2001E
(1469304453.607465) can0 1C4#000029000000FFF5
(1469304453.608466) can0 361#00A0000700000000
(1469304453.608834) can0 020#0000072B
(1469304453.608916) can0 0BA#06008044
(1469304453.609257) can0 224#0000000000000048
(1469304453.609791) can0 025#000000027000009F
(1469304453.609990) can0 260#0E00000000000078
(1469304453.614737) can0 394#4300
(1469304453.614933) can0 0AA#1A6F1A6F1A6F1A6F
(1469304453.615127) can0 1AA#0000000000B1
(1469304453.616534) can0 1C8#00
(1469304453.620841) can0 020#0000072B
(1469304453.621089) can0 0B4#00000000020000BE
(1469304453.621293) can0 223#0008000000000035
(1469304453.621870) can0 025#000000027000009F
(1469304453.624899) can0 1D0#0000010000AC0086
(1469304453.625873) can0 2C1#08FFD412A1BE0017
(1469304453.626951) can0 0AA#1A6F1A6F1A6F1A6F
(1469304453.629976) can0 260#0E00000000000078
(1469304453.630982) can0 263#00000000B2001E
(1469304453.632082) can0 1C4#00A729000000FF9C
(1469304453.632873) can0 020#0000072B
(1469304453.632958) can0 0BA#06008044
(1469304453.633093) can0 1C8#00
(1469304453.633358) can0 224#0000000000000048
(1469304453.633773) can0 025#000000027000009F
(1469304453.638966) can0 0AA#1A6F1A6F1A6F1A6F
(1469304453.639842) can0 262#000000016A
(1469304453.644912) can0 020#0000072B
(1469304453.645125) can0 0B4#00000000020000BE
(1469304453.645412) can0 223#0008000000000035
(1469304453.645843) can0 025#000000027000009F
(1469304453.649358) can0 1C8#00
(1469304453.649965) can0 260#0E00000000000078
(1469304453.651017) can0 0AA#1A6F1A6F1A6F1A6F
(1469304453.654760) can0 351#00000000
(1469304453.655660) can0 263#00000000B2001E
(1469304453.656685) can0 1C4#00CC29000000FFC1
(1469304453.657010) can0 442#4302000001000000
(1469304453.657117) can0 020#0000072B
(1469304453.657307) can0 0BA#06008044
(1469304453.657564) can0 224#0000000000000048
(1469304453.657819) can0 025#000000027000009F
(1469304453.658041) can0 1D0#0000010000AC0086
(1469304453.658638) can0 2C1#08FFD412A1BE0017
(1469304453.662989) can0 0AA#1A6F1A6F1A6F1A6F
(1469304453.663214) can0 1AA#0000000000B1
(1469304453.663544) can0 3B7#583B000000000008
(1469304453.665710) can0 1C8#00
(1469304453.668976) can0 020#0000072B
(1469304453.669255) can0 0B4#00000000020000BE
(1469304453.669530) can0 223#0008000000000035
(1469304453.669806) can0 025#000000027000009F
(1469304453.670041) can0 260#0E00000000000078
(1469304453.674109) can0 361#00A0000100000000
(1469304453.675083) can0 0AA#1A6F1A6F1A6F1A6F
(1469304453.679811) can0 262#000000016A
(1469304453.680255) can0 263#00000000B2001E
(1469304453.681025) can0 020#0000072B
(1469304453.681134) can0 0BA#06008044
(1469304453.681400) can0 1C4#011729000000FF0D
(1469304453.681654) can0 224#0000000000000048
(1469304453.681902) can0 025#000000027000009F
(1469304453.682171) can0 1C8#00
(1469304453.687052) can0 0AA#1A6F1A6F1A6F1A6F
(1469304453.689798) can0 260#0E00000000000078
(1469304453.690530) can0 1D0#0000010000AC0086
(1469304453.691531) can0 2C1#08056412A2EB00DB
(1469304453.693051) can0 020#0000072B
(1469304453.693332) can0 0B4#00000000020000BE
(1469304453.693571) can0 223#0008000000000035
(1469304453.693770) can0 025#000000027000009F
(1469304453.696015) can0 610#2080006480FFFD60
(1469304453.698534) can0 1C8#00
(1469304453.699175) can0 0AA#1A6F1A6F1A6F1A6F
(1469304453.704856) can0 263#00000000B2001E
(1469304453.705074) can0 020#0000072B
(1469304453.705239) can0 0BA#06008044
(1469304453.705488) can0 224#0000000000000048
(1469304453.705743) can0 025#000000027000009F
(1469304453.706031) can0 1C4#011829000000FF0E
(1469304453.708010) can0 611#21800020000062D4
(1469304453.709934) can0 260#0E00000000000078
(1469304453.711235) can0 0AA#1A6F1A6F1A6F1A6F
(1469304453.711401) can0 1AA#0000000000B1
(1469304453.714633) can0 351#00000000
(1469304453.714923) can0 1C8#00
(1469304453.717064) can0 020#0000072B
(1469304453.717332) can0 0B4#00000000020000BE
(1469304453.717557) can0 223#0008000000000035
(1469304453.717806) can0 025#000000027000009F
(1469304453.719753) can0 262#000000016A
(1469304453.720004) can0 618#2280000080000000
(1469304453.722116) can0 354#07
(1469304453.723201) can0 0AA#1A6F1A6F1A6F1A6F
(1469304453.723454) can0 1D0#0000010000AC0086
(1469304453.724249) can0 2C1#08056412A2EB00DB
(1469304453.729159) can0 020#0000072B
(1469304453.729294) can0 0BA#06008044
(1469304453.729564) can0 224#0000000000000048
(1469304453.729839) can0 025#000000027000009F
(1469304453.730095) can0 260#0E00000000000078
(1469304453.730283) can0 263#00000000B2001E
(1469304453.730565) can0 1C4#011829000000FF0E
(1469304453.731355) can0 1C8#00
(1469304453.731995) can0 619#238000000C003A80
(1469304453.735253) can0 0AA#1A6F1A6F1A6F1A6F
(1469304453.739769) can0 361#00A0000100000000
(1469304453.741411) can0 020#0000072B
(1469304453.741666) can0 0B4#00000000020000BE
(1469304453.741919) can0 025#000000027000009F
(1469304453.742170) can0 223#0008000000000035
(1469304453.743997) can0 61A#2480000000014F60
(1469304453.747516) can0 0AA#1A6F1A6F1A6F1A6F
(1469304453.747786) can0 1C8#00
(1469304453.749842) can0 260#0E00000000000078
(1469304453.753462) can0 020#0000072B
(1469304453.753553) can0 0BA#06008044
(1469304453.753910) can0 224#0000000000000048
(1469304453.754082) can0 025#000000027000009F
(1469304453.754331) can0 263#00000000B2001E
(1469304453.754667) can0 443#4002002F06000000
(1469304453.755163) can0 1C4#010729000000FFFD
(1469304453.756042) can0 61C#2680000000000000
(1469304453.756214) can0 1D0#0000010000AC0086
(1469304453.757142) can0 2C1#08056312A1EB00D9
(1469304453.759595) can0 0AA#1A6F1A6F1A6F1A6F
(1469304453.759689) can0 1AA#0000000000B1
(1469304453.759965) can0 262#000000016A
(1469304453.764259) can0 1C8#00
(1469304453.765538) can0 020#0000072B
(1469304453.765734) can0 0B4#00000000020000BE
(1469304453.765987) can0 223#0008000000000035
(1469304453.766717) can0 025#000000027000009F
(1469304453.767668) can0 383#0100010000000000
(1469304453.767990) can0 381#0000000080000000
(1469304453.768301) can0 4DC#1D00000200000000
(1469304453.769916) can0 260#0E00000000000078
(1469304453.771597) can0 0AA#1A6F1A6F1A6F1A6F
(1469304453.774688) can0 351#00000000
(1469304453.777537) can0 020#0000072B
(1469304453.777610) can0 0BA#06008044
(1469304453.777952) can0 224#0000000000000048
(1469304453.778643) can0 025#000000027000009F
(1469304453.778815) can0 263#00000000B2001E
(1469304453.779770) can0 1C4#011729000000FF0D
(1469304453.780657) can0 1C8#00
(1469304453.783620) can0 0AA#1A6F1A6F1A6F1A6F
(1469304453.783814) can0 3F9#5198260100000014
(1469304453.789020) can0 1D0#0000010000AC0086
(1469304453.789564) can0 020#0000072B
(1469304453.789766) can0 0B4#00000000020000BE
(1469304453.790065) can0 223#0008000000000035
(1469304453.790262) can0 260#0E00000000000078
(1469304453.790525) can0 2C1#08056412A2EB00DB
(1469304453.790749) can0 025#000000027000009F
(1469304453.794667) can0 387#0000000000003F3F
(1469304453.795669) can0 0AA#1A6F1A6F1A6F1A6F
(1469304453.797056) can0 1C8#00
(1469304453.799740) can0 262#000000016A
(1469304453.801586) can0 020#0000072B
(1469304453.801678) can0 0BA#06008044
(1469304453.802027) can0 224#0000000000000048
(1469304453.802616) can0 025#000000027000009F
(1469304453.803338) can0 263#00000000B2001E
(1469304453.804368) can0 1C4#012A29000000FF20
(1469304453.804460) can0 3D0#00
(1469304453.805409) can0 361#00A0000100000000
(1469304453.807699) can0 0AA#1A6F1A6F1A6F1A6F
(1469304453.807866) can0 1AA#0000000000B1
(1469304453.809825) can0 260#0E00000000000078
(1469304453.813537) can0 1C8#00
(1469304453.813564) can0 020#0000072B
(1469304453.813923) can0 0B4#00000000020000BE
(1469304453.814122) can0 223#0008000000000035
(1469304453.814665) can0 025#000000027000009F
(1469304453.819747) can0 0AA#1A6F1A6F1A6F1A6F
(1469304453.821817) can0 1D0#0000010000AC0086
(1469304453.822791) can0 2C1#08056812A2EB00DF
(1469304453.823193) can0 4DD#1E00000000000000
(1469304453.823677) can0 389#0000000000000000
(1469304453.825655) can0 020#0000072B
(1469304453.825743) can0 0BA#06008044
(1469304453.826032) can0 224#0000000000000048
(1469304453.826510) can0 025#000000027000009F
(1469304453.827890) can0 263#00000000B2001E
(1469304453.828895) can0 1C4#013F29000000FF35
(1469304453.829765) can0 260#0E00000000000078
(1469304453.829858) can0 1C8#00
(1469304453.831698) can0 0AA#1A6F1A6F1A6F1A6F
(1469304453.834587) can0 351#00000000
(1469304453.836368) can0 620#1000FFFFA0500080
(1469304453.837710) can0 020#0000072B
(1469304453.837915) can0 0B4#00000000020000BE
(1469304453.838216) can0 223#0008000000000035
(1469304453.838642) can0 025#000000027000009F
(1469304453.839771) can0 262#000000016A
(1469304453.843172) can0 024#5E0009FB4A0A8062
(1469304453.843822) can0 0AA#1A6F1A6F1A6F1A6F
(1469304453.846283) can0 1C8#00
(1469304453.849793) can0 260#0E00000000000078
(1469304453.849864) can0 020#0000072B
(1469304453.850032) can0 0BA#06008044
(1469304453.850301) can0 224#0000000000000048
(1469304453.850617) can0 025#000000027000009F
(1469304453.852572) can0 263#00000000B2001E
(1469304453.853617) can0 1C4#016029000000FF56
(1469304453.854642) can0 1D0#00E6010000AC006C
(1469304453.854838) can0 38E#2020000000000000
(1469304453.855187) can0 024#5E0009FD4A088062
(1469304453.855600) can0 2C1#08056A12A4EB00E3
(1469304453.855830) can0 0AA#1A6F1A6F1A6F1A6F
(1469304453.856052) can0 1AA#0000000000B1
(1469304453.856357) can0 440#4202001101000000
(1469304453.861790) can0 020#0000072B
(1469304453.862001) can0 0B4#00000000020000BE
(1469304453.862236) can0 223#0008000000000035
(1469304453.862552) can0 025#000000027000009F
(1469304453.862630) can0 1C8#00
(1469304453.867195) can0 024#5E0009FD4A088062
(1469304453.867876) can0 0AA#1A6F1A6F1A6F1A6F
(1469304453.869796) can0 260#0E00000000000078
(1469304453.871049) can0 361#00A0000000000000
(1469304453.873811) can0 020#0000072B
(1469304453.873887) can0 0BA#060000C4
(1469304453.874253) can0 224#0000000000000048
(1469304453.874549) can0 025#000000027000009F
(1469304453.877192) can0 263#00000000B2001E
(1469304453.878214) can0 1C4#017029000000FF66
(1469304453.879193) can0 024#5E0009FD4A0A8064
(1469304453.879208) can0 1C8#00
(1469304453.879740) can0 262#000000016A
(1469304453.879949) can0 0AA#1A6F1A6F1A6F1A6F
(1469304453.884667) can0 38F#0100000000000000
(1469304453.885885) can0 020#0000072B
(1469304453.886098) can0 0B4#00000000020000BE
(1469304453.886388) can0 223#0008000000000035
(1469304453.886603) can0 025#000000027000009F
(1469304453.887464) can0 1D0#0161010000AC00E8
(1469304453.888377) can0 2C1#08056A12A4EB00E3
(1469304453.889788) can0 260#0E00000000000078
(1469304453.891191) can0 024#5E0009FA4A0A8061
(1469304453.891966) can0 0AA#1A6F1A6F1A6F1A6F
(1469304453.894574) can0 351#00000000
(1469304453.895531) can0 1C8#00
(1469304453.897884) can0 020#0000072B
(1469304453.898055) can0 0BA#060000C4
(1469304453.898282) can0 224#0000000000000048
(1469304453.898518) can0 025#00010002900000C0
(1469304453.901788) can0 263#00000000B2001E
(1469304453.902746) can0 1C4#01BB29000000FFB1
(1469304453.903185) can0 024#5E0009F84A0A805F
(1469304453.903995) can0 0AA#1A6F1A6F1A6F1A6F
(1469304453.904184) can0 1AA#0000000000B1
(1469304453.909742) can0 260#0E00000000000078
(1469304453.909904) can0 020#0000072B
(1469304453.910184) can0 0B4#00000000020000BE
(1469304453.910491) can0 223#0008000000000035
(1469304453.910668) can0 025#000000027000009F
(1469304453.911900) can0 1C8#00
(1469304453.914664) can0 3A5#0000000000007EFC
(1469304453.914694) can0 394#4300
(1469304453.915185) can0 024#5E0009FB4A088060
(1469304453.916072) can0 0AA#1A6F1A6F1A6F1A6F
(1469304453.917664) can0 382#3838380000000000
(1469304453.919692) can0 262#000000016A
(1469304453.920289) can0 1D0#01D6010000AC005D
(1469304453.921246) can0 2C1#0805670A3BEB006F
(1469304453.922010) can0 020#0000072B
(1469304453.922105) can0 0BA#060000C4
(1469304453.922450) can0 224#0000000000000048
(1469304453.922639) can0 025#000000027000009F
(1469304453.926415) can0 263#00000000B2001E
(1469304453.927191) can0 024#5E000A004A058063
(1469304453.927390) can0 1C4#038929080000FF89
(1469304453.927477) can0 354#07
(1469304453.928134) can0 0AA#1A6F1A6F1A6F1A6F
(1469304453.928319) can0 1C8#80
(1469304453.929758) can0 260#0E00000000000078
(1469304453.934093) can0 020#0000072B
(1469304453.934297) can0 0B4#00000000020000BE
(1469304453.934551) can0 025#000000027000009F
(1469304453.934805) can0 223#0008000000000035
(1469304453.936699) can0 361#0056000000000000
(1469304453.939197) can0 024#5E000A014A088067
(1469304453.940167) can0 0AA#1A6F1A6F1A6F1A6F
(1469304453.943669) can0 413#0101010900000000
(1469304453.944754) can0 1C8#80
(1469304453.946110) can0 020#0000072B
(1469304453.946189) can0 0BA#060000C4
(1469304453.946498) can0 025#000000027000009F
(1469304453.946746) can0 224#0000000000000048
(1469304453.949737) can0 260#0E00000000000078
(1469304453.950971) can0 263#00000000B2001E
(1469304453.951246) can0 024#5E000A004A0C806A
(1469304453.952067) can0 1C4#040529080000FF06
(1469304453.952254) can0 0AA#1A6F1A6F1A6F1A6F
(1469304453.952488) can0 1AA#0000000000B1
(1469304453.953037) can0 1D0#0439010000AC00C3
(1469304453.953992) can0 2C1#0805600A73EB00A0
(1469304453.954541) can0 351#00000000
(1469304453.956943) can0 442#4302000001000000
(1469304453.958088) can0 020#0000072B
(1469304453.958362) can0 0B4#00000000020000BE
(1469304453.958571) can0 025#000000027000009F
(1469304453.958843) can0 223#0008000000000035
(1469304453.959627) can0 262#000000016A
(1469304453.961106) can0 1C8#80
(1469304453.963190) can0 024#5E0009FB4A0C8064
(1469304453.964255) can0 0AA#1A6F1A6F1A6F1A6F
(1469304453.964526) can0 3B7#583B000000000008
(1469304453.967328) can0 6E1#A180000000100000
(1469304453.969680) can0 260#0E00000000000078
(1469304453.970372) can0 020#0000072B
(1469304453.970468) can0 0BA#060000C4
(1469304453.970768) can0 224#0000000000000048
(1469304453.971454) can0 025#000000027000009F
(1469304453.974652) can0 434#3F00000000000000
(1469304453.975203) can0 024#5E0009F44A0A805B
(1469304453.975634) can0 263#00000000B2001E
(1469304453.976453) can0 0AA#1A6F1A6F1A6F1A6F
(1469304453.976642) can0 1C4#04C229080000FFC3
(1469304453.977543) can0 1C8#80
(1469304453.982375) can0 020#0000072B
(1469304453.982643) can0 0B4#00000000020000BE
(1469304453.982853) can0 223#0008000000000035
(1469304453.983537) can0 025#000000027000009F
(1469304453.985903) can0 1D0#072B010000AC00B8
(1469304453.986877) can0 2C1#0804570A8EE200A8
(1469304453.987203) can0 024#5E0009F34A0A805A
(1469304453.988458) can0 0AA#1A6F1A6F1A6F1A6F
(1469304453.989732) can0 260#0E00000000000078
(1469304453.993968) can0 1C8#80
(1469304453.994411) can0 020#0000072B
(1469304453.994514) can0 0BA#060000C4
(1469304453.994827) can0 224#0000000000000048
(1469304453.995425) can0 025#00010002900000C0
(1469304453.999166) can0 024#5E0009F84A0A805F
(1469304453.999657) can0 262#000000016A
(1469304454.000198) can0 263#00000000B3001F
(1469304454.000466) can0 0AA#1A6F1A6F1A6F1A6F
(1469304454.000632) can0 1AA#0000000000B1
(1469304454.001229) can0 1C4#055929080000FF5B
(1469304454.002239) can0 361#0055000000000000
(1469304454.004653) can0 435#0F0505FFE00FE003
(1469304454.006421) can0 020#0000072B
(1469304454.006620) can0 0B4#00000000020000BE
(1469304454.006925) can0 223#0008000000000035
(1469304454.007467) can0 025#000000027000009F
(1469304454.009728) can0 260#0E00000000000078
(1469304454.010371) can0 1C8#80
(1469304454.011162) can0 024#5E000A014A0A8069
(1469304454.012487) can0 0AA#1A6F1A6F1A6F1A6F
(1469304454.014519) can0 351#00000000
(1469304454.016292) can0 6E2#A28000FEFEFEFEFE
(1469304454.018433) can0 020#0000072B
(1469304454.018558) can0 0BA#060000C4
(1469304454.018811) can0 224#0000000000000048
(1469304454.018942) can0 3D3#01F3
(1469304454.019209) can0 1D0#09AE010000AC003D
(1469304454.019461) can0 025#000000027000009F
(1469304454.019688) can0 2C1#08036D0A7EDB00A6
(1469304454.023192) can0 024#5E000A064A08806C
(1469304454.023437) can0 3B1#00000E0A00080000
(1469304454.023692) can0 4AC#0802200500000004
(1469304454.024540) can0 0AA#1A6F1A6F1A6F1A6F
(1469304454.024862) can0 263#00000000B2001E
(1469304454.025863) can0 1C4#05CB29080000FFCD
(1469304454.026755) can0 1C8#80
(1469304454.029626) can0 260#0E00000000000078
(1469304454.030454) can0 020#0000072B
(1469304454.030689) can0 0B4#00000000020000BE
(1469304454.030928) can0 223#0008000000000035
(1469304454.031464) can0 025#000000027000009F
(1469304454.034558) can0 436#0000000000000000
(1469304454.035103) can0 024#5E000A054A08806B
(1469304454.036479) can0 0AA#1A6F1A6F1A6F1A6F
(1469304454.039584) can0 262#000000016A
(1469304454.040181) can0 3F9#5198260100000014
(1469304454.042502) can0 020#0000072B
(1469304454.042621) can0 0BA#060000C4
(1469304454.042919) can0 224#0000000000000048
(1469304454.043125) can0 1C8#80
(1469304454.043434) can0 025#000000027000009F
(1469304454.047181) can0 024#5E0001FF42088054
(1469304454.048611) can0 0AA#1A6F1A6F1A6F1A6F
(1469304454.048765) can0 1AA#0000000000B1
(1469304454.049508) can0 263#00000000B2001E
(1469304454.049665) can0 260#0E00000000000078
(1469304454.050509) can0 1C4#065229080000FF55
(1469304454.051509) can0 1D0#0B95010000AC0026
(1469304454.052509) can0 2C1#0802AB0A3CD5009B
(1469304454.054608) can0 443#4002002F06000000
(1469304454.054737) can0 020#0000072B
(1469304454.055050) can0 0B4#00000000020000BE
(1469304454.055234) can0 223#000000000000002D
(1469304454.055533) can0 025#00010002900000C0
(1469304454.059208) can0 024#5E0001F442068047
(1469304454.059575) can0 1C8#80
(1469304454.060660) can0 0AA#1A6F1A6F1A6F1A6F
(1469304454.060669) can0 3D0#00
(1469304454.064634) can0 437#FCFFFFFFFFFFFFFF
(1469304454.066577) can0 020#0000072B
(1469304454.066707) can0 0BA#060000C4
(1469304454.067008) can0 224#0000000000000048
(1469304454.067345) can0 025#00010002900000C0
(1469304454.067574) can0 3B0#00B3000000000000
(1469304454.067932) can0 361#004D000000000000
(1469304454.069658) can0 260#0E00000000000078
(1469304454.071207) can0 024#5E0001EF42058041
(1469304454.072659) can0 0AA#1A6F1A6F1A6F1A6F
(1469304454.074082) can0 263#00000000B2001E
(1469304454.074501) can0 351#00000000
(1469304454.075106) can0 1C4#06F029080000FFF3
(1469304454.076000) can0 1C8#80
(1469304454.078601) can0 020#0000072B
(1469304454.078813) can0 0B4#00000000020000BE
(1469304454.079098) can0 223#000000000000002D
(1469304454.079399) can0 025#000000027000009F
(1469304454.079544) can0 262#000000016A
(1469304454.083181) can0 024#5E0001F142088046
(1469304454.084359) can0 1D0#0D59010000AC00EC
(1469304454.084681) can0 0AA#1A6F1A6F1A6F1A6F
(1469304454.085306) can0 2C1#0801F409B2CF0052
(1469304454.089635) can0 260#0E00000000000078
(1469304454.090604) can0 020#0000072B
(1469304454.090756) can0 0BA#060000C4
(1469304454.091042) can0 224#0000000000000048
(1469304454.091294) can0 025#000000027000009F
(1469304454.092399) can0 1C8#80
(1469304454.094579) can0 384#F0F000000000
(1469304454.095205) can0 024#5E0001FD420D8057
(1469304454.096709) can0 0AA#1A6F1A6F1A6F1A6F
(1469304454.096866) can0 1AA#0000000000B1
(1469304454.098681) can0 263#00000000B3001F
(1469304454.099710) can0 1C4#078629080000FF8A
(1469304454.102626) can0 020#0000072B
(1469304454.102842) can0 0B4#00000000020000BE
(1469304454.103129) can0 223#000000000000002D
(1469304454.103310) can0 025#000000027000009F
(1469304454.107209) can0 024#5E000206420F8063
(1469304454.108735) can0 0AA#1A6F1A6F1A6F1A6F
(1469304454.108777) can0 1C8#80
(1469304454.109608) can0 260#0E00000000000078
(1469304454.114654) can0 020#0000072B
(1469304454.114784) can0 0BA#060000C4
(1469304454.115094) can0 224#0000000000000048
(1469304454.115279) can0 025#000000027000009F
(1469304454.115612) can0 380#0000000000008000
(1469304454.117184) can0 1D0#0EBD010000AC0051
(1469304454.118159) can0 2C1#080150091CCA0013
(1469304454.119207) can0 024#5E00020A420D8065
(1469304454.119552) can0 262#000000016A
(1469304454.120734) can0 0AA#1A6F1A6F1A6F1A6F
(1469304454.123332) can0 263#00000000B3001F
(1469304454.124359) can0 1C4#07F229080000FFF6
(1469304454.124566) can0 386#000000070003
(1469304454.125246) can0 1C8#80
(1469304454.126679) can0 020#0000072B
(1469304454.126887) can0 0B4#00000000020000BE
(1469304454.127174) can0 223#000000000000002D
(1469304454.127383) can0 025#000000027000009F
(1469304454.129627) can0 260#0E00000000000078
(1469304454.131207) can0 024#5E00020542068059
(1469304454.132404) can0 354#01
(1469304454.132784) can0 0AA#1A6F1A6F1A6F1A6F
(1469304454.133573) can0 361#0046000000000000
(1469304454.134502) can0 351#00000000
(1469304454.136259) can0 620#1000FFFFA0500080
(1469304454.136631) can0 3A0#008500000000006A
(1469304454.138728) can0 020#0000072B
(1469304454.138859) can0 0BA#060000C4
(1469304454.139170) can0 224#0000000000000048
(1469304454.139378) can0 025#000000027000009F
(1469304454.141674) can0 1C8#80
(1469304454.143161) can0 024#5E0001FA4203804A
(1469304454.144759) can0 0AA#1A6F1A6F1A6F1A6F
(1469304454.144950) can0 1AA#0000000000B1
(1469304454.147863) can0 263#00000000B2001E
(1469304454.148915) can0 1C4#086929080000FF6E
(1469304454.149583) can0 260#0E00000000000078
(1469304454.149944) can0 1D0#1033010000AC00C9
(1469304454.150706) can0 020#0000072B
(1469304454.150963) can0 0B4#00000000020000BE
(1469304454.151215) can0 223#000000000000002D
(1469304454.151434) can0 025#000000027000009F
(1469304454.151658) can0 2C1#0800F8085BC700F5
(1469304454.154556) can0 3E6#0000000000
(1469304454.155169) can0 024#560001F142038039
(1469304454.156214) can0 440#4202001101000000
(1469304454.156797) can0 0AA#1A6F1A6F1A6F1A6F
(1469304454.158037) can0 1C8#80
(1469304454.159509) can0 262#000000016A
(1469304454.162777) can0 020#0000072B
(1469304454.162907) can0 0BA#060000C4
(1469304454.163219) can0 224#0000000000000008
(1469304454.163519) can0 025#000000027000009F
(1469304454.167179) can0 024#560001ED42068038
(1469304454.168908) can0 0AA#1A6F1A6F1A6F1A6F
(1469304454.169581) can0 260#0E00000000000078
(1469304454.172608) can0 263#00000000B2001E
(1469304454.173635) can0 1C4#08BE29080000FFC3
(1469304454.174548) can0 1C8#80
(1469304454.174847) can0 020#0000072B
(1469304454.175051) can0 0B4#00000000020000BE
(1469304454.175340) can0 025#00010002900000C0
(1469304454.175547) can0 223#000000000000002D
(1469304454.179178) can0 024#560001F6420C8047
(1469304454.180931) can0 0AA#1A6F1A6F1A6F1A6F
(1469304454.182884) can0 1D0#1139010000AC00D0
(1469304454.183859) can0 2C1#0800CC076EC600DA
(1469304454.184605) can0 3E7#00000000000000
(1469304454.186852) can0 020#0000072B
(1469304454.186983) can0 0BA#060000C4
(1469304454.187293) can0 025#00010002900000C0
(1469304454.187500) can0 224#0000000000000008
(1469304454.189560) can0 260#0E00000000000078
(1469304454.190972) can0 1C8#80
(1469304454.191183) can0 024#56000203420D8056
(1469304454.192960) can0 0AA#1A6F1A6F1A6F1A6F
(1469304454.193116) can0 1AA#0000000000B1
(1469304454.194371) can0 351#00000000
(1469304454.196985) can0 610#2000006480FFFD60
(1469304454.197304) can0 263#00000000B2001E
(1469304454.198334) can0 1C4#090429080000FF0A
(1469304454.198879) can0 020#0000072B
(1469304454.199089) can0 0B4#00000000020000BE
(1469304454.199379) can0 025#000000027000009F
(1469304454.199597) can0 223#000000000000002D
(1469304454.199804) can0 262#000000016A
(1469304454.200017) can0 361#003C000000000000
(1469304454.203172) can0 024#5600020A420C805C
(1469304454.204982) can0 0AA#1A6F1A6F1A6F1A6F
(1469304454.207507) can0 3BB#0000B200
(1469304454.207550) can0 1C8#80
(1469304454.209534) can0 260#0E00000000000078
(1469304454.210878) can0 020#0000072B
(1469304454.211010) can0 0BA#060000C4
(1469304454.211318) can0 025#000000027000009F
(1469304454.211519) can0 224#0000000000000008
(1469304454.214349) can0 394#4300
(1469304454.214618) can0 3E8#0000000000000000
(1469304454.214980) can0 610#2080006480FFFD60
(1469304454.215192) can0 024#5600020842088056
(1469304454.215835) can0 1D0#1218090000AC00B8
(1469304454.216807) can0 2C1#0800AD068EC500D9
(1469304454.216993) can0 0AA#1A6F1A6F1A6F1A6F
(1469304454.221982) can0 263#00000000B3001F
(1469304454.223010) can0 1C4#094129080000FF47
(1469304454.223123) can0 020#0000072B
(1469304454.223424) can0 0B4#00000000020000BE
(1469304454.223627) can0 223#000000000000002D
(1469304454.223902) can0 1C8#80
(1469304454.224249) can0 025#00010002900000C0
(1469304454.226985) can0 618#2280000080000000
(1469304454.227193) can0 024#560001FF4208804C
(1469304454.227506) can0 620#1080FFFFB0500080
(1469304454.229060) can0 0AA#1A6F1A6F1A6F1A6F
(1469304454.229556) can0 260#0E00000000000078
(1469304454.235001) can0 020#0000072B
(1469304454.235137) can0 0BA#060000C4
(1469304454.235436) can0 025#000000027000009F
(1469304454.235645) can0 224#0000000000000008
(1469304454.236230) can0 024#520001F44208803D
(1469304454.238583) can0 3A0#008500000000006A
(1469304454.238955) can0 619#238000000C003A80
(1469304454.239510) can0 262#000000016A
(1469304454.240348) can0 1C8#80
(1469304454.241115) can0 0AA#1A6F1A6F1A6F1A6F
(1469304454.241265) can0 1AA#0000000000B1
(1469304454.244597) can0 3E9#0000000000000000
(1469304454.246631) can0 263#00000000B2001E
(1469304454.247026) can0 020#0000072B
(1469304454.247258) can0 0B4#00000000020000BE
(1469304454.247490) can0 223#000000000000002D
(1469304454.247741) can0 1C4#096629080000FF6C
(1469304454.248229) can0 025#000000027000009F
(1469304454.248486) can0 024#520001EF420A803A
(1469304454.248668) can0 1D0#12BC090000AC005C
(1469304454.249582) can0 260#0E00000000000078
(1469304454.249797) can0 2C1#08009905C3C400F8
(1469304454.250946) can0 61A#2480000000014F60
(1469304454.253107) can0 0AA#1A6F1A6F1A6F1A6F
(1469304454.254353) can0 351#00000000
(1469304454.256775) can0 1C8#80
(1469304454.257018) can0 442#4302000001000000
(1469304454.259052) can0 020#0000072B
(1469304454.259185) can0 0BA#060000C4
(1469304454.259506) can0 224#0000000000000008
(1469304454.260159) can0 025#000000027000009F
(1469304454.260367) can0 024#520001F3420A803E
(1469304454.262983) can0 61C#2680000000000000
(1469304454.265051) can0 361#0033000000000000
(1469304454.265290) can0 0AA#1A6F1A6F1A6F1A6F
(1469304454.265584) can0 3B7#583B000000000008
(1469304454.269506) can0 260#0E00000000000078
(1469304454.271103) can0 020#0000072B
(1469304454.271316) can0 0B4#00000000020000BE
(1469304454.271587) can0 223#000000000000002D
(1469304454.271779) can0 263#00000000B3001F
(1469304454.272214) can0 025#000000027000009F
(1469304454.272520) can0 024#520001FD420A8048
(1469304454.272634) can0 1C4#097F29080000FF85
(1469304454.273147) can0 1C8#80
(1469304454.277323) can0 0AA#1A6F1A6F1A6F1A6F
(1469304454.279403) can0 262#000000016A
(1469304454.281534) can0 1D0#132E090000AC00CF
(1469304454.282510) can0 2C1#0800900507C40033
(1469304454.283275) can0 020#0000072B
(1469304454.283463) can0 0BA#060000C4
(1469304454.283713) can0 224#0000000000000008
(1469304454.284125) can0 025#000000027000009F
(1469304454.284335) can0 024#5200020642088050
(1469304454.289387) can0 0AA#1A6F1A6F1A6F1A6F
(1469304454.289543) can0 1AA#0000000000B1
(1469304454.289628) can0 1C8#80
(1469304454.289945) can0 260#0E00000000000078
(1469304454.291233) can0 621#1100000000000000
(1469304454.295344) can0 020#0000072B
(1469304454.295543) can0 0B4#00000000020000BE
(1469304454.295832) can0 223#000000000000002D
(1469304454.296015) can0 263#00000000B2001E
(1469304454.296282) can0 024#5200020A42088054
(1469304454.296492) can0 025#000000027000009F
(1469304454.296880) can0 1C4#098529080000FF8B
(1469304454.297091) can0 3F9#5198260100000014
(1469304454.300200) can0 622#1200481000000000
(1469304454.301433) can0 0AA#1A6F1A6F1A6F1A6F
(1469304454.305972) can0 1C8#80
(1469304454.307350) can0 020#0000072B
(1469304454.307480) can0 0BA#060000C4
(1469304454.307783) can0 224#0000000000000008
(1469304454.308106) can0 025#00010002900000C0
(1469304454.308316) can0 024#52000203420A804F
(1469304454.309234) can0 623#1900000000000000
(1469304454.309484) can0 260#0E00000000000078
(1469304454.313435) can0 0AA#1A6F1A6F1A6F1A6F
(1469304454.314332) can0 1D0#1356090000AC00F7
(1469304454.314464) can0 351#00000000
(1469304454.315306) can0 2C1#08008B0462C40088
(1469304454.317248) can0 3D0#00
(1469304454.318232) can0 624#1A00414949400000
(1469304454.319396) can0 262#000000016A
(1469304454.319466) can0 020#0000072B
(1469304454.319766) can0 0B4#00000000020000BE
(1469304454.320055) can0 223#000000000000002D
(1469304454.320241) can0 024#520001FA420A8045
(1469304454.320490) can0 025#00010002900000C0
(1469304454.320712) can0 263#00000000B2001E
(1469304454.321459) can0 1C4#099929080000FF9F
(1469304454.322330) can0 1C8#80
(1469304454.325474) can0 0AA#1A6F1A6F1A6F1A6F
(1469304454.327234) can0 626#1C00300000000000
(1469304454.329509) can0 260#0E00000000000078
(1469304454.330756) can0 361#002C000000000000
(1469304454.331402) can0 020#0000072B
(1469304454.331537) can0 0BA#060000C4
(1469304454.331844) can0 224#0000000000000008
(1469304454.332041) can0 025#00010002900000C0
(1469304454.332287) can0 024#520001F3420A803E
(1469304454.334546) can0 3A0#008500000000006A
(1469304454.336197) can0 638#1300180100000000
(1469304454.337508) can0 0AA#1A6F1A6F1A6F1A6F
(1469304454.337668) can0 1AA#0000000000B1
(1469304454.337775) can0 354#01
(1469304454.338797) can0 1C8#80
(1469304454.343501) can0 020#0000072B
(1469304454.343685) can0 0B4#00000000020000BE
(1469304454.343929) can0 223#000000000000002D
(1469304454.344193) can0 025#000000027000009F
(1469304454.344378) can0 024#520001F3420A803E
(1469304454.345085) can0 263#00000000B2001E
(1469304454.345312) can0 63C#98005A5245172060
(1469304454.346084) can0 1C4#099C29080000FFA2
(1469304454.347134) can0 1D0#135C090000AC00FD
(1469304454.348129) can0 2C1#08008603CEC400EE
(1469304454.349432) can0 260#0E00000000000078
(1469304454.349653) can0 0AA#1A6F1A6F1A6F1A6F
(1469304454.354205) can0 63D#9900444558534B00
(1469304454.354567) can0 443#4002002F06000000
(1469304454.355249) can0 1C8#80
(1469304454.355454) can0 020#0000072B
(1469304454.355600) can0 0BA#060000C4
(1469304454.355886) can0 224#0000000000000008
(1469304454.356139) can0 025#000000027000009F
(1469304454.356406) can0 024#520001FA420A8045
(1469304454.359400) can0 262#000000016A
(1469304454.361582) can0 0AA#1A6F1A6F1A6F1A6F
(1469304454.363233) can0 680#D800010000000000
(1469304454.367507) can0 020#0000072B
(1469304454.367756) can0 0B4#00000000020000BE
(1469304454.368009) can0 223#000000000000002D
(1469304454.368255) can0 025#00010002900000C0
(1469304454.368469) can0 024#520002014208804B
(1469304454.369522) can0 260#0E00000000000078
(1469304454.369716) can0 263#00000000B2001E
(1469304454.370781) can0 1C4#099D29080000FFA3
(1469304454.371675) can0 1C8#80
(1469304454.373609) can0 0AA#1A6F1A6F1A6F1A6F
(1469304454.374277) can0 351#00000000
(1469304454.379551) can0 020#0000072B
(1469304454.379660) can0 0BA#060000C4
(1469304454.379972) can0 224#0000000000000008
(1469304454.380183) can0 025#000000027000009F
(1469304454.380507) can0 024#5200020642088050
(1469304454.380667) can0 1D0#1358090000AC00F9
(1469304454.381034) can0 2C1#0800840345C40063
(1469304454.385661) can0 0AA#1A6F1A6F1A6F1A6F
(1469304454.385814) can0 1AA#0000000000B1
(1469304454.388076) can0 1C8#80
(1469304454.389410) can0 260#0E00000000000078
(1469304454.391579) can0 020#0000072B
(1469304454.391793) can0 0B4#00000000020000BE
(1469304454.392080) can0 025#000000027000009F
(1469304454.392291) can0 024#520002034208804D
(1469304454.392583) can0 223#000000000000002D
(1469304454.394357) can0 263#00000000B3001F
(1469304454.395382) can0 1C4#09A329080000FFA9
(1469304454.396445) can0 361#0026000000000000
(1469304454.397682) can0 0AA#1A6F1A6F1A6F1A6F
(1469304454.397867) can0 4C3#0300000100000000
(1469304454.399357) can0 262#000000016A
(1469304454.403578) can0 020#0000072B
(1469304454.403711) can0 0BA#060000C4
(1469304454.404022) can0 224#0000000000000008
(1469304454.404233) can0 025#000000027000009F
(1469304454.404507) can0 024#520001FD420A8048
(1469304454.404540) can0 1C8#80
(1469304454.409508) can0 260#0E00000000000078
(1469304454.409642) can0 0AA#1A6F1A6F1A6F1A6F
(1469304454.412909) can0 1D0#1352090000AC00F3
(1469304454.413883) can0 2C1#08008602C9C400E8
(1469304454.415611) can0 020#0000072B
(1469304454.415820) can0 0B4#00000000020000BE
(1469304454.416108) can0 025#00010002900000C0
(1469304454.416292) can0 024#520001F6420C8043
(1469304454.416583) can0 223#000000000000002D
(1469304454.419056) can0 263#00000000B3001F
(1469304454.420060) can0 1C4#099E29080000FFA4
(1469304454.421054) can0 38A#0804000000
(1469304454.421291) can0 1C8#80
(1469304454.421707) can0 0AA#1A6F1A6F1A6F1A6F
(1469304454.427654) can0 020#0000072B
(1469304454.427764) can0 0BA#060000C4
(1469304454.428069) can0 224#0000000000000008
(1469304454.428277) can0 024#520001F4420C8041
(1469304454.428556) can0 025#000000027000009F
(1469304454.429506) can0 260#0E00000000000078
(1469304454.433759) can0 0AA#1A6F1A6F1A6F1A6F
(1469304454.433914) can0 1AA#0000000000B1
(1469304454.434224) can0 351#00000000
(1469304454.436559) can0 3A0#008500000000006A
(1469304454.437372) can0 1C8#80
(1469304454.439277) can0 262#000000016A
(1469304454.439680) can0 020#0000072B
(1469304454.439890) can0 0B4#00000000020000BE
(1469304454.440180) can0 025#000000027000009F
(1469304454.440393) can0 024#520001F8420A8043
(1469304454.440682) can0 223#000000000000002D
(1469304454.443663) can0 263#00000000B3001F
(1469304454.444707) can0 1C4#099329080000FF99
(1469304454.445734) can0 1D0#1341090000AC00E2
(1469304454.445919) can0 0AA#1A6F1A6F1A6F1A6F
(1469304454.446708) can0 2C1#08008A0260C40083
(1469304454.448962) can0 640#A800005701330000
(1469304454.449434) can0 260#0E00000000000078
(1469304454.451727) can0 020#0000072B
(1469304454.451857) can0 0BA#060000C4
(1469304454.452169) can0 224#0000000000000008
(1469304454.452357) can0 024#520001FF42088048
(1469304454.452659) can0 025#00010002900000C0
(1469304454.453798) can0 1C8#80
(1469304454.456211) can0 440#4202001101000000
(1469304454.457833) can0 0AA#1A6F1A6F1A6F1A6F
(1469304454.458042) can0 420#00000000FB0182AA
(1469304454.462095) can0 361#0021000000000000
(1469304454.463711) can0 020#0000072B
(1469304454.463988) can0 0B4#00000000020000BE
(1469304454.464238) can0 025#00010002900000C0
(1469304454.464531) can0 024#520002034206804B
(1469304454.464741) can0 223#000000000000002D
(1469304454.468290) can0 263#00000000B3001F
(1469304454.469316) can0 1C4#099529080000FF9B
(1469304454.469573) can0 260#0E00000000000078
(1469304454.469915) can0 0AA#1A6F1A6F1A6F1A6F
(1469304454.470172) can0 1C8#80
(1469304454.471311) can0 4C1#0100000500000000
(1469304454.475827) can0 020#0000072B
(1469304454.475995) can0 0BA#060000C4
(1469304454.476240) can0 224#0000000000000008
(1469304454.476486) can0 024#520002014208804B
(1469304454.476985) can0 025#000000027000009F
(1469304454.478543) can0 1D0#1333090000AC00D4
(1469304454.479304) can0 262#000000016A
(1469304454.479559) can0 2C1#08008B01FEC40021
(1469304454.481922) can0 0AA#1A6F1A6F1A6F1A6F
(1469304454.482120) can0 1AA#0000000000B1
(1469304454.486628) can0 1C8#80
(1469304454.487913) can0 020#0000072B
(1469304454.488182) can0 0B4#00000000020000BE
(1469304454.488368) can0 024#520001FD420A8048
(1469304454.488626) can0 223#000000000000002D
(1469304454.489047) can0 025#000000027000009F
(1469304454.489364) can0 260#0E00000000000078
(1469304454.492873) can0 263#00000000B3001F
(1469304454.493966) can0 1C4#098B29080000FF91
(1469304454.494194) can0 0AA#1A6F1A6F1A6F1A6F
(1469304454.494288) can0 351#00000000
(1469304454.496957) can0 610#2080006480FFFD60
(1469304454.499962) can0 020#0000072B
(1469304454.500085) can0 0BA#060000C4
(1469304454.500407) can0 024#520001FA420A8045
(1469304454.500640) can0 224#0000000000000008
(1469304454.501016) can0 025#000000027000009F
(1469304454.503031) can0 1C8#80
(1469304454.506092) can0 0AA#1A6F1A6F1A6F1A6F
(1469304454.508966) can0 611#21800020000062D4
(1469304454.509307) can0 260#0E00000000000078
(1469304454.511417) can0 1D0#131E090000AC00BF
(1469304454.512016) can0 020#0000072B
(1469304454.512273) can0 0B4#00000000020000BE
(1469304454.512515) can0 223#000000000000002D
(1469304454.512741) can0 2C1#08009101A5C400CE
(1469304454.513014) can0 025#00010002900000C0
(1469304454.513287) can0 024#520001F8420A8043
(1469304454.514232) can0 394#4300
(1469304454.517566) can0 263#00000000B3001F
(1469304454.518088) can0 0AA#1A6F1A6F1A6F1A6F
(1469304454.518544) can0 1C4#097D29080000FF83
(1469304454.519291) can0 262#000000016A
(1469304454.519516) can0 1C8#80
(1469304454.523292) can0 4AC#1802400500000304
(1469304454.524011) can0 020#0000072B
(1469304454.524147) can0 0BA#060000C4
(1469304454.524514) can0 224#0000000000000008
(1469304454.524939) can0 025#000000027000009F
(1469304454.525287) can0 024#520001FA42088043
(1469304454.527189) can0 620#1000FFFFB0500080
(1469304454.527904) can0 361#001D000000000000
(1469304454.529389) can0 260#0E00000000000078
(1469304454.530140) can0 0AA#1A6F1A6F1A6F1A6F
(1469304454.530314) can0 1AA#0000000000B1
(1469304454.535544) can0 3A0#008500000000006A
(1469304454.535929) can0 1C8#80
(1469304454.536062) can0 020#0000072B
(1469304454.536388) can0 0B4#00000000020000BE
(1469304454.536616) can0 223#000000000000002D
(1469304454.536989) can0 025#000000027000009F
(1469304454.537287) can0 024#520001FB42088044
(1469304454.542139) can0 0AA#1A6F1A6F1A6F1A6F
(1469304454.542335) can0 263#00000000B3001F
(1469304454.543244) can0 1C4#097229080000FF78
(1469304454.543289) can0 354#01
(1469304454.544139) can0 3D3#046B
(1469304454.544412) can0 1D0#1301090000AC00A2
(1469304454.545267) can0 2C1#0800940159C40085
(1469304454.548098) can0 4C6#0700030000000000
(1469304454.548219) can0 020#0000072B
(1469304454.548392) can0 0BA#060000C4
(1469304454.548717) can0 224#0000000000000008
(1469304454.548945) can0 025#00010002900000C0
(1469304454.549291) can0 024#520001FF420A804A
(1469304454.549543) can0 260#0E00000000000078
(1469304454.552325) can0 1C8#80
(1469304454.553514) can0 3F9#5198260100000014
(1469304454.554184) can0 351#00000000
(1469304454.554410) can0 0AA#1A6F1A6F1A6F1A6F
(1469304454.556966) can0 442#4302000001000000
(1469304454.559238) can0 262#000000016A
(1469304454.560270) can0 020#0000072B
(1469304454.560541) can0 0B4#00000000020000BE
(1469304454.560794) can0 223#000000000000002D
(1469304454.561038) can0 025#000000027000009F
(1469304454.561287) can0 024#52000200420A804C
(1469304454.566368) can0 0AA#1A6F1A6F1A6F1A6F
(1469304454.566623) can0 3B7#583B000000000008
(1469304454.566803) can0 263#00000000B3001F
(1469304454.567866) can0 1C4#095A29080000FF60
(1469304454.568730) can0 1C8#80
(1469304454.569331) can0 260#0E00000000000078
(1469304454.572286) can0 020#0000072B
(1469304454.572471) can0 0BA#060000C4
(1469304454.572693) can0 224#0000000000000008
(1469304454.572984) can0 025#00010002900000C0
(1469304454.573282) can0 024#520001FD420A8048
(1469304454.573830) can0 3D0#00
(1469304454.577118) can0 1D0#12DD090000AC007D
(1469304454.578064) can0 2C1#0800A00118C50051
(1469304454.578416) can0 0AA#1A6F1A6F1A6F1A6F
(1469304454.578589) can0 1AA#0000000000B1
(1469304454.584217) can0 4C8#0900000000000000
(1469304454.584310) can0 020#0000072B
(1469304454.584641) can0 0B4#00000000020000BE
(1469304454.584839) can0 025#00010002900000C0
(1469304454.585114) can0 223#000000000000002D
(1469304454.585364) can0 024#520001FB42088044
(1469304454.585471) can0 1C8#80
(1469304454.589363) can0 260#0E00000000000078
(1469304454.590414) can0 0AA#1A6F1A6F1A6F1A6F
(1469304454.591394) can0 263#00000000B3001F
(1469304454.592524) can0 1C4#094029080000FF46
(1469304454.593526) can0 361#001A000000000000
(1469304454.595600) can0 3BC#0020000000000000
(1469304454.596367) can0 020#0000072B
(1469304454.596509) can0 0BA#060000C4
(1469304454.596754) can0 224#0000000000000008
(1469304454.597048) can0 025#00010002900000C0
(1469304454.597297) can0 024#520001FA420A8045
(1469304454.597563) can0 399#00000000000000
(1469304454.599231) can0 262#000000016A
(1469304454.600915) can0 423#00
(1469304454.601564) can0 1C8#80
(1469304454.602523) can0 0AA#1A6F1A6F1A6F1A6F
(1469304454.608374) can0 020#0000072B
(1469304454.608624) can0 0B4#00000000020000BE
(1469304454.608830) can0 025#000000027000009F
(1469304454.609077) can0 223#000000000000002D
(1469304454.609372) can0 024#520001FA420A8045
(1469304454.609624) can0 260#0E00000000000078
(1469304454.609927) can0 1D0#12A4090000AC0044
(1469304454.610898) can0 2C1#0800AA00E3C50025
(1469304454.614195) can0 351#00000000
(1469304454.614523) can0 0AA#1A6F1A6F1A6F1A6F
(1469304454.616077) can0 263#00000000B3001F
(1469304454.617098) can0 1C4#093629080000FF3C
(1469304454.617989) can0 1C8#80
(1469304454.620422) can0 020#0000072B
(1469304454.620565) can0 0BA#060000C4
(1469304454.620804) can0 224#0000000000000008
(1469304454.621096) can0 025#00010002900000C0
(1469304454.621297) can0 024#520001FB420A8046
(1469304454.626485) can0 0AA#1A6F1A6F1A6F1A6F
(1469304454.626659) can0 1AA#0000000000B1
(1469304454.629273) can0 260#0E00000000000078
(1469304454.632447) can0 020#0000072B
(1469304454.632704) can0 0B4#00000000020000BE
(1469304454.632955) can0 025#00010002900000C0
(1469304454.633144) can0 223#000000000000002D
(1469304454.633422) can0 024#520001FD42088046
(1469304454.634390) can0 1C8#80
(1469304454.637551) can0 3A0#0086000000000069
(1469304454.638523) can0 0AA#1A6F1A6F1A6F1A6F
(1469304454.639146) can0 262#000000016A
(1469304454.640700) can0 263#00000000B3001F
(1469304454.641723) can0 1C4#092D29080000FF33
(1469304454.642750) can0 1D0#1271090000AC0011
(1469304454.643699) can0 2C1#0800AD00B2C500F7
(1469304454.644505) can0 020#0000072B
(1469304454.644583) can0 0BA#060000C4
(1469304454.644897) can0 025#00010002900000C0
(1469304454.645107) can0 224#0000000000000008
(1469304454.645329) can0 024#520001FF42088048
(1469304454.649242) can0 260#0E00000000001D95
(1469304454.650551) can0 0AA#1A6F1A6F1A6F1A6F
(1469304454.650785) can0 1C8#80
(1469304454.654609) can0 443#4002002F06000000
(1469304454.656533) can0 020#0000072B
(1469304454.656739) can0 0B4#00000000020000BE
(1469304454.657027) can0 025#00010002900000C0
(1469304454.657236) can0 223#000000000000002D
(1469304454.657511) can0 024#520001FF42088048
(1469304454.659187) can0 361#0019000000000000
(1469304454.662612) can0 0AA#1A6F1A6F1A6F1A6F
(1469304454.665244) can0 263#00000000B3001F
(1469304454.666255) can0 1C4#090429080000FF0A
(1469304454.667145) can0 1C8#80
(1469304454.668474) can0 020#0000072B
(1469304454.668641) can0 0BA#060000C4
(1469304454.668933) can0 224#0000000000000008
(1469304454.669174) can0 025#000000027000009F
(1469304454.669432) can0 024#520001FD420A8048
(1469304454.669729) can0 260#0E00000000000078
(1469304454.674103) can0 351#00000000
(1469304454.674658) can0 0AA#1A6F1A6F1A6F1A6F
(1469304454.674839) can0 1AA#0000000000B1
(1469304454.675546) can0 1D0#124D090000AC00ED
(1469304454.676515) can0 2C1#0800BF0088C500DF
(1469304454.679178) can0 262#000000016A
(1469304454.680628) can0 020#0000072B
(1469304454.680841) can0 0B4#00000000020000BE
(1469304454.681129) can0 223#000000000000002D
(1469304454.681316) can0 024#520001FA420A8045
(1469304454.681910) can0 025#000000027000009F
(1469304454.683649) can0 1C8#80
(1469304454.686709) can0 0AA#1A6F1A6F1A6F1A6F
(1469304454.689236) can0 260#0E00000000000078
(1469304454.689933) can0 263#00000000B3001F
(1469304454.690959) can0 1C4#08E729080000FFEC
(1469304454.692679) can0 020#0000072B
(1469304454.692811) can0 0BA#060000C4
(1469304454.693116) can0 224#0000000000000008
(1469304454.693307) can0 024#520001FA420A8045
(1469304454.693831) can0 025#00010002900000C0
(1469304454.698761) can0 0AA#1A6F1A6F1A6F1A6F
(1469304454.700048) can0 1C8#80
(1469304454.704728) can0 020#0000072B
(1469304454.704943) can0 0B4#00000000020000BE
(1469304454.705231) can0 223#000000000000002D
(1469304454.705486) can0 024#520001FB42088044
(1469304454.705806) can0 025#00010002900000C0
(1469304454.708384) can0 1D0#11F5090000AC0094
(1469304454.709284) can0 260#0800000000000072
(1469304454.709472) can0 2C1#0800CF0062C600CA
(1469304454.710831) can0 0AA#1A6F1A6F1A6F1A6F
(1469304454.714485) can0 263#00000000B3001F
(1469304454.715522) can0 1C4#08C829080000FFCD
(1469304454.716464) can0 1C8#80
(1469304454.716734) can0 020#0000072B
(1469304454.716902) can0 0BA#060000C4
(1469304454.717150) can0 224#0000000000000008
(1469304454.717483) can0 024#520001FD42088046
(1469304454.717674) can0 025#000000027000009F
(1469304454.719192) can0 262#000000016A
(1469304454.722847) can0 0AA#1A6F1A6F1A6F1A6F
(1469304454.723022) can0 1AA#0000000000B1
(1469304454.724797) can0 361#0017000000000000
(1469304454.728816) can0 020#0000072B
(1469304454.729045) can0 0B4#00000000020000BE
(1469304454.729291) can0 024#520001FD42088046
(1469304454.729526) can0 223#000000000000002D
(1469304454.729774) can0 260#0800000000FFE859
(1469304454.730023) can0 025#000000027000009F
(1469304454.731122) can0 622#1280581000000000
(1469304454.732838) can0 1C8#80
(1469304454.733262) can0 3B1#00000D0A00080000
(1469304454.734067) can0 351#00000000
(1469304454.734896) can0 0AA#1A6F1A6F1A6F1A6F
(1469304454.736472) can0 3A0#0086000000000069
(1469304454.739120) can0 263#00000000B3001F
(1469304454.740143) can0 1C4#08B729080000FFBC
(1469304454.740877) can0 020#0000072B
(1469304454.741010) can0 0BA#060000C4
(1469304454.741313) can0 1D0#11A9090000AC0048
(1469304454.741493) can0 024#520001FF42088048
(1469304454.741783) can0 025#00010002900000C0
(1469304454.741992) can0 224#0000000000000008
(1469304454.742279) can0 2C1#0800D70048C600B8
(1469304454.742466) can0 620#1080FFFFB0500040
(1469304454.746948) can0 0AA#1A6F1A6F1A6F1A6F
(1469304454.748225) can0 354#01
(1469304454.749208) can0 260#0800000000FFE556
(1469304454.749241) can0 1C8#80
(1469304454.752916) can0 020#0000072B
(1469304454.753153) can0 0B4#00000000020000BE
(1469304454.753376) can0 024#520001FB420A8046
(1469304454.753627) can0 223#000000000000002D
(1469304454.753864) can0 025#00010002900000C0
(1469304454.756089) can0 440#4202001101000000
(1469304454.759059) can0 0AA#1A6F1A6F1A6F1A6F
(1469304454.759190) can0 262#000000016A
(1469304454.763781) can0 263#00000000B3001F
(1469304454.764808) can0 1C4#08A829080000FFAD
(1469304454.764963) can0 020#0000072B
(1469304454.765128) can0 0BA#060000C4
(1469304454.765420) can0 024#520001FB42088044
(1469304454.765626) can0 224#0000000000000008
(1469304454.765908) can0 025#00010002900000C0
(1469304454.765940) can0 1C8#80
(1469304454.769219) can0 260#0800000000FFEE5F
(1469304454.769533) can0 4DC#1D00000200000000
(1469304454.771081) can0 0AA#1A6F1A6F1A6F1A6F
(1469304454.771239) can0 1AA#0000000000B1
(1469304454.774060) can0 1D0#1173090000AC0012
(1469304454.775032) can0 2C1#0800DD002FC600A5
(1469304454.776965) can0 020#0000072B
(1469304454.777222) can0 0B4#00000000020000BE
(1469304454.777479) can0 024#520001FB420A8046
(1469304454.777703) can0 025#000000027000009F
(1469304454.777952) can0 223#000000000000002D
(1469304454.782100) can0 1C8#80
(1469304454.783266) can0 0AA#1A6F1A6F1A6F1A6F
(1469304454.788408) can0 263#00000000B3001F
(1469304454.789133) can0 260#0800000000FFF162
(1469304454.789264) can0 020#0000072B
(1469304454.789463) can0 0BA#060000C4
(1469304454.789727) can0 025#00010002900000C0
(1469304454.789915) can0 1C4#089129080000FF96
(1469304454.790169) can0 224#0000000000000008
(1469304454.790460) can0 024#520001FB420A8046
(1469304454.790639) can0 361#0016000000000000
(1469304454.794051) can0 351#00000000
(1469304454.794631) can0 387#0000000000003F3F
(1469304454.795328) can0 0AA#1A6F1A6F1A6F1A6F
(1469304454.798523) can0 1C8#80
(1469304454.799070) can0 262#000000016A
(1469304454.801251) can0 020#0000072B
(1469304454.801486) can0 0B4#00000000020000BE
(1469304454.801790) can0 025#00010002900000C0
(1469304454.801964) can0 223#000000000000002D
(1469304454.802288) can0 024#520001FB420A8046
(1469304454.806883) can0 1D0#1149090000AC00E8
(1469304454.807382) can0 0AA#1A6F1A6F1A6F1A6F
(1469304454.807833) can0 2C1#0800EA001DC700A1
(1469304454.809207) can0 260#0800000000FFF162
(1469304454.809960) can0 3F9#5198260100000014
(1469304454.813032) can0 263#00000000B3001F
(1469304454.813269) can0 020#0000072B
(1469304454.813463) can0 0BA#060000C4
(1469304454.813725) can0 025#000000027000009F
(1469304454.813934) can0 224#0000000000000008
(1469304454.814198) can0 1C4#087629080000FF7B
(1469304454.814510) can0 024#520001FD42088046
(1469304454.814517) can0 394#4300
(1469304454.814938) can0 1C8#80
(1469304454.819343) can0 0AA#1A6F1A6F1A6F1A6F
(1469304454.819537) can0 1AA#0000000000B1
(1469304454.824633) can0 389#0000000000000000
(1469304454.825325) can0 020#0000072B
(1469304454.825545) can0 0B4#00000000020000BE
(1469304454.825831) can0 025#000000027000009F
(1469304454.826040) can0 223#000000000000002D
(1469304454.826330) can0 024#520001FD42088046
(1469304454.829209) can0 260#0800000000FFF162
(1469304454.830324) can0 3D0#00
(1469304454.831393) can0 0AA#1A6F1A6F1A6F1A6F
(1469304454.831479) can0 1C8#80
(1469304454.833306) can0 4DD#1E00000000000000
(1469304454.837355) can0 020#0000072B
(1469304454.837488) can0 0BA#060000C4
(1469304454.837800) can0 224#0000000000000008
(1469304454.838010) can0 025#000000027000009F
(1469304454.838274) can0 263#00000000B3001F
(1469304454.838468) can0 024#520001FF42088048
(1469304454.838731) can0 1C4#084F29080000FF54
(1469304454.838946) can0 3A0#0085000000000069
(1469304454.839113) can0 262#000000016A
(1469304454.839660) can0 1D0#10F9090000AC0097
(1469304454.840633) can0 2C1#0800FA0012C700A6
(1469304454.843465) can0 0AA#1A6F1A6F1A6F1A6F
(1469304454.847779) can0 1C8#80
(1469304454.849107) can0 260#0800000000FFF162
(1469304454.849426) can0 020#0000072B
(1469304454.849644) can0 0B4#00000000020000BE
(1469304454.849889) can0 025#000000027000009F
(1469304454.850131) can0 223#000000000000002D
(1469304454.850356) can0 024#520001FD420A8048
(1469304454.853986) can0 351#00000000
(1469304454.854608) can0 38E#2020000000000000
(1469304454.855493) can0 0AA#1A6F1A6F1A6F1A6F
(1469304454.856133) can0 361#0016000000000000
(1469304454.856963) can0 442#4302000001000000
(1469304454.861461) can0 020#0000072B
(1469304454.861570) can0 0BA#060000C4
(1469304454.861850) can0 224#0000000000000008
(1469304454.862217) can0 263#00000000B3001F
(1469304454.862460) can0 024#520001FB420A8046
(1469304454.862707) can0 025#000000027000009F
(1469304454.863262) can0 1C4#083829080000FF3D
(1469304454.864135) can0 1C8#80
(1469304454.867521) can0 0AA#1A6F1A6F1A6F1A6F
(1469304454.867717) can0 1AA#0000000000B1
(1469304454.868007) can0 3B7#583B000000000008
(1469304454.869092) can0 260#0800000000FFF162
(1469304454.872523) can0 1D0#10B4090000AC0052
(1469304454.873506) can0 2C1#080104000AC800AA
(1469304454.873638) can0 020#0000072B
(1469304454.873941) can0 0B4#00000000020000BE
(1469304454.874133) can0 223#000000000000002D
(1469304454.874424) can0 024#520001FB420A8046
(1469304454.874647) can0 025#00010002900000C0
(1469304454.879106) can0 262#000000016A
(1469304454.879612) can0 0AA#1A6F1A6F1A6F1A6F
(1469304454.880572) can0 1C8#80
(1469304454.884633) can0 38F#0100000000000000
(1469304454.885576) can0 020#0000072B
(1469304454.885766) can0 0BA#060000C4
(1469304454.886024) can0 224#0000000000000008
(1469304454.886348) can0 024#520001FB42088044
(1469304454.886624) can0 025#000000027000009F
(1469304454.886869) can0 263#00000000B3001F
(1469304454.887895) can0 1C4#083029080000FF35
(1469304454.889116) can0 260#0800000000FFF162
(1469304454.891642) can0 0AA#1A6F1A6F1A6F1A6F
(1469304454.897024) can0 1C8#80
(1469304454.897600) can0 020#0000072B
(1469304454.897813) can0 0B4#00000000020000BE
(1469304454.898064) can0 223#000000000000002D
(1469304454.898295) can0 024#520001FB42088044
(1469304454.898616) can0 025#000000027000009F
(1469304454.903621) can0 0AA#1A6F1A6F1A6F1A6F
(1469304454.905383) can0 1D0#106F090000AC000D
(1469304454.906359) can0 2C1#0801080005C800A9
(1469304454.909109) can0 260#0800000000FFF162
(1469304454.909626) can0 020#0000072B
(1469304454.909757) can0 0BA#060000C4
(1469304454.910072) can0 224#0000000000000008
(1469304454.910316) can0 024#520001FD42088046
(1469304454.910547) can0 025#000000027000009F
(1469304454.911515) can0 263#00000000B3001F
(1469304454.912533) can0 1C4#082829080000FF2D
(1469304454.913421) can0 1C8#80
(1469304454.913977) can0 351#00000000
(1469304454.914608) can0 3A5#0000000000007EFC
(1469304454.915736) can0 0AA#1A6F1A6F1A6F1A6F
(1469304454.915890) can0 1AA#0000000000B1
(1469304454.919003) can0 262#000000016A
(1469304454.919507) can0 380#C0A0400000004200
(1469304454.919813) can0 3B0#00B3005600180000
(1469304454.921653) can0 020#0000072B
(1469304454.921884) can0 0B4#00000000020000BE
(1469304454.922139) can0 223#000000000000002D
(1469304454.922365) can0 024#520001FF420A804A
(1469304454.922663) can0 361#0016000000000000
(1469304454.922866) can0 025#00010002900000C0
(1469304454.927750) can0 0AA#1A6F1A6F1A6F1A6F
(1469304454.929107) can0 260#0800000000FFF162
(1469304454.929822) can0 1C8#80
(1469304454.931134) can0 6E1#A180000000100000
(1469304454.933737) can0 020#0000072B
(1469304454.933820) can0 0BA#060000C4
(1469304454.934105) can0 224#0000000000000008
(1469304454.934353) can0 024#520001FD420A8048
(1469304454.934590) can0 025#00010002900000C0
(1469304454.936088) can0 263#00000000B3001F
(1469304454.937115) can0 1C4#081929080000FF1E
(1469304454.937465) can0 3A0#0085000007000069
(1469304454.938170) can0 1D0#1050090000AC00EE
(1469304454.939140) can0 2C1#08010D0001C800AA
(1469304454.939766) can0 0AA#1A6F1A6F1A6F1A6F
(1469304454.944572) can0 413#0101010900000000
(1469304454.945751) can0 020#0000072B
(1469304454.946002) can0 0B4#00000000020000BE
(1469304454.946210) can0 223#000000000000002D
(1469304454.946506) can0 024#520001FD420A8048
(1469304454.946692) can0 025#00010002900000C0
(1469304454.946789) can0 1C8#80
(1469304454.949137) can0 260#0800000000FFF162
(1469304454.951816) can0 0AA#1A6F1A6F1A6F1A6F
(1469304454.953422) can0 354#01
(1469304454.953646) can0 443#4002002F06000000
(1469304454.955506) can0 382#2338380000000000
(1469304454.955759) can0 381#0001019080000000
(1469304454.957768) can0 020#0000072B
(1469304454.957934) can0 0BA#060000C4
(1469304454.958250) can0 224#0000000000000008
(1469304454.958471) can0 024#520001FB420A8046
(1469304454.958699) can0 025#00010002900000C0
(1469304454.958993) can0 262#000000016A
(1469304454.960697) can0 263#00000000B3001F
(1469304454.961715) can0 1C4#080C29080000FF11
(1469304454.962620) can0 1C8#80
(1469304454.963892) can0 0AA#1A6F1A6F1A6F1A6F
(1469304454.964086) can0 1AA#0000000000B1
(1469304454.969015) can0 260#0800000000FFF162
(1469304454.969852) can0 020#0000072B
(1469304454.970102) can0 0B4#00000000020000BE
(1469304454.970310) can0 024#520001FB42088044
(1469304454.970607) can0 025#00010002900000C0
(1469304454.970817) can0 223#000000000000002D
(1469304454.971080) can0 1D0#1028090000AC00C6
(1469304454.971993) can0 2C1#080147FFFFCA00E3
(1469304454.973978) can0 351#00000000
(1469304454.974632) can0 434#3F00000000000000
(1469304454.975990) can0 0AA#1A6F1A6F1A6F1A6F
(1469304454.979097) can0 1C8#80
(1469304454.981862) can0 020#0000072B
(1469304454.982017) can0 0BA#060000C4
(1469304454.982289) can0 224#0000000000000008
(1469304454.982530) can0 024#520001FD42088046
(1469304454.982778) can0 025#00010002900000C0
(1469304454.985404) can0 263#00000000B3001F
(1469304454.986429) can0 1C4#07F529080000FFF9
(1469304454.987466) can0 361#0015000000000000
(1469304454.988035) can0 0AA#1A6F1A6F1A6F1A6F
(1469304454.989081) can0 260#0800000000FFF162
(1469304454.993952) can0 020#0000072B
(1469304454.994281) can0 0B4#00000000020000BE
(1469304454.994468) can0 024#520001FF42088048
(1469304454.994756) can0 025#00010002900000C0
(1469304454.994966) can0 223#000000000000002D
(1469304454.995548) can0 1C8#80
(1469304454.997958) can0 610#2000006480FFFD60
(1469304454.999028) can0 262#000000016A
(1469304455.000258) can0 0AA#1A6F1A6F1A6F1A6F
(1469304455.003850) can0 1D0#1003090000AC00A1
(1469304455.004608) can0 435#0F0505FFE00FE003
(1469304455.004818) can0 2C1#0801B60000CD0057
(1469304455.006203) can0 020#0000072B
(1469304455.006336) can0 0BA#060000C4
(1469304455.006633) can0 224#0000000000000008
(1469304455.006842) can0 025#000000027000009F
(1469304455.007331) can0 024#520001FF42088048
(1469304455.009108) can0 260#0800010000FFF163
(1469304455.010032) can0 263#00000000B3001F
(1469304455.010991) can0 1C4#07E129080000FFE5
(1469304455.011886) can0 1C8#80
(1469304455.012300) can0 0AA#1A6F1A6F1A6F1A6F
(1469304455.012464) can0 1AA#0000000000B1
(1469304455.017111) can0 6E2#A28000FEFEFEFEFE
(1469304455.018251) can0 020#0000072B
(1469304455.018468) can0 0B4#00000000020000BE
(1469304455.018756) can0 025#00010002900000C0
(1469304455.018970) can0 223#000000000000002D
(1469304455.019356) can0 024#520001FD420A8048
(1469304455.023358) can0 4AC#2800600100000324
(1469304455.024339) can0 0AA#1A6F1A6F1A6F1A6F
(1469304455.028349) can0 1C8#80
(1469304455.029008) can0 260#0800000000FFF162
(1469304455.030277) can0 020#0000072B
(1469304455.030463) can0 0BA#060000C4
(1469304455.030669) can0 025#00010002900000C0
(1469304455.030923) can0 224#0000000000000008
(1469304455.031327) can0 024#520001FD420A8048
(1469304455.033332) can0 3B1#00000D0900080000
(1469304455.033900) can0 351#00000000
(1469304455.034608) can0 436#0000000000000000
(1469304455.034792) can0 263#00000000B3001F
(1469304455.035659) can0 1C4#07CD29080000FFD1
(1469304455.036355) can0 0AA#1A6F1A6F1A6F1A6F
(1469304455.036568) can0 3A0#0085000007000069
(1469304455.036855) can0 1D0#0FD5090000AC0072
(1469304455.037617) can0 2C1#08020C0001D000B2
(1469304455.038942) can0 262#000000016A
(1469304455.041109) can0 620#1000FFFFB0500040
(1469304455.042235) can0 020#0000072B
(1469304455.042556) can0 0B4#00000000020000BE
(1469304455.042765) can0 223#000000000000002D
(1469304455.043289) can0 024#520001FB420A8046
(1469304455.043585) can0 025#000000027000009F
(1469304455.044748) can0 1C8#80
(1469304455.048412) can0 0AA#1A6F1A6F1A6F1A6F
(1469304455.049060) can0 260#0800000000FFF162
(1469304455.053109) can0 361#0016000000000000
(1469304455.054327) can0 020#0000072B
(1469304455.054463) can0 0BA#060000C4
(1469304455.054750) can0 224#0000000000000008
(1469304455.055323) can0 024#520001FB42088044
(1469304455.055551) can0 025#00010002900000C0
(1469304455.056088) can0 440#4202001101000000
(1469304455.059255) can0 263#00000000B3001F
(1469304455.060288) can0 1C4#07C529080000FFC9
(1469304455.060468) can0 0AA#1A6F1A6F1A6F1A6F
(1469304455.060667) can0 1AA#0000000000B1
(1469304455.061105) can0 1C8#80
(1469304455.064609) can0 437#FCFFFFFFFFFFFFFF
(1469304455.066381) can0 3F9#5198260100000014
(1469304455.066488) can0 020#0000072B
(1469304455.066807) can0 0B4#00000000020000BE
(1469304455.067016) can0 223#000000000000002D
(1469304455.067354) can0 024#520001FD42088046
(1469304455.067577) can0 025#000000027000009F
(1469304455.069032) can0 260#0800000000FFF162
(1469304455.069397) can0 3D3#01FA
(1469304455.069882) can0 1D0#0FAA090000AC0047
(1469304455.070467) can0 2C1#0801DD000CCE008B
(1469304455.072473) can0 0AA#1A6F1A6F1A6F1A6F
(1469304455.077574) can0 1C8#80
(1469304455.078392) can0 020#0000072B
(1469304455.078505) can0 0BA#060000C4
(1469304455.078831) can0 224#0000000000000008
(1469304455.078962) can0 262#000000016A
(1469304455.079356) can0 024#520001FD42088046
(1469304455.079542) can0 025#00010002900000C0
(1469304455.083857) can0 263#00000000B3001F
(1469304455.084507) can0 0AA#1A6F1A6F1A6F1A6F
(1469304455.084880) can0 1C4#07BB29080000FFBF
(1469304455.086748) can0 3D0#00
(1469304455.089033) can0 260#0800000000FFF162
(1469304455.090502) can0 020#0000072B
(1469304455.090661) can0 0B4#00000000020000BE
(1469304455.090948) can0 223#000000000000002D
(1469304455.091314) can0 024#520001FF420A804A
(1469304455.091572) can0 025#00010002900000C0
(1469304455.093809) can0 351#00000000
(1469304455.093918) can0 1C8#80
(1469304455.096566) can0 0AA#1A6F1A6F1A6F1A6F
(1469304455.102392) can0 1D0#0F8D090000AC002A
(1469304455.102493) can0 020#0000072B
(1469304455.102655) can0 0BA#060000C4
(1469304455.102946) can0 224#0000000000000008
(1469304455.103315) can0 2C1#0801EA001CCF00A9
(1469304455.103547) can0 024#520001FD420A8048
(1469304455.103798) can0 025#00010002900000C0
(1469304455.108507) can0 263#00000000B3001F
(1469304455.108716) can0 0AA#1A6F1A6F1A6F1A6F
(1469304455.108951) can0 1AA#0000000000B1
(1469304455.109171) can0 260#08FFFF0000FFF160
(1469304455.109515) can0 1C4#07B029080000FFB4
(1469304455.110449) can0 1C8#80
(1469304455.113734) can0 394#4300
(1469304455.114525) can0 020#0000072B
(1469304455.114778) can0 0B4#00000000020000BE
(1469304455.114984) can0 223#000000000000002D
(1469304455.115351) can0 024#520001FB420A8046
(1469304455.115571) can0 025#00010002900000C0
(1469304455.118766) can0 361#0016000000000000
(1469304455.118976) can0 262#000000016A
(1469304455.120635) can0 0AA#1A6F1A6F1A6F1A6F
(1469304455.126553) can0 020#0000072B
(1469304455.126686) can0 0BA#05FB00BE
(1469304455.126994) can0 224#0000000000000008
(1469304455.127003) can0 1C8#80
(1469304455.127361) can0 025#00010002900000C0
(1469304455.127576) can0 024#520001FB420A8046
(1469304455.129008) can0 260#0800000000FFEE5F
(1469304455.132685) can0 0AA#1A6F1A6F1A6F1A6F
(1469304455.133156) can0 263#00000000B3001F
(1469304455.134126) can0 1C4#07A029080000FFA4
(1469304455.135208) can0 1D0#0F6C090000AC0009
(1469304455.136188) can0 2C1#0801FD0030CF00D0
(1469304455.138473) can0 3A0#0085000007000069
(1469304455.138564) can0 020#0000072B
(1469304455.138898) can0 0B4#00000000000000BC
(1469304455.139101) can0 223#000000000000002D
(1469304455.139322) can0 024#520001FB42088044
(1469304455.139593) can0 025#00010002900000C0
(1469304455.143274) can0 1C8#80
(1469304455.144732) can0 0AA#1A6F1A6F1A6F1A6F
(1469304455.148935) can0 260#08FFFF0000FFF160
(1469304455.150653) can0 020#0000072B
(1469304455.150804) can0 0BA#05FB00BE
(1469304455.151094) can0 224#0000000000000008
(1469304455.151318) can0 025#00010002900000C0
(1469304455.151591) can0 024#020001FD420880F6
(1469304455.153802) can0 351#00000000
(1469304455.156784) can0 0AA#1A6F1A6F1A6F1A6F
(1469304455.156939) can0 1AA#0000000000B1
(1469304455.157232) can0 442#4302000001000000
(1469304455.157780) can0 263#00000000B3001F
(1469304455.158781) can0 1C4#079329080000FF97
(1469304455.158916) can0 262#000000016A
(1469304455.159030) can0 354#01
(1469304455.159674) can0 1C8#80
(1469304455.162702) can0 020#0000072B
(1469304455.162931) can0 0B4#00000000000000BC
(1469304455.163182) can0 223#000000000000002D
(1469304455.163458) can0 024#020001FD420880F6
(1469304455.163650) can0 025#00010002900000C0
(1469304455.168038) can0 1D0#0F48090000AC00E5
(1469304455.168831) can0 0AA#1A6F1A6F1A6F1A6F
(1469304455.169017) can0 260#08FFFF0000FFF160
(1469304455.169304) can0 2C1#08020D0040D000F2
(1469304455.169494) can0 3B7#583B000000000008
(1469304455.174778) can0 020#0000072B
(1469304455.174908) can0 0BA#05FD00C0
(1469304455.175209) can0 224#0000000000000008
(1469304455.175508) can0 024#020001FD420A80F8
(1469304455.175670) can0 025#00010002900000C0
(1469304455.176072) can0 1C8#80
(1469304455.180884) can0 0AA#1A6F1A6F1A6F1A6F
(1469304455.182382) can0 263#00000000B3001F
(1469304455.183383) can0 1C4#078C29080000FF90
(1469304455.184522) can0 361#0017000000000000
(1469304455.186803) can0 020#0000072B
(1469304455.187017) can0 0B4#00000000000000BC
(1469304455.187304) can0 223#000000000000002D
(1469304455.187519) can0 024#020001FD420A80F8
(1469304455.187808) can0 025#00010002900000C0
(1469304455.188982) can0 260#08FFFF0000FFF160
(1469304455.192497) can0 1C8#80
(1469304455.192921) can0 0AA#1A6F1A6F1A6F1A6F
(1469304455.198857) can0 262#000000016A
(1469304455.198989) can0 020#0000072B
(1469304455.199154) can0 0BA#05FD00C0
(1469304455.199516) can0 024#020001FB420A80F6
(1469304455.199652) can0 025#00010002900000C0
(1469304455.199953) can0 224#0000000000000008
(1469304455.200908) can0 1D0#0F26090000AC00C3
(1469304455.201856) can0 2C1#080185004ECC0073
(1469304455.204901) can0 0AA#1A6F1A6F1A6F1A6F
(1469304455.205087) can0 1AA#0000000000B1
(1469304455.207032) can0 263#00000000B3001F
(1469304455.208059) can0 1C4#078129080000FF85
(1469304455.208933) can0 260#0800000000FFF162
(1469304455.208965) can0 1C8#80
(1469304455.210876) can0 020#0000072B
(1469304455.211128) can0 0B4#00000000000000BC
(1469304455.211374) can0 024#020001FD420A80F8
(1469304455.211600) can0 025#00010002900000C0
(1469304455.211897) can0 223#000000000000002D
(1469304455.213803) can0 351#00000000
(1469304455.216984) can0 0AA#1A6F1A6F1A6F1A6F
(1469304455.222905) can0 020#0000072B
(1469304455.223036) can0 0BA#05FD00C0
(1469304455.223347) can0 224#0000000000000008
(1469304455.223542) can0 024#020001FD420880F6
(1469304455.223831) can0 025#000000027000009F
(1469304455.225347) can0 1C8#80
(1469304455.228933) can0 260#0800000000FFF162
(1469304455.229176) can0 0AA#1A6F1A6F1A6F1A6F
(1469304455.231643) can0 263#00000000B40020
(1469304455.232685) can0 1C4#077C29080000FF80
(1469304455.233711) can0 1D0#0F05090000AC00A2
(1469304455.234682) can0 2C1#08018C0055CC0081
(1469304455.235144) can0 020#0000072B
(1469304455.235368) can0 0B4#00000000000000BC
(1469304455.235598) can0 223#000000000000002D
(1469304455.236330) can0 025#00010002900000C0
(1469304455.236544) can0 024#020001FD420880F6
(1469304455.237506) can0 3A0#008500000700006A
(1469304455.238902) can0 262#000000016A
(1469304455.241234) can0 0AA#1A6F1A6F1A6F1A6F
(1469304455.241772) can0 1C8#80
(1469304455.247151) can0 020#0000072B
(1469304455.247280) can0 0BA#05FD00C0
(1469304455.247589) can0 224#0000000000000008
(1469304455.248266) can0 025#00010002900000C0
(1469304455.248468) can0 024#020001FD420A80F8
(1469304455.248933) can0 260#0800000000FFF162
(1469304455.250132) can0 361#0017000000000000
(1469304455.253258) can0 0AA#1A6F1A6F1A6F1A6F
(1469304455.253466) can0 1AA#0000000000B1
(1469304455.254608) can0 443#4002002F06000000
(1469304455.256284) can0 263#00000000B40020
(1469304455.257270) can0 1C4#076A29080000FF6E
(1469304455.258196) can0 1C8#80
(1469304455.258352) can0 3BB#0000B400
(1469304455.259201) can0 020#0000072B
(1469304455.259507) can0 0B4#00000000000000BC
(1469304455.259669) can0 223#000000000000002D
(1469304455.260332) can0 025#000000027000009F
(1469304455.260519) can0 024#020001FD420880F6
(1469304455.265311) can0 0AA#1A6F1A6F1A6F1A6F
(1469304455.266554) can0 1D0#0EED090000AC0089
(1469304455.267533) can0 2C1#0801A40057CD009C
(1469304455.268882) can0 260#08FFFF0000FFEE5D
(1469304455.271251) can0 020#0000072B
(1469304455.271381) can0 0BA#05FD00C0
(1469304455.271628) can0 224#0000000000000008
(1469304455.272284) can0 025#00010002900000C0
(1469304455.272493) can0 024#020001FD420A80F8
(1469304455.273728) can0 351#00000000
(1469304455.274624) can0 1C8#80
(1469304455.277356) can0 0AA#1A6F1A6F1A6F1A6F
(1469304455.278777) can0 262#000000016A
(1469304455.280932) can0 263#00000000B40020
(1469304455.281934) can0 1C4#075B29080000FF5F
(1469304455.283278) can0 020#0000072B
(1469304455.283544) can0 0B4#00000000000000BC
(1469304455.283773) can0 223#000000000000002D
(1469304455.284304) can0 025#000000027000009F
(1469304455.284494) can0 024#020001FB420A80F6
(1469304455.288960) can0 260#0800000000FFEE5F
(1469304455.289381) can0 0AA#1A6F1A6F1A6F1A6F
(1469304455.291056) can0 621#1100000000000000
(1469304455.291091) can0 1C8#80
(1469304455.295325) can0 020#0000072B
(1469304455.295459) can0 0BA#05FB00BE
(1469304455.295710) can0 224#0000000000000008
(1469304455.296157) can0 025#00010002900000C0
(1469304455.296454) can0 024#020001FD420880F6
(1469304455.299325) can0 1D0#0ED7090000AC0073
(1469304455.300301) can0 2C1#0801B80059CD00B2
(1469304455.301018) can0 623#1900000000000000
(1469304455.301431) can0 0AA#1A6F1A6F1A6F1A6F
(1469304455.301616) can0 1AA#0000000000B1
(1469304455.305556) can0 263#00000000B40020
(1469304455.306559) can0 1C4#074729080000FF4B
(1469304455.307350) can0 020#0000072B
(1469304455.307621) can0 0B4#00000000000000BC
(1469304455.307660) can0 1C8#80
(1469304455.307972) can0 223#000000000000002D
(1469304455.308274) can0 025#00010002900000C0
(1469304455.308466) can0 024#020001FD420880F6
(1469304455.308873) can0 260#08FFFF0000FFEE5D
(1469304455.310010) can0 624#1A00414949400000
(1469304455.313473) can0 0AA#1A6F1A6F1A6F1A6F
(1469304455.315837) can0 361#0017000000000000
(1469304455.318802) can0 262#000000016A
(1469304455.319057) can0 626#1C00300000000000
(1469304455.319424) can0 020#0000072B
(1469304455.319534) can0 0BA#05FD00C0
(1469304455.319855) can0 224#0000000000000008
(1469304455.320181) can0 025#00010002900000C0
(1469304455.320393) can0 024#020001FD420880F6
(1469304455.322941) can0 3F9#5198260100000014
(1469304455.323876) can0 1C8#80
(1469304455.325474) can0 0AA#1A6F1A6F1A6F1A6F
(1469304455.328065) can0 638#1300180100000000
(1469304455.328834) can0 260#0800000000FFF162
(1469304455.330182) can0 263#00000000B40020
(1469304455.331181) can0 1C4#073629080000FF3A
(1469304455.331500) can0 020#0000072B
(1469304455.331669) can0 0B4#00000000000000BC
(1469304455.331959) can0 223#000000000000002D
(1469304455.332164) can0 4C3#0300000100000000
(1469304455.332465) can0 024#020001FD420880F6
(1469304455.332658) can0 025#00010002900000C0
(1469304455.332882) can0 1D0#0EAB090000AC0047
(1469304455.333188) can0 2C1#0801E0005BCF00DE
(1469304455.333784) can0 351#00000000
(1469304455.336985) can0 63C#98005A5245172060
(1469304455.337556) can0 0AA#1A6F1A6F1A6F1A6F
(1469304455.339510) can0 3A0#008500000700006A
(1469304455.340271) can0 1C8#80
(1469304455.343349) can0 3D0#00
(1469304455.343495) can0 020#0000072B
(1469304455.343663) can0 0BA#05FD00C0
(1469304455.343918) can0 224#0000000000000008
(1469304455.344169) can0 025#000000027000009F
(1469304455.344465) can0 024#020001FD420880F6
(1469304455.345990) can0 63D#9900444558534B00
(1469304455.348887) can0 260#08FFFE0000FFEE5C
(1469304455.349583) can0 0AA#1A6F1A6F1A6F1A6F
(1469304455.349739) can0 1AA#0000000000B1
(1469304455.354738) can0 263#00000000B40020
(1469304455.355005) can0 680#D800010000000000
(1469304455.355451) can0 020#0000072B
(1469304455.355708) can0 0B4#00000000000000BC
(1469304455.355959) can0 1C4#072D29080000FF31
(1469304455.356181) can0 025#00010002900000C0
(1469304455.356436) can0 024#020001FB420880F4
(1469304455.356701) can0 223#000000000000002D
(1469304455.356795) can0 1C8#80
(1469304455.357036) can0 440#4202001101000000
(1469304455.358843) can0 262#000000016A
(1469304455.361632) can0 0AA#1A6F1A6F1A6F1A6F
(1469304455.364060) can0 620#1000FFFFB0500040
(1469304455.364069) can0 354#01
(1469304455.365074) can0 1D0#0E7C090000AC0018
(1469304455.366016) can0 2C1#0801DA005ECE00DA
(1469304455.367578) can0 020#0000072B
(1469304455.367709) can0 0BA#05FB00BE
(1469304455.368021) can0 224#0000000000000008
(1469304455.368228) can0 025#000000027000009F
(1469304455.368515) can0 024#020001FD420A80F8
(1469304455.368857) can0 260#0800000000FFEE5F
(1469304455.373152) can0 1C8#80
(1469304455.373708) can0 0AA#1A6F1A6F1A6F1A6F
(1469304455.379433) can0 263#00000000B40020
(1469304455.379613) can0 020#0000072B
(1469304455.379904) can0 0B4#00000000000000BC
(1469304455.380118) can0 025#00010002900000C0
(1469304455.380404) can0 223#000000000000002D
(1469304455.380594) can0 024#020001FD420A80F8
(1469304455.380880) can0 1C4#071A29080000FF1E
(1469304455.381506) can0 361#0017000000000000
(1469304455.385757) can0 0AA#1A6F1A6F1A6F1A6F
(1469304455.388783) can0 260#08FFFF0000FFEE5D
(1469304455.389550) can0 1C8#80
(1469304455.391683) can0 020#0000072B
(1469304455.391813) can0 0BA#05FD00C0
(1469304455.392113) can0 224#0000000000000008
(1469304455.392310) can0 025#000000027000009F
(1469304455.392607) can0 024#020001FD420A80F8
(1469304455.393654) can0 351#00000000
(1469304455.397782) can0 0AA#1A6F1A6F1A6F1A6F
(1469304455.397939) can0 1AA#0000000000B1
(1469304455.398232) can0 1D0#0E4A090000AC00E6
(1469304455.398705) can0 262#000000016A
(1469304455.398918) can0 2C1#0801F00064CF00F7
(1469304455.403703) can0 020#0000072B
(1469304455.403951) can0 0B4#00000000000000BC
(1469304455.404164) can0 025#00010002900000C0
(1469304455.404466) can0 024#020001FD420880F6
(1469304455.404671) can0 223#000000000000002D
(1469304455.404892) can0 263#00000000B40020
(1469304455.405141) can0 1C4#071229080000FF16
(1469304455.405391) can0 4C1#0100000500000000
(1469304455.405914) can0 1C8#80
(1469304455.408863) can0 260#0800000000FFEE5F
(1469304455.409751) can0 0AA#1A6F1A6F1A6F1A6F
(1469304455.413575) can0 394#4300
(1469304455.415680) can0 020#0000072B
(1469304455.415854) can0 0BA#05FD00C0
(1469304455.416102) can0 224#0000000000000008
(1469304455.416392) can0 025#00010002900000C0
(1469304455.416592) can0 024#020001FD420880F6
(1469304455.421811) can0 0AA#1A6F1A6F1A6F1A6F
(1469304455.422371) can0 1C8#80
(1469304455.427754) can0 020#0000072B
(1469304455.428007) can0 0B4#00000000000000BC
(1469304455.428217) can0 025#00010002900000C0
(1469304455.428459) can0 024#020001FB420880F4
(1469304455.428707) can0 223#000000000000002D
(1469304455.428957) can0 260#0800000000FFEE5F
(1469304455.429186) can0 263#00000000B40020
(1469304455.429634) can0 1C4#070E29080000FF12
(1469304455.430689) can0 1D0#0E30090000AC00CC
(1469304455.431667) can0 2C1#0801EE006CCF00FD
(1469304455.433831) can0 0AA#1A6F1A6F1A6F1A6F
(1469304455.438434) can0 3A0#008500000700006A
(1469304455.438734) can0 262#000000016A
(1469304455.438766) can0 1C8#80
(1469304455.439786) can0 020#0000072B
(1469304455.439918) can0 0BA#05FB00BE
(1469304455.440224) can0 224#0000000000000008
(1469304455.440525) can0 024#020001FB420A80F6
(1469304455.440668) can0 025#00010002900000C0
(1469304455.445910) can0 0AA#1A6F1A6F1A6F1A6F
(1469304455.446069) can0 1AA#0000000000B1
(1469304455.447115) can0 361#0017000000000000
(1469304455.447931) can0 640#A800005701340000
(1469304455.448760) can0 260#08FFFF0000FFEE5D
(1469304455.451828) can0 020#0000072B
(1469304455.452040) can0 0B4#00000000000000BC
(1469304455.452330) can0 025#00010002900000C0
(1469304455.452543) can0 024#020001FD420A80F8
(1469304455.452831) can0 223#000000000000002D
(1469304455.453305) can0 263#00000000B40020
(1469304455.453612) can0 351#00000000
(1469304455.454295) can0 1C4#070229080000FF06
(1469304455.455163) can0 1C8#80
(1469304455.456923) can0 442#4302000001000000
(1469304455.457931) can0 0AA#1A6F1A6F1A6F1A6F
(1469304455.463557) can0 1D0#0E1C090000AC00B8
(1469304455.463893) can0 020#0000072B
(1469304455.464002) can0 0BA#05FD00C0
(1469304455.464318) can0 224#0000000000000008
(1469304455.464486) can0 024#020001FD420A80F8
(1469304455.464764) can0 2C1#0801FA0076CF0013
(1469304455.465013) can0 420#00000000FB0180A8
(1469304455.465238) can0 025#00010002900000C0
(1469304455.468858) can0 260#08FFFF0000FFEE5D
(1469304455.470158) can0 0AA#1A6F1A6F1A6F1A6F
(1469304455.470342) can0 3B7#583B000000000008
(1469304455.471630) can0 1C8#80
(1469304455.476051) can0 020#0000072B
(1469304455.476322) can0 0B4#00000000000000BC
(1469304455.476565) can0 024#020001FD420A80F8
(1469304455.476835) can0 223#000000000000002D
(1469304455.477140) can0 025#000000027000009F
(1469304455.477932) can0 263#00000000B40020
(1469304455.478727) can0 262#000000016A
(1469304455.478942) can0 1C4#06FD29080000FF00
(1469304455.482211) can0 0AA#1A6F1A6F1A6F1A6F
(1469304455.488079) can0 1C8#80
(1469304455.488212) can0 020#0000072B
(1469304455.488376) can0 0BA#05FD00C0
(1469304455.488681) can0 224#0000000000000008
(1469304455.488892) can0 260#0800000000FFF162
(1469304455.489179) can0 025#00010002900000C0
(1469304455.489392) can0 024#020001FB420880F4
(1469304455.494259) can0 0AA#1A6F1A6F1A6F1A6F
(1469304455.494465) can0 1AA#0000000000B1
(1469304455.495932) can0 610#2000006480FFFD60
(1469304455.496366) can0 1D0#0DFF090000AC009A
(1469304455.497348) can0 2C1#08020B007DD0002D
(1469304455.500177) can0 020#0000072B
(1469304455.500506) can0 0B4#00000000000000BC
(1469304455.500643) can0 223#000000000000002D
(1469304455.501079) can0 025#00010002900000C0
(1469304455.501406) can0 024#020001FB420A80F6
(1469304455.502580) can0 263#00000000B40020
(1469304455.503615) can0 1C4#06E229080000FFE5
(1469304455.504497) can0 1C8#80
(1469304455.506243) can0 0AA#1A6F1A6F1A6F1A6F
(1469304455.507196) can0 4C6#0700030000000000
(1469304455.507890) can0 611#21000020000062D4
(1469304455.508732) can0 260#0800000000FFEE5F
(1469304455.512202) can0 020#0000072B
(1469304455.512332) can0 0BA#05FB00BE
(1469304455.512659) can0 224#0000000000000008
(1469304455.512842) can0 361#0018000000000000
(1469304455.513133) can0 025#00010002900000C0
(1469304455.513378) can0 024#020001FB420A80F6
(1469304455.513538) can0 351#00000000
(1469304455.518333) can0 0AA#1A6F1A6F1A6F1A6F
(1469304455.518633) can0 262#000000016A
(1469304455.520899) can0 1C8#80
(1469304455.523431) can0 4AC#4800A00100000324
(1469304455.524253) can0 020#0000072B
(1469304455.524469) can0 0B4#00000000000000BC
(1469304455.524756) can0 223#000000000000002D
(1469304455.525046) can0 025#000000027000009F
(1469304455.525466) can0 024#020001FD420A80F8
(1469304455.527170) can0 263#00000000B40020
(1469304455.528180) can0 1C4#06D529080000FFD8
(1469304455.528807) can0 260#0800000000FFEE5F
(1469304455.529257) can0 1D0#0DD9090000AC0074
(1469304455.530234) can0 2C1#08023E0084D10068
(1469304455.530482) can0 0AA#1A6F1A6F1A6F1A6F
(1469304455.533410) can0 3B1#00000D0500080000
(1469304455.536282) can0 020#0000072B
(1469304455.536461) can0 0BA#05FD00C0
(1469304455.536664) can0 224#0000000000000008
(1469304455.536944) can0 025#00010002900000C0
(1469304455.537374) can0 024#020001FD420A80F8
(1469304455.537451) can0 1C8#80
(1469304455.537729) can0 3A0#0085000007000069
(1469304455.542383) can0 0AA#1A6F1A6F1A6F1A6F
(1469304455.542540) can0 1AA#0000000000B1
(1469304455.548318) can0 020#0000072B
(1469304455.548521) can0 0B4#00000000000000BC
(1469304455.548808) can0 223#000000000000002D
(1469304455.549015) can0 025#00010002900000C0
(1469304455.549306) can0 260#0800000000FFEE5F
(1469304455.549493) can0 024#020001FD420880F6
(1469304455.551813) can0 263#00000000B40020
(1469304455.552833) can0 1C4#06C829080000FFCB
(1469304455.553724) can0 1C8#80
(1469304455.554396) can0 0AA#1A6F1A6F1A6F1A6F
(1469304455.554593) can0 443#4002002F06000000
(1469304455.558598) can0 262#000000016A
(1469304455.560328) can0 020#0000072B
(1469304455.560462) can0 0BA#05FD00C0
(1469304455.560775) can0 224#0000000000000008
(1469304455.560961) can0 025#00010002900000C0
(1469304455.561423) can0 024#020001FD420880F6
(1469304455.562082) can0 1D0#0DB2090000AC004D
(1469304455.563059) can0 2C1#080227008CD10059
(1469304455.563646) can0 4C8#0900000000000000
(1469304455.566431) can0 0AA#1A6F1A6F1A6F1A6F
(1469304455.568657) can0 260#08FFFF0000FFEE5D
(1469304455.569098) can0 354#01
(1469304455.570122) can0 1C8#80
(1469304455.572309) can0 020#0000072B
(1469304455.572631) can0 0B4#00000000000000BC
(1469304455.572844) can0 223#000000000000002D
(1469304455.573107) can0 025#00010002900000C0
(1469304455.573431) can0 024#020001FD420880F6
(1469304455.573540) can0 351#00000000
(1469304455.576389) can0 263#00000000B40020
(1469304455.577473) can0 1C4#06BF29080000FFC2
(1469304455.578473) can0 0AA#1A6F1A6F1A6F1A6F
(1469304455.578640) can0 361#0018000000000000
(1469304455.579467) can0 3F9#5198260100000014
(1469304455.584383) can0 020#0000072B
(1469304455.584519) can0 0BA#05FD00C0
(1469304455.584832) can0 224#0000000000000008
(1469304455.585016) can0 025#00010002900000C0
(1469304455.585430) can0 024#020001FD420880F6
(1469304455.586548) can0 1C8#80
(1469304455.588711) can0 260#0800000000FFEE5F
(1469304455.590507) can0 0AA#1A6F1A6F1A6F1A6F
(1469304455.590666) can0 1AA#0000000000B1
(1469304455.594775) can0 3D3#01A0
(1469304455.595051) can0 1D0#0D91090000AC002C
(1469304455.595884) can0 2C1#0802310094D1006B
(1469304455.596501) can0 020#0000072B
(1469304455.596692) can0 0B4#00000000000000BC
(1469304455.596980) can0 025#00010002900000C0
(1469304455.597205) can0 223#000000000000002D
(1469304455.597469) can0 024#020001FD420880F6
(1469304455.598637) can0 262#000000016A
(1469304455.599829) can0 3D0#00
(1469304455.601030) can0 263#00000000B40020
(1469304455.602057) can0 1C4#06AF29080000FFB2
(1469304455.602558) can0 0AA#1A6F1A6F1A6F1A6F
(1469304455.602973) can0 1C8#80
(1469304455.603128) can0 38A#0804000000
(1469304455.607974) can0 423#00
(1469304455.608503) can0 020#0000072B
(1469304455.608631) can0 0BA#05FD00C0
(1469304455.608875) can0 025#00010002900000C0
(1469304455.609191) can0 224#0000000000000008
(1469304455.609376) can0 260#0800000000FFE556
(1469304455.609657) can0 024#020001FD420880F6
(1469304455.614544) can0 0AA#1A6F1A6F1A6F1A6F
(1469304455.619327) can0 1C8#80
(1469304455.620554) can0 020#0000072B
(1469304455.620766) can0 0B4#00000000000000BC
(1469304455.621054) can0 025#00010002900000C0
(1469304455.621240) can0 223#000000000000002D
(1469304455.621490) can0 024#020001FD420A80F8
(1469304455.625618) can0 263#00000000B40020
(1469304455.626660) can0 0AA#1A6F1A6F1A6F1A6F
(1469304455.626866) can0 1C4#069F29080000FFA2
(1469304455.627698) can0 1D0#0D69090000AC0004
(1469304455.628614) can0 260#0800000000FFEE5F
(1469304455.628840) can0 2C1#08027A0098D300BA
(1469304455.632607) can0 020#0000072B
(1469304455.632739) can0 0BA#05FD00C0
(1469304455.633040) can0 224#0000000000000008
(1469304455.633234) can0 025#000000027000009F
(1469304455.633533) can0 024#020001FF420880F8
(1469304455.633641) can0 351#00000000
(1469304455.635798) can0 1C8#80
(1469304455.638580) can0 262#000000016A
(1469304455.638764) can0 0AA#1A6F1A6F1A6F1A6F
(1469304455.638985) can0 1AA#0000000000B1
(1469304455.639380) can0 3A0#008500000700006A
(1469304455.641008) can0 620#1000FFFFB0500040
(1469304455.644135) can0 361#0018000000000000
(1469304455.644650) can0 020#0000072B
(1469304455.644867) can0 0B4#00000000000000BC
(1469304455.645155) can0 025#000000027000009F
(1469304455.645368) can0 223#000000000000002D
(1469304455.645659) can0 024#020001FD420880F6
(1469304455.646172) can0 3BC#0020000000000000
(1469304455.648202) can0 399#00000000000000
(1469304455.648710) can0 260#0800000000FFEE5F
(1469304455.650281) can0 263#00000000B40020
(1469304455.650733) can0 0AA#1A6F1A6F1A6F1A6F
(1469304455.651307) can0 1C4#069329080000FF96
(1469304455.652201) can0 1C8#80
(1469304455.655984) can0 440#4202001101000000
(1469304455.656676) can0 020#0000072B
(1469304455.656809) can0 0BA#05FD00C0
(1469304455.657062) can0 025#00010002900000C0
(1469304455.657319) can0 224#0000000000000008
(1469304455.657571) can0 024#020001FD420880F6
(1469304455.660558) can0 1D0#0D44090000AC00DF
(1469304455.661533) can0 2C1#08025100A4D2009C
(1469304455.662807) can0 0AA#1A6F1A6F1A6F1A6F
(1469304455.668584) can0 260#0800000000FFEE5F
(1469304455.668715) can0 020#0000072B
(1469304455.668956) can0 0B4#00000000000000BC
(1469304455.669051) can0 1C8#80
(1469304455.669327) can0 223#000000000000002D
(1469304455.669565) can0 024#020001FB420880F4
(1469304455.669957) can0 025#000000027000009F
(1469304455.674809) can0 0AA#1A6F1A6F1A6F1A6F
(1469304455.674990) can0 263#00000000B40020
(1469304455.675910) can0 1C4#068929080000FF8C
(1469304455.678523) can0 262#000000016A
(1469304455.680740) can0 020#0000072B
(1469304455.680896) can0 0BA#05FB00BE
(1469304455.681139) can0 224#0000000000000008
(1469304455.681428) can0 024#020001FD420880F6
(1469304455.681944) can0 025#000000027000009F
(1469304455.685033) can0 1C8#80
(1469304455.686841) can0 0AA#1A6F1A6F1A6F1A6F
(1469304455.687008) can0 1AA#0000000000B1
(1469304455.688588) can0 260#0800000000FFF162
(1469304455.692789) can0 020#0000072B
(1469304455.693050) can0 0B4#00000000000000BC
(1469304455.693292) can0 223#000000000000002D
(1469304455.693527) can0 024#020001FB420A80F6
(1469304455.693766) can0 1D0#0D21090000AC00BC
(1469304455.694014) can0 025#00010002900000C0
(1469304455.694123) can0 351#00000000
(1469304455.694364) can0 2C1#08025D00ADD200B1
(1469304455.698850) can0 0AA#1A6F1A6F1A6F1A6F
(1469304455.699472) can0 263#00000000B40020
(1469304455.700542) can0 1C4#067829080000FF7B
(1469304455.701430) can0 1C8#80
(1469304455.704814) can0 020#0000072B
(1469304455.704922) can0 0BA#05FB00BE
(1469304455.705252) can0 224#0000000000000008
(1469304455.705517) can0 024#020001FB420880F4
(1469304455.705915) can0 025#000000027000009F
(1469304455.708638) can0 260#0800000000FFEE5F
(1469304455.709791) can0 361#0018000000000000
(1469304455.710918) can0 0AA#1A6F1A6F1A6F1A6F
(1469304455.713386) can0 394#4300
(1469304455.716808) can0 020#0000072B
(1469304455.717053) can0 0B4#00000000000000BC
(1469304455.717303) can0 223#000000000000002D
(1469304455.717555) can0 024#020001FD420A80F8
(1469304455.717886) can0 025#000000027000009F
(1469304455.717931) can0 1C8#80
(1469304455.718527) can0 262#000000016A
(1469304455.723102) can0 0AA#1A6F1A6F1A6F1A6F
(1469304455.724084) can0 263#00000000B40020
(1469304455.725085) can0 1C4#067329080000FF76
(1469304455.726110) can0 1D0#0D06090000AC00A1
(1469304455.727084) can0 2C1#08026600B9D300C7
(1469304455.728617) can0 260#0800000000FFEE5F
(1469304455.729060) can0 020#0000072B
(1469304455.729171) can0 0BA#05FD00C0
(1469304455.729473) can0 024#020001FD420880F6
(1469304455.729703) can0 224#0000000000000008
(1469304455.729894) can0 025#000000027000009F
(1469304455.730943) can0 622#1200581000000000
(1469304455.734249) can0 1C8#80
(1469304455.735131) can0 0AA#1A6F1A6F1A6F1A6F
(1469304455.735291) can0 1AA#0000000000B1
(1469304455.738384) can0 3A0#0085000007000069
(1469304455.741102) can0 020#0000072B
(1469304455.741317) can0 0B4#00000000000000BC
(1469304455.741608) can0 024#020001FD420880F6
(1469304455.741818) can0 223#000000000000002D
(1469304455.742106) can0 025#000000027000009F
(1469304455.747209) can0 0AA#1A6F1A6F1A6F1A6F
(1469304455.748561) can0 260#0800000000FFEE5F
(1469304455.748742) can0 263#00000000B40020
(1469304455.749715) can0 1C4#066529080000FF68
(1469304455.750673) can0 1C8#80
(1469304455.753128) can0 020#0000072B
(1469304455.753235) can0 0BA#05FD00C0
(1469304455.753534) can0 024#020001FD420880F6
(1469304455.753743) can0 224#0000000000000008
(1469304455.754031) can0 025#000000027000009F
(1469304455.754160) can0 351#00000000
(1469304455.756891) can0 442#4302000001000000
(1469304455.758527) can0 262#000000016A
(1469304455.758990) can0 1D0#0CE3090000AC007D
(1469304455.759213) can0 0AA#1A6F1A6F1A6F1A6F
(1469304455.759992) can0 2C1#08027500C7D300E4
(1469304455.765130) can0 020#0000072B
(1469304455.765384) can0 0B4#00000000000000BC
(1469304455.765634) can0 223#000000000000002D
(1469304455.765880) can0 025#000000027000009F
(1469304455.766430) can0 024#020001FB420A80F6
(1469304455.767038) can0 1C8#80
(1469304455.768348) can0 383#0100010000000000
(1469304455.768615) can0 260#08FFFF0000FFEE5D
(1469304455.768839) can0 4DC#1D00000200000000
(1469304455.771256) can0 0AA#1A6F1A6F1A6F1A6F
(1469304455.771469) can0 3B7#583B000000000008
(1469304455.773384) can0 263#00000000B40020
(1469304455.774409) can0 1C4#065129080000FF54
(1469304455.774709) can0 354#01
(1469304455.775515) can0 361#0019000000000000
(1469304455.777177) can0 020#0000072B
(1469304455.777306) can0 0BA#05FB00BE
(1469304455.777571) can0 224#0000000000000008
(1469304455.777801) can0 025#000000027000009F
(1469304455.778374) can0 024#020001FB420A80F6
(1469304455.783256) can0 0AA#1A6F1A6F1A6F1A6F
(1469304455.783465) can0 1AA#0000000000B1
(1469304455.783491) can0 1C8#80
(1469304455.788533) can0 260#0800000000FFEE5F
(1469304455.789167) can0 020#0000072B
(1469304455.789466) can0 0B4#00000000000000BC
(1469304455.789689) can0 223#000000000000002D
(1469304455.789957) can0 025#000000027000009F
(1469304455.790390) can0 024#020001FD420A80F8
(1469304455.791838) can0 1D0#0CC1090000AC005B
(1469304455.792808) can0 2C1#08029400D6D40013
(1469304455.794608) can0 387#0000000000003F3F
(1469304455.795307) can0 0AA#1A6F1A6F1A6F1A6F
(1469304455.797983) can0 263#00000000B40020
(1469304455.798504) can0 262#000000016A
(1469304455.798966) can0 1C4#064C29080000FF4F
(1469304455.799864) can0 1C8#80
(1469304455.801225) can0 020#0000072B
(1469304455.801356) can0 0BA#05FD00C0
(1469304455.801658) can0 224#0000000000000008
(1469304455.801868) can0 025#000000027000009F
(1469304455.802429) can0 024#020001FD420A80F8
(1469304455.807333) can0 0AA#1A6F1A6F1A6F1A6F
(1469304455.808534) can0 260#0800000000FFEE5F
(1469304455.813253) can0 020#0000072B
(1469304455.813519) can0 0B4#00000000000000BC
(1469304455.813717) can0 025#00010002900000C0
(1469304455.814004) can0 223#000000000000002D
(1469304455.814136) can0 351#00000000
(1469304455.814435) can0 024#020001FD420A80F8
(1469304455.816300) can0 1C8#80
(1469304455.819381) can0 0AA#1A6F1A6F1A6F1A6F
(1469304455.822582) can0 263#00000000B40020
(1469304455.823615) can0 389#0000000000000000
(1469304455.823799) can0 1C4#064129080000FF44
(1469304455.824658) can0 1D0#0CA6090000AC0040
(1469304455.825325) can0 020#0000072B
(1469304455.825461) can0 0BA#05FD00C0
(1469304455.825755) can0 224#0000000000000008
(1469304455.825959) can0 025#00010002900000C0
(1469304455.826181) can0 2C1#08028F00E2D4001A
(1469304455.826458) can0 024#020001FD420880F6
(1469304455.828567) can0 260#0800000000FFEB5C
(1469304455.831384) can0 0AA#1A6F1A6F1A6F1A6F
(1469304455.831623) can0 1AA#0000000000B1
(1469304455.832725) can0 1C8#80
(1469304455.835985) can0 3F9#5198260100000014
(1469304455.837384) can0 3A0#0085000007000069
(1469304455.837495) can0 020#0000072B
(1469304455.837797) can0 0B4#00000000000000BC
(1469304455.837990) can0 025#000000027000009F
(1469304455.838238) can0 223#000000000000002D
(1469304455.838484) can0 024#020001FD420880F6
(1469304455.838659) can0 262#000000016A
(1469304455.841095) can0 361#0019000000000000
(1469304455.843458) can0 4DD#1E00000000000000
(1469304455.843639) can0 0AA#1A6F1A6F1A6F1A6F
(1469304455.847307) can0 263#00000000B40020
(1469304455.848334) can0 1C4#063B29080000FF3E
(1469304455.848543) can0 260#0800000000FFEB5C
(1469304455.849223) can0 1C8#80
(1469304455.849368) can0 020#0000072B
(1469304455.849534) can0 0BA#05FD00C0
(1469304455.849812) can0 224#0000000000000008
(1469304455.850040) can0 025#000000027000009F
(1469304455.850458) can0 024#020001FB420A80F6
(1469304455.854550) can0 443#4002002F06000000
(1469304455.854851) can0 38E#2020000000000000
(1469304455.855454) can0 0AA#1A6F1A6F1A6F1A6F
(1469304455.856403) can0 3D0#00
(1469304455.857581) can0 1D0#0C86090000AC0020
(1469304455.858556) can0 2C1#08028E00EED40025
(1469304455.861464) can0 020#0000072B
(1469304455.861693) can0 0B4#00000000000000BC
(1469304455.861916) can0 025#000000027000009F
(1469304455.862170) can0 223#000000000000002D
(1469304455.862460) can0 024#020001FB420A80F6
(1469304455.865658) can0 1C8#80
(1469304455.867592) can0 0AA#1A6F1A6F1A6F1A6F
(1469304455.868514) can0 260#0800000000FFEE5F
(1469304455.871947) can0 263#00000000B40020
(1469304455.872968) can0 1C4#063A29080000FF3D
(1469304455.873333) can0 351#00000000
(1469304455.873489) can0 020#0000072B
(1469304455.873663) can0 0BA#05FB00BE
(1469304455.873963) can0 224#0000000000000008
(1469304455.874515) can0 024#020001FB420A80F6
(1469304455.874689) can0 025#000000027000009F
(1469304455.878512) can0 262#000000016A
(1469304455.879621) can0 0AA#1A6F1A6F1A6F1A6F
(1469304455.879791) can0 1AA#0000000000B1
(1469304455.882009) can0 1C8#80
(1469304455.884613) can0 38F#0100000000000000
(1469304455.885558) can0 020#0000072B
(1469304455.885798) can0 0B4#00000000000000BC
(1469304455.886018) can0 223#000000000000002D
(1469304455.886472) can0 024#020001FD420A80F8
(1469304455.886699) can0 025#00010002900000C0
(1469304455.888561) can0 260#0800000000FFEB5C
(1469304455.890380) can0 1D0#0C73090000AC000D
(1469304455.891339) can0 2C1#08029500FAD40038
(1469304455.891662) can0 0AA#1A6F1A6F1A6F1A6F
(1469304455.896537) can0 263#00000000B40020
(1469304455.897561) can0 1C4#063329080000FF36
(1469304455.897699) can0 020#0000072B
(1469304455.897858) can0 0BA#05FD00C0
(1469304455.898150) can0 224#0000000000000008
(1469304455.898516) can0 024#020001FD420880F6
(1469304455.898673) can0 025#000000027000009F
(1469304455.898774) can0 1C8#80
(1469304455.903709) can0 0AA#1A6F1A6F1A6F1A6F
(1469304455.906813) can0 361#001A000000000000
(1469304455.908507) can0 260#08FFFE0000FFEB59
(1469304455.909676) can0 020#0000072B
(1469304455.909909) can0 0B4#00000000000000BC
(1469304455.910157) can0 223#000000000000002D
(1469304455.910459) can0 024#020001FD420880F6
(1469304455.910663) can0 025#000000027000009F
(1469304455.914608) can0 3A5#0000000000007EFC
(1469304455.914836) can0 1C8#80
(1469304455.915785) can0 0AA#1A6F1A6F1A6F1A6F
(1469304455.918358) can0 380#C0A0400000004200
(1469304455.918513) can0 262#000000016A
(1469304455.918806) can0 3B0#00B3005600180000
(1469304455.921115) can0 263#00000000B40020
(1469304455.921703) can0 020#0000072B
(1469304455.921792) can0 0BA#05FD00C0
(1469304455.922142) can0 224#0000000000000008
(1469304455.922331) can0 1C4#063A29080000FF3D
(1469304455.922633) can0 024#020001FD420880F6
(1469304455.922842) can0 025#000000027000009F
(1469304455.923207) can0 1D0#0C67090000AC0001
(1469304455.924154) can0 2C1#08028D0101D40038
(1469304455.927784) can0 0AA#1A6F1A6F1A6F1A6F
(1469304455.927934) can0 1AA#0000000000B1
(1469304455.928433) can0 260#0800000000FFEE5F
(1469304455.930881) can0 6E1#A180000000100000
(1469304455.931195) can0 1C8#80
(1469304455.933281) can0 351#00000000
(1469304455.933711) can0 020#0000072B
(1469304455.933962) can0 0B4#00000000000000BC
(1469304455.934213) can0 223#000000000000002D
(1469304455.934465) can0 024#020001FD420880F6
(1469304455.934713) can0 025#000000027000009F
(1469304455.939383) can0 3A0#008500000700006A
(1469304455.939836) can0 0AA#1A6F1A6F1A6F1A6F
(1469304455.940923) can0 620#1000FFFFB0500040
(1469304455.944609) can0 413#0101010900000000
(1469304455.945779) can0 263#00000000B40020
(1469304455.945888) can0 020#0000072B
(1469304455.946051) can0 0BA#05FD00C0
(1469304455.946369) can0 224#0000000000000008
(1469304455.946568) can0 024#020001FB420A80F6
(1469304455.946856) can0 025#000000027000009F
(1469304455.947040) can0 1C4#063229080000FF35
(1469304455.947632) can0 1C8#80
(1469304455.948483) can0 260#0800000000FFEE5F
(1469304455.951834) can0 0AA#1A6F1A6F1A6F1A6F
(1469304455.955936) can0 440#4202001101000000
(1469304455.956143) can0 1D0#0C5F090000AC00F9
(1469304455.957007) can0 2C1#080293010BD40048
(1469304455.957803) can0 020#0000072B
(1469304455.958102) can0 0B4#00000000000000BC
(1469304455.958310) can0 223#000000000000002D
(1469304455.958583) can0 024#020001FD420880F6
(1469304455.958797) can0 025#000000027000009F
(1469304455.958963) can0 262#000000016A
(1469304455.964041) can0 0AA#1A6F1A6F1A6F1A6F
(1469304455.964137) can0 1C8#80
(1469304455.968463) can0 260#08FFFF0000FFEE5D
(1469304455.969976) can0 020#0000072B
(1469304455.970162) can0 0BA#05FD00C0
(1469304455.970418) can0 224#0000000000000008
(1469304455.970623) can0 024#020001FD420A80F8
(1469304455.970868) can0 025#000000027000009F
(1469304455.971129) can0 263#00000000B40020
(1469304455.971868) can0 1C4#062429080000FF27
(1469304455.972506) can0 361#001A000000000000
(1469304455.974607) can0 434#3F00000000000000
(1469304455.976110) can0 0AA#1A6F1A6F1A6F1A6F
(1469304455.976265) can0 1AA#0000000000B1
(1469304455.979498) can0 354#01
(1469304455.980500) can0 1C8#80
(1469304455.982055) can0 020#0000072B
(1469304455.982339) can0 0B4#00000000000000BC
(1469304455.982519) can0 024#020001FD420880F6
(1469304455.982808) can0 025#000000027000009F
(1469304455.983028) can0 223#000000000000002D
(1469304455.988183) can0 0AA#1A6F1A6F1A6F1A6F
(1469304455.988367) can0 260#0800000000FFEB5C
(1469304455.988854) can0 1D0#0C50090000AC00EA
(1469304455.989793) can0 2C1#08029D0111D40058
(1469304455.993231) can0 351#00000000
