(1469304017.226365) can0 440#40008011010F0F0F
(1469304017.236613) can0 442#42008000010F0F0F
(1469304017.326361) can0 440#4001801101000000
(1469304017.326547) can0 620#1080FFFF80500080
(1469304017.335615) can0 442#4201800001000000
(1469304017.420253) can0 440#4212001101000000
(1469304017.518502) can0 442#4002000001000000
(1469304017.546306) can0 620#1080FFFF90500080
(1469304017.555330) can0 621#1100000000000000
(1469304017.557575) can0 610#2000006480FFFD60
(1469304017.562129) can0 443#4300802F060F0F0F
(1469304017.564331) can0 622#1200481000000000
(1469304017.569606) can0 611#21000020000062D4
(1469304017.573306) can0 623#1900000000000000
(1469304017.581608) can0 618#2200000080000000
(1469304017.582303) can0 624#1A00414949400000
(1469304017.591306) can0 626#1C00300000000000
(1469304017.593607) can0 619#230000000C003A80
(1469304017.597227) can0 020#0000072B
(1469304017.600311) can0 638#1300180100000000
(1469304017.605608) can0 61A#2400000000014F60
(1469304017.609303) can0 63C#98005A5245172060
(1469304017.609447) can0 020#0000072B
(1469304017.609679) can0 0B4#00000000020000BE
(1469304017.609920) can0 223#0008000000000035
(1469304017.610153) can0 420#0000000000008AB6
(1469304017.617607) can0 61C#2600000000000000
(1469304017.618275) can0 63D#9900444558534B00
(1469304017.620306) can0 440#4202001101000000
(1469304017.621296) can0 020#0000072B
(1469304017.621448) can0 0BA#06008044
(1469304017.621675) can0 224#0000000000000048
(1469304017.621921) can0 4C3#0300000100000000
(1469304017.627306) can0 680#D800010000000000
(1469304017.627478) can0 0AA#1A6F1A6F1A6F1A6F
(1469304017.627706) can0 1AA#0000000000B1
(1469304017.629604) can0 640#A800000001360000
(1469304017.633325) can0 020#0000072B
(1469304017.633639) can0 0B4#00000000020000BE
(1469304017.633827) can0 223#0008000000000035
(1469304017.636307) can0 6E1#A100030000F00000
(1469304017.639611) can0 0AA#1A6F1A6F1A6F1A6F
(1469304017.645307) can0 6E2#A200CCFEFEFEFEFE
(1469304017.645473) can0 020#0000072B
(1469304017.645637) can0 0BA#06008044
(1469304017.645891) can0 224#0000000000000048
(1469304017.651608) can0 0AA#1A6F1A6F1A6F1A6F
(1469304017.657551) can0 020#0000072B
(1469304017.657779) can0 0B4#00000000020000BE
(1469304017.658026) can0 223#0008000000000035
(1469304017.662183) can0 443#4301802F06000000
(1469304017.663644) can0 0AA#1A6F1A6F1A6F1A6F
(1469304017.665128) can0 263#0000000001006D
(1469304017.666180) can0 1C4#0000000000003E0B
(1469304017.669599) can0 020#0000072B
(1469304017.669674) can0 0BA#06008044
(1469304017.670017) can0 224#0000000000000048
(1469304017.674220) can0 354#00
(1469304017.675243) can0 1C8#00
(1469304017.675681) can0 0AA#1A6F1A6F1A6F1A6F
(1469304017.675849) can0 1AA#0000000000B1
(1469304017.681626) can0 020#0000072B
(1469304017.681863) can0 0B4#00000000020000BE
(1469304017.682167) can0 223#0008000000000035
(1469304017.683608) can0 1D0#00000100000000DA
(1469304017.684607) can0 2C1#08FFC312A1BE0006
(1469304017.684801) can0 3F9#5198260100000014
(1469304017.687756) can0 0AA#1A6F1A6F1A6F1A6F
(1469304017.689727) can0 263#00000000B2001E
(1469304017.690777) can0 1C4#000028000000FFF4
(1469304017.691649) can0 1C8#00
(1469304017.693675) can0 020#0000072B
(1469304017.693765) can0 0BA#06008044
(1469304017.694114) can0 224#0000000000000048
(1469304017.694903) can0 4C1#0100000500000000
(1469304017.699780) can0 0AA#1A6F1A6F1A6F1A6F
(1469304017.699976) can0 361#00A0000700000000
(1469304017.702080) can0 3BC#0020000000000000
(1469304017.702999) can0 3BB#8000B200
(1469304017.704082) can0 399#00000000000000
(1469304017.704969) can0 3D0#00
(1469304017.705721) can0 020#0000072B
(1469304017.705927) can0 0B4#00000000020000BE
(1469304017.706181) can0 223#0008000000000035
(1469304017.708020) can0 1C8#00
(1469304017.709147) can0 38A#1C04000000
(1469304017.711812) can0 0AA#1A6F1A6F1A6F1A6F
(1469304017.714351) can0 263#00000000B2001E
(1469304017.715281) can0 620#1080FFFFA0500080
(1469304017.715478) can0 1C4#000028000000FFF4
(1469304017.716406) can0 1D0#0000010000AC0086
(1469304017.717359) can0 2C1#08FFC312A1BE0006
(1469304017.717704) can0 020#0000072B
(1469304017.717873) can0 0BA#06008044
(1469304017.718119) can0 224#0000000000000048
(1469304017.719603) can0 442#4302000001000000
(1469304017.723857) can0 0AA#1A6F1A6F1A6F1A6F
(1469304017.724000) can0 1AA#0000000000B1
(1469304017.724494) can0 1C8#00
(1469304017.729798) can0 020#0000072B
(1469304017.730006) can0 0B4#00000000020000BE
(1469304017.730254) can0 223#0008000000000035
(1469304017.730589) can0 025#000000027000009F
(1469304017.735885) can0 0AA#1A6F1A6F1A6F1A6F
(1469304017.738951) can0 263#00000000B2001E
(1469304017.740003) can0 1C4#000028000000FFF4
(1469304017.740870) can0 1C8#00
(1469304017.741802) can0 020#0000072B
(1469304017.741896) can0 0BA#06008044
(1469304017.742239) can0 224#0000000000000048
(1469304017.742514) can0 025#000000027000009F
(1469304017.745505) can0 260#0E00000000000078
(1469304017.746757) can0 4C6#0700030000000000
(1469304017.747908) can0 0AA#1A6F1A6F1A6F1A6F
(1469304017.749191) can0 1D0#0000010000AC0086
(1469304017.750175) can0 2C1#08FFD412A1BE0017
(1469304017.750371) can0 351#00000000
(1469304017.751593) can0 423#00
(1469304017.753847) can0 020#0000072B
(1469304017.754055) can0 0B4#00000000020000BE
(1469304017.754309) can0 223#0008000000000035
(1469304017.754556) can0 025#000000027000009F
(1469304017.755424) can0 262#000000016A
(1469304017.757269) can0 1C8#00
(1469304017.759944) can0 0AA#1A6F1A6F1A6F1A6F
(1469304017.760477) can0 4C8#0900000000000000
(1469304017.763618) can0 263#00000000B2001E
(1469304017.764633) can0 1C4#000028000000FFF4
(1469304017.765507) can0 260#0E00000000000078
(1469304017.765596) can0 361#00A0000700000000
(1469304017.765876) can0 020#0000072B
(1469304017.765960) can0 0BA#06008044
(1469304017.766318) can0 224#0000000000000048
(1469304017.766520) can0 025#000000027000009F
(1469304017.770355) can0 394#4300
(1469304017.771987) can0 0AA#1A6F1A6F1A6F1A6F
(1469304017.772118) can0 1AA#0000000000B1
(1469304017.773701) can0 1C8#00
(1469304017.777904) can0 020#0000072B
(1469304017.778109) can0 0B4#00000000020000BE
(1469304017.778362) can0 223#0008000000000035
(1469304017.778609) can0 025#000000027000009F
(1469304017.782060) can0 1D0#0000010000AC0086
(1469304017.783034) can0 2C1#08FFD412A1BE0017
(1469304017.784012) can0 0AA#1A6F1A6F1A6F1A6F
(1469304017.785512) can0 260#0E00000000000078
(1469304017.788188) can0 263#00000000B2001E
(1469304017.789216) can0 1C4#000028000000FFF4
(1469304017.789932) can0 020#0000072B
(1469304017.790017) can0 0BA#06008044
(1469304017.790170) can0 1C8#00
(1469304017.790470) can0 224#0000000000000048
(1469304017.790688) can0 025#000000026000008F
(1469304017.795379) can0 262#000000016A
(1469304017.796035) can0 0AA#1A6F1A6F1A6F1A6F
(1469304017.801981) can0 020#0000072B
(1469304017.802214) can0 0B4#00000000020000BE
(1469304017.802519) can0 223#0008000000000035
(1469304017.802706) can0 025#000000027000009F
(1469304017.805509) can0 260#0E00000000000078
(1469304017.806425) can0 1C8#00
(1469304017.808033) can0 0AA#1A6F1A6F1A6F1A6F
(1469304017.810307) can0 351#00000000
(1469304017.812808) can0 263#00000000B2001E
(1469304017.813859) can0 1C4#000028000000FFF4
(1469304017.814010) can0 020#0000072B
(1469304017.814178) can0 0BA#06008044
(1469304017.814507) can0 224#0000000000000048
(1469304017.814689) can0 025#000000027000009F
(1469304017.814982) can0 1D0#0000010000AC0086
(1469304017.815860) can0 2C1#08FFD412A1BE0017
(1469304017.817182) can0 443#4202002F06000000
(1469304017.820162) can0 0AA#1A6F1A6F1A6F1A6F
(1469304017.820261) can0 1AA#0000000000B1
(1469304017.820566) can0 3B7#583B000000000008
(1469304017.820786) can0 440#4201001101000000
(1469304017.822925) can0 1C8#00
(1469304017.825412) can0 260#0E00000000000078
(1469304017.826077) can0 020#0000072B
(1469304017.826283) can0 0B4#00000000020000BE
(1469304017.826541) can0 025#000000027000009F
(1469304017.826786) can0 223#0008000000000035
(1469304017.831220) can0 361#00A0000700000000
(1469304017.832185) can0 0AA#1A6F1A6F1A6F1A6F
(1469304017.835335) can0 262#000000016A
(1469304017.837407) can0 263#00000000B2001E
(1469304017.838126) can0 020#0000072B
(1469304017.838192) can0 0BA#06008044
(1469304017.838458) can0 025#000000027000009F
(1469304017.838741) can0 1C4#000028000000FFF4
(1469304017.838998) can0 224#0000000000000048
(1469304017.839284) can0 1C8#00
(1469304017.844238) can0 0AA#1A6F1A6F1A6F1A6F
(1469304017.845409) can0 260#0E00000000000078
(1469304017.847711) can0 1D0#0000010000AC0086
(1469304017.848683) can0 2C1#08FFD412A1BE0017
(1469304017.850180) can0 020#0000072B
(1469304017.850380) can0 0B4#00000000020000BE
(1469304017.850637) can0 025#000000027000009F
(1469304017.850885) can0 223#0008000000000035
(1469304017.855677) can0 1C8#00
(1469304017.856281) can0 0AA#1A6F1A6F1A6F1A6F
(1469304017.857611) can0 610#2080006480FFFD60
(1469304017.862033) can0 263#00000000B2001E
(1469304017.862112) can0 020#0000072B
(1469304017.862324) can0 0BA#06008044
(1469304017.862562) can0 224#0000000000000048
(1469304017.862888) can0 025#000000027000009F
(1469304017.863040) can0 1C4#000028000000FFF4
(1469304017.865431) can0 260#0E00000000000078
(1469304017.868280) can0 0AA#1A6F1A6F1A6F1A6F
(1469304017.868450) can0 1AA#0000000000B1
(1469304017.869580) can0 611#21800020000062D4
(1469304017.870309) can0 351#00000000
(1469304017.872149) can0 1C8#00
(1469304017.874221) can0 020#0000072B
(1469304017.874481) can0 0B4#00000000020000BE
(1469304017.874677) can0 025#000000027000009F
(1469304017.874932) can0 223#0008000000000035
(1469304017.875349) can0 262#000000016A
(1469304017.879348) can0 354#07
(1469304017.880313) can0 0AA#1A6F1A6F1A6F1A6F
(1469304017.880580) can0 1D0#0000010000AC0086
(1469304017.881504) can0 2C1#08FFD412A1BE0017
(1469304017.881677) can0 618#2280000080000000
(1469304017.885386) can0 260#0E00000000000078
(1469304017.886298) can0 020#0000072B
(1469304017.886447) can0 0BA#06008044
(1469304017.886667) can0 224#0000000000000048
(1469304017.886936) can0 263#00000000B2001E
(1469304017.887357) can0 025#000000027000009F
(1469304017.887638) can0 1C4#000028000000FFF4
(1469304017.888544) can0 1C8#00
(1469304017.892578) can0 0AA#1A6F1A6F1A6F1A6F
(1469304017.893579) can0 619#238000000C003A80
(1469304017.896932) can0 361#00A0000700000000
(1469304017.898522) can0 020#0000072B
(1469304017.898721) can0 0B4#00000000020000BE
(1469304017.899021) can0 223#0008000000000035
(1469304017.899459) can0 025#000000027000009F
(1469304017.904605) can0 0AA#1A6F1A6F1A6F1A6F
(1469304017.904992) can0 1C8#00
(1469304017.905368) can0 260#0E00000000000078
(1469304017.905553) can0 61A#2480000000014F60
(1469304017.910550) can0 020#0000072B
(1469304017.910644) can0 0BA#06008044
(1469304017.910925) can0 224#0000000000000048
(1469304017.911224) can0 263#00000000B2001E
(1469304017.911483) can0 025#000000027000009F
(1469304017.912307) can0 1C4#000028000000FFF4
(1469304017.913337) can0 1D0#0000010000AC0086
(1469304017.914310) can0 2C1#08FFD412A1BE0017
(1469304017.915330) can0 262#000000016A
(1469304017.916639) can0 0AA#1A6F1A6F1A6F1A6F
(1469304017.916824) can0 1AA#0000000000B1
(1469304017.917585) can0 442#4302000001000000
(1469304017.917789) can0 61C#2680000000000000
(1469304017.921403) can0 1C8#00
(1469304017.922512) can0 020#0000072B
(1469304017.922860) can0 0B4#00000000020000BE
(1469304017.923048) can0 223#0008000000000035
(1469304017.923304) can0 383#0100010000000000
(1469304017.923545) can0 025#000000027000009F
(1469304017.923785) can0 381#0000000080000000
(1469304017.924117) can0 4DC#1D00000200000000
(1469304017.925384) can0 260#0E00000000000078
(1469304017.928685) can0 0AA#1A6F1A6F1A6F1A6F
(1469304017.930261) can0 351#00000000
(1469304017.934604) can0 020#0000072B
(1469304017.934688) can0 0BA#06008044
(1469304017.935020) can0 224#0000000000000048
(1469304017.935372) can0 025#000000026000008F
(1469304017.935899) can0 263#00000000B2001E
(1469304017.936910) can0 1C4#000028000000FFF4
(1469304017.937799) can0 1C8#00
(1469304017.940714) can0 0AA#1A6F1A6F1A6F1A6F
(1469304017.941022) can0 3F9#5198260100000014
(1469304017.945336) can0 260#0E00000000000078
(1469304017.946160) can0 1D0#0000010000AC0086
(1469304017.946630) can0 020#0000072B
(1469304017.946864) can0 0B4#00000000020000BE
(1469304017.947167) can0 223#0008000000000035
(1469304017.947352) can0 2C1#08FFD412A1BE0017
(1469304017.947591) can0 025#000000027000009F
(1469304017.952738) can0 0AA#1A6F1A6F1A6F1A6F
(1469304017.954223) can0 1C8#00
(1469304017.955255) can0 262#000000016A
(1469304017.958619) can0 020#0000072B
(1469304017.958777) can0 0BA#06008044
(1469304017.959024) can0 224#0000000000000048
(1469304017.959273) can0 025#000000027000009F
(1469304017.960458) can0 263#00000000B2001E
(1469304017.961485) can0 1C4#000028000000FFF4
(1469304017.961590) can0 3D0#00
(1469304017.962534) can0 361#00A0000100000000
(1469304017.964780) can0 0AA#1A6F1A6F1A6F1A6F
(1469304017.964924) can0 1AA#0000000000B1
(1469304017.965328) can0 260#0E00000000000078
(1469304017.970623) can0 1C8#00
(1469304017.970762) can0 020#0000072B
(1469304017.971013) can0 0B4#00000000020000BE
(1469304017.971269) can0 223#0008000000000035
(1469304017.971503) can0 025#000000027000009F
(1469304017.971752) can0 387#0000000000003F3F
(1469304017.976835) can0 0AA#1A6F1A6F1A6F1A6F
(1469304017.978981) can0 1D0#0000010000AC0086
(1469304017.979935) can0 2C1#08FFD412A1BE0017
(1469304017.980460) can0 4DD#1E00000000000000
(1469304017.982748) can0 020#0000072B
(1469304017.982842) can0 0BA#06008044
(1469304017.983165) can0 224#0000000000000048
(1469304017.983349) can0 025#000000027000009F
(1469304017.985104) can0 263#00000000B2001E
(1469304017.985302) can0 260#0E00000000000078
(1469304017.986130) can0 1C4#000028000000FFF4
(1469304017.987019) can0 1C8#00
(1469304017.988833) can0 0AA#1A6F1A6F1A6F1A6F
(1469304017.990299) can0 351#00000000
(1469304017.994799) can0 020#0000072B
(1469304017.994996) can0 0B4#00000000020000BE
(1469304017.995249) can0 223#0008000000000035
(1469304017.995523) can0 025#000000027000009F
(1469304017.995676) can0 262#000000016A
(1469304018.000466) can0 024#5E000A004A088066
(1469304018.000863) can0 0AA#1A6F1A6F1A6F1A6F
(1469304018.002152) can0 389#0000000000000000
(1469304018.003420) can0 1C8#00
(1469304018.005312) can0 260#0E00000000000078
(1469304018.006819) can0 020#0000072B
(1469304018.006906) can0 0BA#06008044
(1469304018.007188) can0 224#0000000000000048
(1469304018.007422) can0 025#000000027000009F
(1469304018.009730) can0 263#00000000B2001E
(1469304018.010754) can0 1C4#000028000000FFF4
(1469304018.011740) can0 1D0#0000010000AC0086
(1469304018.012460) can0 024#5E0009FF4A088064
(1469304018.012753) can0 2C1#08FFD412A1BE0017
(1469304018.012897) can0 0AA#1A6F1A6F1A6F1A6F
(1469304018.013129) can0 1AA#0000000000B1
(1469304018.015229) can0 620#1000FFFFA0500080
(1469304018.017181) can0 443#4002002F06000000
(1469304018.018851) can0 020#0000072B
(1469304018.019087) can0 0B4#00000000020000BE
(1469304018.019312) can0 025#000000027000009F
(1469304018.019620) can0 223#0008000000000035
(1469304018.019792) can0 1C8#00
(1469304018.024506) can0 024#5E0009FD4A0A8064
(1469304018.024933) can0 0AA#1A6F1A6F1A6F1A6F
(1469304018.025275) can0 260#0E00000000000078
(1469304018.028206) can0 361#00A0000000000000
(1469304018.030874) can0 020#0000072B
(1469304018.030967) can0 0BA#060000C4
(1469304018.031274) can0 224#0000000000000048
(1469304018.031516) can0 025#000000027000009F
(1469304018.031763) can0 38E#2020000000000000
(1469304018.034327) can0 263#00000000B2001E
(1469304018.035225) can0 262#000000016A
(1469304018.035464) can0 1C4#00DF28000000FFD3
(1469304018.036270) can0 1C8#00
(1469304018.036453) can0 024#5E0009F84A08805D
(1469304018.036976) can0 0AA#1A6F1A6F1A6F1A6F
(1469304018.042886) can0 020#0000072B
(1469304018.043170) can0 0B4#00000000020000BE
(1469304018.043370) can0 025#000000027000009F
(1469304018.043637) can0 223#0008000000000035
(1469304018.044558) can0 1D0#0031010000AC00B7
(1469304018.045255) can0 260#0E00000000000078
(1469304018.045584) can0 2C1#08FFD412A1BE0017
(1469304018.048507) can0 024#5E0009F84A08805D
(1469304018.049029) can0 0AA#1A6F1A6F1A6F1A6F
(1469304018.050274) can0 351#00000000
(1469304018.052628) can0 1C8#00
(1469304018.054921) can0 020#0000072B
(1469304018.055092) can0 0BA#060000C4
(1469304018.055340) can0 025#000000026000008F
(1469304018.055633) can0 224#0000000000000048
(1469304018.058952) can0 263#00000000B2001E
(1469304018.059983) can0 1C4#011728000000FF0C
(1469304018.060504) can0 024#5E0009FB4A088060
(1469304018.061040) can0 0AA#1A6F1A6F1A6F1A6F
(1469304018.061231) can0 1AA#0000000000B1
(1469304018.062134) can0 38F#0300000000000000
(1469304018.065279) can0 260#0E00000000000078
(1469304018.066997) can0 020#0000072B
(1469304018.067231) can0 0B4#00000000020000BE
(1469304018.067535) can0 025#000000027000009F
(1469304018.067728) can0 223#0008000000000035
(1469304018.069072) can0 1C8#00
(1469304018.070221) can0 394#4300
(1469304018.072470) can0 024#5E000A004A088066
(1469304018.073069) can0 0AA#1A6F1A6F1A6F1A6F
(1469304018.073311) can0 382#3838380000000000
(1469304018.075175) can0 262#000000016A
(1469304018.077431) can0 1D0#013B010000AC00C2
(1469304018.078378) can0 2C1#08051712A2E8008B
(1469304018.079023) can0 020#0000072B
(1469304018.079118) can0 0BA#060000C4
(1469304018.079511) can0 025#000000027000009F
(1469304018.079659) can0 224#0000000000000048
(1469304018.083537) can0 263#00000000B2001E
(1469304018.084506) can0 024#5E000A014A088067
(1469304018.084620) can0 1C4#016D28000000FF62
(1469304018.084774) can0 354#07
(1469304018.085142) can0 0AA#1A6F1A6F1A6F1A6F
(1469304018.085339) can0 260#0E00000000000078
(1469304018.085423) can0 1C8#00
(1469304018.091075) can0 020#0000072B
(1469304018.091271) can0 0B4#00000000020000BE
(1469304018.091530) can0 223#0008000000000035
(1469304018.092133) can0 3A5#0000000000007EFC
(1469304018.092382) can0 025#000000027000009F
(1469304018.093833) can0 361#00A0000000000000
(1469304018.096512) can0 024#5E000A014A088067
(1469304018.097161) can0 0AA#1A6F1A6F1A6F1A6F
(1469304018.101903) can0 1C8#00
(1469304018.103067) can0 020#0000072B
(1469304018.103224) can0 0BA#060000C4
(1469304018.103488) can0 224#0000000000000048
(1469304018.104208) can0 025#000000027000009F
(1469304018.105255) can0 260#0E00000000000078
(1469304018.108099) can0 263#00000000B2001E
(1469304018.108405) can0 024#5E0009FF4A0A8066
(1469304018.109141) can0 1C4#016928000000FF5E
(1469304018.109341) can0 0AA#1A6F1A6F1A6F1A6F
(1469304018.109529) can0 1AA#0000000000B1
(1469304018.110158) can0 1D0#017A010000AC0001
(1469304018.110305) can0 351#00000000
(1469304018.111108) can0 2C1#08051912A4E8008F
(1469304018.115100) can0 262#000000016A
(1469304018.115240) can0 020#0000072B
(1469304018.115535) can0 0B4#00000000020000BE
(1469304018.115764) can0 223#0008000000000035
(1469304018.116009) can0 440#4202001101000000
(1469304018.116256) can0 025#000000026000008F
(1469304018.118245) can0 1C8#00
(1469304018.120507) can0 024#5E0009FA4A0A8061
(1469304018.121221) can0 0AA#1A6F1A6F1A6F1A6F
(1469304018.121498) can0 3B7#583B000000000008
(1469304018.122130) can0 413#0101010900000000
(1469304018.125194) can0 260#0E00000000000078
(1469304018.126198) can0 6E1#A180000000100000
(1469304018.127142) can0 020#0000072B
(1469304018.127251) can0 0BA#060000C4
(1469304018.127532) can0 224#0000000000000048
(1469304018.128178) can0 025#000000027000009F
(1469304018.132500) can0 024#5E0009F64A0A805D
(1469304018.132754) can0 263#00000000B2001E
(1469304018.133202) can0 0AA#1A6F1A6F1A6F1A6F
(1469304018.133786) can0 1C4#015F28000000FF54
(1469304018.134686) can0 1C8#00
(1469304018.139170) can0 020#0000072B
(1469304018.139384) can0 0B4#00000000020000BE
(1469304018.139675) can0 223#0008000000000035
(1469304018.140220) can0 025#000000027000009F
(1469304018.143050) can0 1D0#01BC010000AC0043
(1469304018.143997) can0 2C1#08051912A4E8008F
(1469304018.144498) can0 024#5E0009F64A0A805D
(1469304018.145222) can0 260#0E00000000000078
(1469304018.145507) can0 0AA#1A6F1A6F1A6F1A6F
(1469304018.151175) can0 434#3F00000000000000
(1469304018.151283) can0 020#0000072B
(1469304018.151472) can0 0BA#060000C4
(1469304018.151545) can0 1C8#00
(1469304018.151834) can0 224#0000000000000048
(1469304018.152108) can0 025#000000027000009F
(1469304018.155119) can0 262#000000016A
(1469304018.156499) can0 024#5E0009FA4A0A8061
(1469304018.157274) can0 0AA#1A6F1A6F1A6F1A6F
(1469304018.157450) can0 1AA#0000000000B1
(1469304018.157675) can0 263#00000000B2001E
(1469304018.158425) can0 1C4#016928000000FF5E
(1469304018.159507) can0 361#00A0000000000000
(1469304018.163203) can0 020#0000072B
(1469304018.163519) can0 0B4#00000000020000BE
(1469304018.163679) can0 223#0008000000000035
(1469304018.164158) can0 025#000000027000009F
(1469304018.165229) can0 260#0E00000000000078
(1469304018.167518) can0 1C8#00
(1469304018.168505) can0 024#5E000A004A0C806A
(1469304018.169306) can0 0AA#1A6F1A6F1A6F1A6F
(1469304018.170176) can0 351#00000000
(1469304018.175224) can0 020#0000072B
(1469304018.175469) can0 0BA#060000C4
(1469304018.175656) can0 224#0000000000000048
(1469304018.175714) can0 3D3#00FD
(1469304018.176091) can0 1D0#01F7010000AC007E
(1469304018.176291) can0 025#000000027000009F
(1469304018.176587) can0 6E2#A28000FEFEFEFEFE
(1469304018.176816) can0 2C1#08051512A4E8008B
(1469304018.180508) can0 024#5E000A004A0C806A
(1469304018.180677) can0 3B1#00000E0A00080000
(1469304018.180929) can0 4AC#0802200500000004
(1469304018.181477) can0 0AA#1A6F1A6F1A6F1A6F
(1469304018.181974) can0 263#00000000B2001E
(1469304018.182200) can0 435#0F0505FFE00FE003
(1469304018.183002) can0 1C4#01B528000000FFAA
(1469304018.183904) can0 1C8#00
(1469304018.185204) can0 260#0E00000000000078
(1469304018.187497) can0 020#0000072B
(1469304018.187672) can0 0B4#00000000020000BE
(1469304018.187935) can0 223#0008000000000035
(1469304018.188184) can0 025#000000027000009F
(1469304018.192510) can0 024#5E000A004A088066
(1469304018.193547) can0 0AA#1A6F1A6F1A6F1A6F
(1469304018.195105) can0 262#000000016A
(1469304018.197360) can0 3F9#5198260100000014
(1469304018.199501) can0 020#0000072B
(1469304018.199585) can0 0BA#060000C4
(1469304018.199945) can0 224#0000000000000048
(1469304018.200154) can0 025#000000027000009F
(1469304018.200285) can0 1C8#00
(1469304018.204505) can0 024#5E0001FF42058051
(1469304018.205177) can0 260#0E00000000000078
(1469304018.205603) can0 0AA#1A6F1A6F1A6F1A6F
(1469304018.205775) can0 1AA#0000000000B1
(1469304018.206628) can0 263#00000000B2001E
(1469304018.207659) can0 1C4#032728080000FF26
(1469304018.208703) can0 1D0#0259010000AC00E1
(1469304018.209655) can0 2C1#0805180A61E80043
(1469304018.211547) can0 020#0000072B
(1469304018.211756) can0 0B4#00000000020000BE
(1469304018.212001) can0 223#000000000000002D
(1469304018.212254) can0 025#000000027000009F
(1469304018.212510) can0 436#0000000000000000
(1469304018.216503) can0 024#5E0001FD42088052
(1469304018.216693) can0 1C8#80
(1469304018.217578) can0 442#4302000001000000
(1469304018.217764) can0 0AA#1A6F1A6F1A6F1A6F
(1469304018.217817) can0 3D0#00
(1469304018.223332) can0 3B0#00B5000000000000
(1469304018.223516) can0 020#0000072B
(1469304018.223676) can0 0BA#060000C4
(1469304018.223928) can0 224#0000000000000048
(1469304018.224187) can0 025#000000027000009F
(1469304018.225131) can0 361#0054000000000000
(1469304018.225341) can0 260#0E00000000000078
(1469304018.228505) can0 024#5E0001F8420C8051
(1469304018.229677) can0 0AA#1A6F1A6F1A6F1A6F
(1469304018.230124) can0 351#00000000
(1469304018.231251) can0 263#00000000B2001E
(1469304018.232281) can0 1C4#03A528080000FFA4
(1469304018.233129) can0 1C8#80
(1469304018.235009) can0 262#000000016A
(1469304018.235601) can0 020#0000072B
(1469304018.235818) can0 0B4#00000000020000BE
(1469304018.236101) can0 025#000000026000008F
(1469304018.236310) can0 223#000000000000002D
(1469304018.240505) can0 024#5E0001F3420A804A
(1469304018.241532) can0 1D0#045B010000AC00E5
(1469304018.241722) can0 0AA#1A6F1A6F1A6F1A6F
(1469304018.242176) can0 437#FCFFFFFFFFFFFFFF
(1469304018.242462) can0 2C1#0805190A54E80037
(1469304018.245120) can0 260#0E00000000000078
(1469304018.247650) can0 020#0000072B
(1469304018.247725) can0 0BA#060000C4
(1469304018.248063) can0 025#000000027000009F
(1469304018.248272) can0 224#0000000000000048
(1469304018.249569) can0 1C8#80
(1469304018.252511) can0 024#5E0001F4420A804B
(1469304018.253729) can0 0AA#1A6F1A6F1A6F1A6F
(1469304018.253911) can0 1AA#0000000000B1
(1469304018.255859) can0 263#00000000B2001E
(1469304018.256847) can0 1C4#045828080000FF58
(1469304018.259673) can0 020#0000072B
(1469304018.259882) can0 0B4#00000000020000BE
(1469304018.260171) can0 025#000000027000009F
(1469304018.260377) can0 223#000000000000002D
(1469304018.264507) can0 024#5E0001FD420C8056
(1469304018.265135) can0 260#0E00000000000078
(1469304018.265776) can0 0AA#1A6F1A6F1A6F1A6F
(1469304018.265963) can0 1C8#80
(1469304018.271304) can0 380#0000000000008000
(1469304018.271728) can0 020#0000072B
(1469304018.271804) can0 0BA#060000C4
(1469304018.272144) can0 025#000000027000009F
(1469304018.272353) can0 224#0000000000000048
(1469304018.272566) can0 384#F0F000000000
(1469304018.274318) can0 1D0#06D8010000AC0064
(1469304018.275053) can0 262#000000016A
(1469304018.275259) can0 2C1#08044E0A62E20073
(1469304018.276505) can0 024#5E000203420C805D
(1469304018.277803) can0 0AA#1A6F1A6F1A6F1A6F
(1469304018.280508) can0 263#00000000B2001E
(1469304018.281528) can0 1C4#04ED28080000FFED
(1469304018.282393) can0 1C8#80
(1469304018.283749) can0 020#0000072B
(1469304018.283952) can0 0B4#00000000020000BE
(1469304018.284202) can0 025#000000027000009F
(1469304018.284460) can0 223#000000000000002D
(1469304018.285152) can0 260#0E00000000000078
(1469304018.288506) can0 024#5E0002054208805B
(1469304018.289566) can0 354#01
(1469304018.289858) can0 0AA#1A6F1A6F1A6F1A6F
(1469304018.290027) can0 351#00000000
(1469304018.290751) can0 361#0054000000000000
(1469304018.292280) can0 3A0#008C000000000066
(1469304018.295716) can0 020#0000072B
(1469304018.295881) can0 0BA#060000C4
(1469304018.296142) can0 224#0000000000000048
(1469304018.296516) can0 025#000000027000009F
(1469304018.298795) can0 1C8#80
(1469304018.300506) can0 024#5E00020142068055
(1469304018.301852) can0 0AA#1A6F1A6F1A6F1A6F
(1469304018.302032) can0 1AA#0000000000B1
(1469304018.302161) can0 386#000000070003
(1469304018.305057) can0 260#0E00000000000078
(1469304018.305276) can0 263#00000000B2001E
(1469304018.306129) can0 1C4#050128080000FF02
(1469304018.307154) can0 1D0#08D7010000AC0065
(1469304018.307747) can0 020#0000072B
(1469304018.308049) can0 0B4#00000000020000BE
(1469304018.308261) can0 025#000000026000008F
(1469304018.308544) can0 223#000000000000002D
(1469304018.308731) can0 2C1#0803E60A1CDF00C1
(1469304018.312467) can0 024#560001FB42088048
(1469304018.313879) can0 0AA#1A6F1A6F1A6F1A6F
(1469304018.314981) can0 262#000000016A
(1469304018.315232) can0 620#1000FFFFA0500080
(1469304018.315288) can0 1C8#80
(1469304018.317179) can0 443#4002002F06000000
(1469304018.319804) can0 020#0000072B
(1469304018.319882) can0 0BA#060000C4
(1469304018.320219) can0 224#0000000000000008
(1469304018.320512) can0 025#000000027000009F
(1469304018.324508) can0 024#560001F4420A8043
(1469304018.325060) can0 260#0E00000000000078
(1469304018.325867) can0 0AA#1A6F1A6F1A6F1A6F
(1469304018.329703) can0 263#00000000B2001E
(1469304018.330728) can0 1C4#05A528080000FFA6
(1469304018.331625) can0 1C8#80
(1469304018.331811) can0 020#0000072B
(1469304018.332041) can0 0B4#00000000020000BE
(1469304018.332287) can0 223#000000000000002D
(1469304018.332484) can0 3E6#0000000000
(1469304018.333033) can0 025#000000027000009F
(1469304018.336454) can0 024#560001F14208803E
(1469304018.337880) can0 0AA#1A6F1A6F1A6F1A6F
(1469304018.339980) can0 1D0#0A56010000AC00E6
(1469304018.340927) can0 2C1#0802FD0A18D700CB
(1469304018.343850) can0 020#0000072B
(1469304018.343927) can0 0BA#060000C4
(1469304018.344289) can0 224#0000000000000008
(1469304018.344978) can0 025#000000027000009F
(1469304018.345269) can0 260#0E00000000000078
(1469304018.348019) can0 1C8#80
(1469304018.348437) can0 024#560001F642058040
(1469304018.349869) can0 0AA#1A6F1A6F1A6F1A6F
(1469304018.350049) can0 1AA#0000000000B1
(1469304018.350219) can0 351#00000000
(1469304018.354219) can0 263#00000000B2001E
(1469304018.354880) can0 262#000000016A
(1469304018.355237) can0 1C4#063028080000FF32
(1469304018.355810) can0 020#0000072B
(1469304018.356078) can0 0B4#00000000020000BE
(1469304018.356306) can0 223#000000000000002D
(1469304018.356558) can0 361#004D000000000000
(1469304018.356979) can0 025#000000026000008F
(1469304018.358539) can0 610#2000006480FFFD60
(1469304018.360489) can0 024#560002004208804E
(1469304018.361977) can0 0AA#1A6F1A6F1A6F1A6F
(1469304018.362157) can0 3E7#00000000000000
(1469304018.364494) can0 1C8#80
(1469304018.365068) can0 260#0E00000000000078
(1469304018.367930) can0 020#0000072B
(1469304018.368025) can0 0BA#060000C4
(1469304018.368358) can0 224#0000000000000008
(1469304018.368956) can0 025#000000027000009F
(1469304018.370021) can0 394#4300
(1469304018.372507) can0 024#56000206420D8059
(1469304018.372827) can0 1D0#0BE5010000AC0076
(1469304018.373777) can0 2C1#08023D09C0D100AC
(1469304018.374088) can0 0AA#1A6F1A6F1A6F1A6F
(1469304018.378953) can0 263#00000000B2001E
(1469304018.379985) can0 1C4#06B228080000FFB4
(1469304018.380080) can0 020#0000072B
(1469304018.380397) can0 0B4#00000000020000BE
(1469304018.380604) can0 223#000000000000002D
(1469304018.380822) can0 1C8#80
(1469304018.381091) can0 025#000000027000009F
(1469304018.384489) can0 024#56000206420F805B
(1469304018.385107) can0 260#0E00000000000078
(1469304018.386104) can0 0AA#1A6F1A6F1A6F1A6F
(1469304018.391208) can0 3E8#0000000000000000
(1469304018.392052) can0 020#0000072B
(1469304018.392128) can0 0BA#060000C4
(1469304018.392501) can0 224#0000000000000008
(1469304018.392651) can0 024#52000203420D8052
(1469304018.392951) can0 025#000000027000009F
(1469304018.394278) can0 3A0#008C000000000066
(1469304018.394998) can0 262#000000016A
(1469304018.397318) can0 1C8#80
(1469304018.398129) can0 0AA#1A6F1A6F1A6F1A6F
(1469304018.398274) can0 1AA#0000000000B1
(1469304018.403604) can0 263#00000000B2001E
(1469304018.404071) can0 020#0000072B
(1469304018.404268) can0 0B4#00000000020000BE
(1469304018.404579) can0 024#520001FB42088044
(1469304018.404752) can0 1C4#075128080000FF54
(1469304018.405004) can0 223#000000000000002D
(1469304018.405219) can0 025#000000027000009F
(1469304018.405472) can0 260#0E00000000000078
(1469304018.405720) can0 1D0#0D90010000AC0023
(1469304018.406572) can0 2C1#0801880943CC0074
(1469304018.409991) can0 351#00000000
(1469304018.410210) can0 0AA#1A6F1A6F1A6F1A6F
(1469304018.413761) can0 3BB#0000B200
(1469304018.413879) can0 1C8#80
(1469304018.416127) can0 020#0000072B
(1469304018.416219) can0 0BA#060000C4
(1469304018.416551) can0 024#520001F342058039
(1469304018.416752) can0 224#0000000000000008
(1469304018.417051) can0 025#000000027000009F
(1469304018.420156) can0 440#4202001101000000
(1469304018.422103) can0 361#0046000000000000
(1469304018.422276) can0 0AA#1A6F1A6F1A6F1A6F
(1469304018.422538) can0 3B7#583B000000000008
(1469304018.422813) can0 3E9#0000000000000000
(1469304018.425011) can0 260#0E00000000000078
(1469304018.428175) can0 020#0000072B
(1469304018.428503) can0 0B4#00000000020000BE
(1469304018.428597) can0 024#520001F142058037
(1469304018.428924) can0 223#000000000000002D
(1469304018.429138) can0 025#000000027000009F
(1469304018.429360) can0 263#00000000B2001E
(1469304018.429855) can0 1C4#07B428080000FFB7
(1469304018.430149) can0 1C8#80
(1469304018.434470) can0 0AA#1A6F1A6F1A6F1A6F
(1469304018.434952) can0 262#000000016A
(1469304018.438553) can0 1D0#0F0C090000AC00A9
(1469304018.439505) can0 2C1#0800FF08ABC7004C
(1469304018.440373) can0 020#0000072B
(1469304018.440467) can0 0BA#060000C4
(1469304018.440797) can0 224#0000000000000008
(1469304018.440995) can0 025#000000027000009F
(1469304018.441509) can0 024#520001F842088041
(1469304018.444980) can0 260#0E00000000000078
(1469304018.446154) can0 620#1080FFFFB0500080
(1469304018.446505) can0 0AA#1A6F1A6F1A6F1A6F
(1469304018.446650) can0 1AA#0000000000B1
(1469304018.446723) can0 1C8#80
(1469304018.452405) can0 020#0000072B
(1469304018.452604) can0 0B4#00000000020000BE
(1469304018.452854) can0 025#000000027000009F
(1469304018.453109) can0 223#000000000000002D
(1469304018.453331) can0 263#00000000B2001E
(1469304018.453552) can0 024#52000200420C804E
(1469304018.453850) can0 1C4#082628080000FF2A
(1469304018.454222) can0 3F9#5198260100000014
(1469304018.458502) can0 0AA#1A6F1A6F1A6F1A6F
(1469304018.463017) can0 1C8#80
(1469304018.464503) can0 020#0000072B
(1469304018.464520) can0 0BA#060000C4
(1469304018.464864) can0 224#0000000000000008
(1469304018.465063) can0 025#000000027000009F
(1469304018.465362) can0 260#0E00000000000078
(1469304018.465553) can0 024#52000206420D8055
(1469304018.469975) can0 351#00000000
(1469304018.470529) can0 0AA#1A6F1A6F1A6F1A6F
(1469304018.471378) can0 1D0#1038090000AC00D6
(1469304018.472331) can0 2C1#0800BB07E4C5003E
(1469304018.474267) can0 3D0#00
(1469304018.474928) can0 262#000000016A
(1469304018.475610) can0 610#2080006480FFFD60
(1469304018.476498) can0 020#0000072B
(1469304018.476670) can0 0B4#00000000020000BE
(1469304018.476969) can0 025#000000027000009F
(1469304018.477143) can0 223#000000000000002D
(1469304018.477471) can0 263#00000000B2001E
(1469304018.477706) can0 024#52000206420A8052
(1469304018.478485) can0 1C4#088E28080000FF92
(1469304018.479372) can0 1C8#80
(1469304018.482516) can0 0AA#1A6F1A6F1A6F1A6F
(1469304018.484983) can0 260#0E00000000000078
(1469304018.487615) can0 618#2280000080000000
(1469304018.487802) can0 361#003E000000000000
(1469304018.488501) can0 020#0000072B
(1469304018.488568) can0 0BA#060000C4
(1469304018.488894) can0 025#000000027000009F
(1469304018.489096) can0 224#0000000000000008
(1469304018.489558) can0 024#520002004208804A
(1469304018.490256) can0 3A0#008C000000000066
(1469304018.494587) can0 0AA#1A6F1A6F1A6F1A6F
(1469304018.494719) can0 1AA#0000000000B1
(1469304018.494786) can0 354#01
(1469304018.495834) can0 1C8#80
(1469304018.499588) can0 619#238000000C003A80
(1469304018.500526) can0 020#0000072B
(1469304018.500733) can0 0B4#00000000020000BE
(1469304018.500987) can0 025#000000027000009F
(1469304018.501243) can0 223#000000000000002D
(1469304018.501559) can0 024#520001F64208803F
(1469304018.502161) can0 263#00000000B2001E
(1469304018.503183) can0 1C4#08CE28080000FFD2
(1469304018.504237) can0 1D0#113F090000AC00DE
(1469304018.505034) can0 260#0E00000000000078
(1469304018.505236) can0 2C1#08009B06FCC40034
(1469304018.506608) can0 0AA#1A6F1A6F1A6F1A6F
(1469304018.511590) can0 61A#2480000000014F60
(1469304018.512302) can0 1C8#80
(1469304018.512504) can0 020#0000072B
(1469304018.512672) can0 0BA#060000C4
(1469304018.512922) can0 224#0000000000000008
(1469304018.513170) can0 025#000000027000009F
(1469304018.513559) can0 024#520001F14208803A
(1469304018.514886) can0 262#000000016A
(1469304018.517585) can0 442#4302000001000000
(1469304018.518591) can0 0AA#1A6F1A6F1A6F1A6F
(1469304018.523618) can0 61C#2680000000000000
(1469304018.524552) can0 020#0000072B
(1469304018.524783) can0 0B4#00000000020000BE
(1469304018.525082) can0 025#000000027000009F
(1469304018.525268) can0 223#000000000000002D
(1469304018.525508) can0 260#0E00000000000078
(1469304018.525753) can0 024#520001F4420A803F
(1469304018.526777) can0 263#00000000B2001E
(1469304018.527838) can0 1C4#090328080000FF08
(1469304018.528637) can0 1C8#80
(1469304018.529999) can0 351#00000000
(1469304018.530635) can0 0AA#1A6F1A6F1A6F1A6F
(1469304018.536535) can0 020#0000072B
(1469304018.536686) can0 0BA#060000C4
(1469304018.536968) can0 224#0000000000000008
(1469304018.537193) can0 025#000000027000009F
(1469304018.537410) can0 1D0#11FA090000AC0099
(1469304018.537654) can0 024#520001FD420C804A
(1469304018.537935) can0 2C1#0800870626C4004A
(1469304018.542628) can0 0AA#1A6F1A6F1A6F1A6F
(1469304018.542794) can0 1AA#0000000000B1
(1469304018.544936) can0 260#0E00000000000078
(1469304018.545013) can0 1C8#80
(1469304018.548630) can0 020#0000072B
(1469304018.548823) can0 0B4#00000000020000BE
(1469304018.549084) can0 223#000000000000002D
(1469304018.549510) can0 024#52000205420A8051
(1469304018.549814) can0 025#000000027000009F
(1469304018.550114) can0 621#1100000000000000
(1469304018.551388) can0 263#00000000B2001E
(1469304018.552470) can0 1C4#092C28080000FF31
(1469304018.553467) can0 361#0035000000000000
(1469304018.554673) can0 0AA#1A6F1A6F1A6F1A6F
(1469304018.554863) can0 262#000000016A
(1469304018.555115) can0 4C3#0300000100000000
(1469304018.559064) can0 622#1200481000000000
(1469304018.560618) can0 020#0000072B
(1469304018.560775) can0 0BA#060000C4
(1469304018.561061) can0 224#0000000000000008
(1469304018.561556) can0 024#5200020642088050
(1469304018.561761) can0 025#000000027000009F
(1469304018.561819) can0 1C8#80
(1469304018.564960) can0 260#0E00000000000078
(1469304018.566694) can0 0AA#1A6F1A6F1A6F1A6F
(1469304018.568063) can0 623#1900000000000000
(1469304018.569923) can0 1D0#1281090000AC0021
(1469304018.570908) can0 2C1#08007A0564C30079
(1469304018.572680) can0 020#0000072B
(1469304018.572885) can0 0B4#00000000020000BE
(1469304018.573137) can0 223#000000000000002D
(1469304018.573557) can0 024#520002034208804D
(1469304018.573799) can0 025#000000027000009F
(1469304018.576053) can0 263#00000000B2001E
(1469304018.577113) can0 1C4#094228080000FF47
(1469304018.577312) can0 624#1A00414949400000
(1469304018.577952) can0 1C8#80
(1469304018.578735) can0 0AA#1A6F1A6F1A6F1A6F
(1469304018.584664) can0 020#0000072B
(1469304018.584830) can0 0BA#060000C4
(1469304018.585077) can0 224#0000000000000008
(1469304018.585327) can0 260#0E00000000000078
(1469304018.585584) can0 024#520001FB42088044
(1469304018.585833) can0 025#000000027000009F
(1469304018.586083) can0 626#1C00300000000000
(1469304018.589903) can0 351#00000000
(1469304018.590809) can0 0AA#1A6F1A6F1A6F1A6F
(1469304018.590942) can0 1AA#0000000000B1
(1469304018.592241) can0 3A0#008C000000000066
(1469304018.594498) can0 1C8#80
(1469304018.594819) can0 262#000000016A
(1469304018.595141) can0 638#1300180100000000
(1469304018.596782) can0 020#0000072B
(1469304018.596989) can0 0B4#00000000020000BE
(1469304018.597235) can0 223#000000000000002D
(1469304018.597565) can0 024#520001F4420A803F
(1469304018.597818) can0 025#000000027000009F
(1469304018.600735) can0 263#00000000B2001E
(1469304018.601757) can0 1C4#094E28080000FF53
(1469304018.602783) can0 1D0#12CC090000AC006C
(1469304018.602986) can0 0AA#1A6F1A6F1A6F1A6F
(1469304018.603761) can0 2C1#08007504B9C300C8
(1469304018.604107) can0 63C#98005A5245172060
(1469304018.604935) can0 260#0E00000000000078
(1469304018.608809) can0 020#0000072B
(1469304018.608870) can0 0BA#060000C4
(1469304018.609182) can0 224#0000000000000008
(1469304018.609547) can0 024#520001F4420C8041
(1469304018.609841) can0 025#000000027000009F
(1469304018.610873) can0 1C8#80
(1469304018.613075) can0 63D#9900444558534B00
(1469304018.614805) can0 0AA#1A6F1A6F1A6F1A6F
(1469304018.615029) can0 420#00000000FB0182AA
(1469304018.617116) can0 443#4002002F06000000
(1469304018.619140) can0 361#002D000000000000
(1469304018.619515) can0 640#A800005701370000
(1469304018.620761) can0 020#0000072B
(1469304018.621033) can0 0B4#00000000020000BE
(1469304018.621264) can0 223#000000000000002D
(1469304018.621514) can0 024#520001FA420A8045
(1469304018.621794) can0 025#000000027000009F
(1469304018.622093) can0 680#D800010000000000
(1469304018.624877) can0 260#0E00000000000078
(1469304018.625346) can0 263#00000000B2001E
(1469304018.626373) can0 1C4#096228080000FF67
(1469304018.626924) can0 0AA#1A6F1A6F1A6F1A6F
(1469304018.627221) can0 1C8#80
(1469304018.628359) can0 4C1#0100000500000000
(1469304018.632841) can0 020#0000072B
(1469304018.632951) can0 0BA#060000C4
(1469304018.633238) can0 224#0000000000000008
(1469304018.633573) can0 024#520002004208804A
(1469304018.633794) can0 025#000000027000009F
(1469304018.634844) can0 262#000000016A
(1469304018.635627) can0 1D0#12ED090000AC008D
(1469304018.636600) can0 2C1#08006D0422C30029
(1469304018.638974) can0 0AA#1A6F1A6F1A6F1A6F
(1469304018.639133) can0 1AA#0000000000B1
(1469304018.643666) can0 1C8#80
(1469304018.644847) can0 260#0E00000000000078
(1469304018.644912) can0 020#0000072B
(1469304018.645272) can0 0B4#00000000020000BE
(1469304018.645451) can0 223#000000000000002D
(1469304018.645700) can0 024#520002054208804F
(1469304018.645950) can0 025#000000027000009F
(1469304018.649896) can0 351#00000000
(1469304018.650072) can0 263#00000000B2001E
(1469304018.650997) can0 1C4#097228080000FF77
(1469304018.651175) can0 0AA#1A6F1A6F1A6F1A6F
(1469304018.656971) can0 020#0000072B
(1469304018.657080) can0 0BA#060000C4
(1469304018.657339) can0 224#0000000000000008
(1469304018.657576) can0 024#520002034208804D
(1469304018.657824) can0 025#000000027000009F
(1469304018.660045) can0 1C8#80
(1469304018.663050) can0 0AA#1A6F1A6F1A6F1A6F
(1469304018.664851) can0 260#0E00000000000078
(1469304018.668502) can0 1D0#12FC090000AC009C
(1469304018.668976) can0 020#0000072B
(1469304018.669227) can0 0B4#00000000020000BE
(1469304018.669524) can0 223#000000000000002D
(1469304018.669719) can0 024#520001FD420A8048
(1469304018.669949) can0 025#000000027000009F
(1469304018.670190) can0 2C1#08006C0392C30097
(1469304018.670271) can0 394#4300
(1469304018.674624) can0 263#00000000B2001E
(1469304018.674787) can0 262#000000016A
(1469304018.675076) can0 0AA#1A6F1A6F1A6F1A6F
(1469304018.675651) can0 1C4#096728080000FF6C
(1469304018.676513) can0 1C8#80
(1469304018.680574) can0 4AC#1802400500000304
(1469304018.681041) can0 020#0000072B
(1469304018.681150) can0 0BA#060000C4
(1469304018.681462) can0 224#0000000000000008
(1469304018.681664) can0 024#520001F8420A8043
(1469304018.681947) can0 025#000000027000009F
(1469304018.684876) can0 260#0E00000000000078
(1469304018.685089) can0 361#0027000000000000
(1469304018.687124) can0 0AA#1A6F1A6F1A6F1A6F
(1469304018.687284) can0 1AA#0000000000B1
(1469304018.691252) can0 3A0#008C000000000066
(1469304018.692940) can0 1C8#80
(1469304018.693099) can0 020#0000072B
(1469304018.693335) can0 0B4#00000000020000BE
(1469304018.693579) can0 024#520001F6420A8041
(1469304018.693832) can0 025#000000027000009F
(1469304018.694122) can0 223#000000000000002D
(1469304018.699151) can0 0AA#1A6F1A6F1A6F1A6F
(1469304018.699325) can0 263#00000000B2001E
(1469304018.700229) can0 1C4#095D28080000FF62
(1469304018.700322) can0 354#01
(1469304018.701188) can0 3D3#0488
(1469304018.701481) can0 1D0#12EA090000AC008A
(1469304018.702224) can0 2C1#0800700311C3001A
(1469304018.704851) can0 260#0E00000000000078
(1469304018.705027) can0 020#0000072B
(1469304018.705202) can0 0BA#060000C4
(1469304018.705452) can0 224#0000000000000008
(1469304018.705699) can0 024#520001F8420A8043
(1469304018.705948) can0 025#000000027000009F
(1469304018.706806) can0 4C6#0700030000000000
(1469304018.709455) can0 38A#0804000000
(1469304018.709502) can0 1C8#80
(1469304018.709830) can0 351#00000000
(1469304018.710456) can0 3F9#5198260100000014
(1469304018.711172) can0 0AA#1A6F1A6F1A6F1A6F
(1469304018.714745) can0 262#000000016A
(1469304018.717121) can0 020#0000072B
(1469304018.717343) can0 0B4#00000000020000BE
(1469304018.717572) can0 024#520001FD42088046
(1469304018.717812) can0 025#000000027000009F
(1469304018.718066) can0 223#000000000000002D
(1469304018.718537) can0 610#2080006480FFFD60
(1469304018.720044) can0 440#4202001101000000
(1469304018.723175) can0 0AA#1A6F1A6F1A6F1A6F
(1469304018.723498) can0 3B7#583B000000000008
(1469304018.723872) can0 263#00000000B2001E
(1469304018.724801) can0 260#0E00000000000078
(1469304018.725011) can0 1C4#095A28080000FF5F
(1469304018.725813) can0 1C8#80
(1469304018.729147) can0 020#0000072B
(1469304018.729317) can0 0BA#060000C4
(1469304018.729559) can0 024#520002014208804B
(1469304018.729811) can0 025#000000027000009F
(1469304018.730085) can0 224#0000000000000008
(1469304018.730531) can0 611#21800020000062D4
(1469304018.730825) can0 3D0#00
(1469304018.734107) can0 1D0#12D0090000AC0070
(1469304018.735124) can0 2C1#080071029FC300A8
(1469304018.735509) can0 0AA#1A6F1A6F1A6F1A6F
(1469304018.735622) can0 1AA#0000000000B1
(1469304018.739860) can0 4C8#0900000000000000
(1469304018.741382) can0 020#0000072B
(1469304018.741635) can0 0B4#00000000020000BE
(1469304018.741882) can0 025#000000027000009F
(1469304018.742135) can0 223#000000000000002D
(1469304018.742150) can0 1C8#80
(1469304018.742532) can0 024#52000201420A804D
(1469304018.744834) can0 260#0E00000000000078
(1469304018.746108) can0 620#1000FFFFB0500080
(1469304018.747482) can0 0AA#1A6F1A6F1A6F1A6F
(1469304018.748482) can0 263#00000000B2001E
(1469304018.749469) can0 1C4#095528080000FF5A
(1469304018.750495) can0 361#0022000000000000
(1469304018.752611) can0 3BC#0020000000000000
(1469304018.753415) can0 020#0000072B
(1469304018.753564) can0 0BA#060000C4
(1469304018.753843) can0 224#0000000000000008
(1469304018.754559) can0 024#520001FF420C804C
(1469304018.754807) can0 025#000000027000009F
(1469304018.754943) can0 262#000000016A
(1469304018.755167) can0 399#00000000000000
(1469304018.758564) can0 1C8#80
(1469304018.759463) can0 0AA#1A6F1A6F1A6F1A6F
(1469304018.759579) can0 423#00
(1469304018.764759) can0 260#0E00000000000078
(1469304018.765477) can0 020#0000072B
(1469304018.765711) can0 0B4#00000000020000BE
(1469304018.765974) can0 223#000000000000002D
(1469304018.766557) can0 024#520001FA420A8045
(1469304018.766796) can0 025#000000026000008F
(1469304018.767033) can0 1D0#12B4090000AC0054
(1469304018.767876) can0 2C1#080076023FC3004D
(1469304018.769795) can0 351#00000000
(1469304018.771557) can0 0AA#1A6F1A6F1A6F1A6F
(1469304018.773081) can0 263#00000000B2001E
(1469304018.774132) can0 1C4#094128080000FF46
(1469304018.775001) can0 1C8#80
(1469304018.777528) can0 020#0000072B
(1469304018.777664) can0 0BA#060000C4
(1469304018.777935) can0 224#0000000000000008
(1469304018.778557) can0 024#520001F842088041
(1469304018.778743) can0 025#000000027000009F
(1469304018.783608) can0 0AA#1A6F1A6F1A6F1A6F
(1469304018.783770) can0 1AA#0000000000B1
(1469304018.784719) can0 260#0E00000000000078
(1469304018.789554) can0 020#0000072B
(1469304018.789831) can0 0B4#00000000020000BE
(1469304018.790049) can0 223#000000000000002D
(1469304018.790551) can0 024#520001FA42088043
(1469304018.790777) can0 025#000000027000009F
(1469304018.791481) can0 1C8#80
(1469304018.793210) can0 3A0#008E000000000066
(1469304018.794690) can0 262#000000016A
(1469304018.795666) can0 0AA#1A6F1A6F1A6F1A6F
(1469304018.797706) can0 263#00000000B2001E
(1469304018.798733) can0 1C4#093528080000FF3A
(1469304018.799764) can0 1D0#128F090000AC002F
(1469304018.800734) can0 2C1#08007C01E2C300F5
(1469304018.801548) can0 020#0000072B
(1469304018.801770) can0 0BA#060000C4
(1469304018.801992) can0 224#0000000000000008
(1469304018.802486) can0 025#000000027000009F
(1469304018.802730) can0 024#520001FB42088044
(1469304018.804806) can0 260#0E00000000000078
(1469304018.807738) can0 0AA#1A6F1A6F1A6F1A6F
(1469304018.807754) can0 1C8#80
(1469304018.813682) can0 020#0000072B
(1469304018.813952) can0 0B4#00000000020000BE
(1469304018.814141) can0 223#000000000000002D
(1469304018.814583) can0 024#520001FD420A8048
(1469304018.814804) can0 025#000000027000009F
(1469304018.816189) can0 361#001E000000000000
(1469304018.817531) can0 442#4302000001000000
(1469304018.819760) can0 0AA#1A6F1A6F1A6F1A6F
(1469304018.822331) can0 263#00000000B2001E
(1469304018.823357) can0 1C4#093528080000FF3A
(1469304018.824177) can0 1C8#80
(1469304018.824733) can0 260#0E00000000000078
(1469304018.825680) can0 020#0000072B
(1469304018.825815) can0 0BA#060000C4
(1469304018.826082) can0 224#0000000000000008
(1469304018.826508) can0 025#000000027000009F
(1469304018.826757) can0 024#520001FF420A804A
(1469304018.829729) can0 351#00000000
(1469304018.831752) can0 0AA#1A6F1A6F1A6F1A6F
(1469304018.831983) can0 1AA#0000000000B1
(1469304018.832584) can0 1D0#1274090000AC0014
(1469304018.833557) can0 2C1#08007E0195C300AA
(1469304018.834653) can0 262#000000016A
(1469304018.837726) can0 020#0000072B
(1469304018.838005) can0 0B4#00000000020000BE
(1469304018.838242) can0 223#000000000000002D
(1469304018.838583) can0 025#000000027000009F
(1469304018.838780) can0 024#520001FF420A804A
(1469304018.840615) can0 1C8#80
(1469304018.843863) can0 0AA#1A6F1A6F1A6F1A6F
(1469304018.844708) can0 260#0E00000000000078
(1469304018.846932) can0 263#00000000B2001E
(1469304018.847994) can0 1C4#091C28080000FF21
(1469304018.849777) can0 020#0000072B
(1469304018.849889) can0 0BA#060000C4
(1469304018.850177) can0 224#0000000000000008
(1469304018.850464) can0 025#000000027000009F
(1469304018.850687) can0 024#520001FD420A8048
(1469304018.855886) can0 0AA#1A6F1A6F1A6F1A6F
(1469304018.857072) can0 1C8#80
(1469304018.861804) can0 020#0000072B
(1469304018.861998) can0 0B4#00000000020000BE
(1469304018.862254) can0 223#000000000000002D
(1469304018.862506) can0 025#000000027000009F
(1469304018.862728) can0 024#520001FA420A8045
(1469304018.864708) can0 260#0E00000000000078
(1469304018.865406) can0 1D0#124E090000AC00EE
(1469304018.866383) can0 2C1#080088014FC4006F
(1469304018.867884) can0 0AA#1A6F1A6F1A6F1A6F
(1469304018.871555) can0 263#00000000B2001E
(1469304018.872583) can0 1C4#090928080000FF0E
(1469304018.873473) can0 1C8#80
(1469304018.873806) can0 020#0000072B
(1469304018.873969) can0 0BA#060000C4
(1469304018.874212) can0 224#0000000000000008
(1469304018.874452) can0 025#000000027000009F
(1469304018.874671) can0 024#520001FA42088043
(1469304018.874888) can0 262#000000016A
(1469304018.879903) can0 0AA#1A6F1A6F1A6F1A6F
(1469304018.880082) can0 1AA#0000000000B1
(1469304018.881805) can0 361#001B000000000000
(1469304018.884698) can0 260#0E00000000000078
(1469304018.885896) can0 020#0000072B
(1469304018.886179) can0 0B4#00000000020000BE
(1469304018.886354) can0 223#000000000000002D
(1469304018.886603) can0 024#520001FA42088043
(1469304018.886850) can0 025#000000027000009F
(1469304018.889745) can0 351#00000000
(1469304018.889853) can0 1C8#80
(1469304018.890558) can0 3B1#00000D0A00080000
(1469304018.891953) can0 0AA#1A6F1A6F1A6F1A6F
(1469304018.892181) can0 3A0#008E000000000066
(1469304018.895009) can0 620#1080FFFFB0500040
(1469304018.896117) can0 263#00000000B2001E
(1469304018.897224) can0 1C4#08F928080000FFFD
(1469304018.897941) can0 020#0000072B
(1469304018.898055) can0 0BA#060000C4
(1469304018.898320) can0 1D0#1226090000AC00C6
(1469304018.898553) can0 025#000000027000009F
(1469304018.898831) can0 024#520001FB42088044
(1469304018.899062) can0 224#0000000000000008
(1469304018.899284) can0 2C1#08008C0110C40034
(1469304018.904023) can0 0AA#1A6F1A6F1A6F1A6F
(1469304018.904698) can0 260#0E00000000000078
(1469304018.905196) can0 354#01
(1469304018.906338) can0 1C8#80
(1469304018.909971) can0 020#0000072B
(1469304018.910193) can0 0B4#00000000020000BE
(1469304018.910457) can0 025#000000027000009F
(1469304018.910652) can0 024#520001FF42088048
(1469304018.910910) can0 223#000000000000002D
(1469304018.914669) can0 262#000000016A
(1469304018.916052) can0 0AA#1A6F1A6F1A6F1A6F
(1469304018.917149) can0 443#4002002F06000000
(1469304018.920800) can0 263#00000000B2001E
(1469304018.921790) can0 1C4#08E528080000FFE9
(1469304018.921971) can0 020#0000072B
(1469304018.922104) can0 0BA#060000C4
(1469304018.922367) can0 224#0000000000000008
(1469304018.922582) can0 024#520001FF42088048
(1469304018.922915) can0 025#000000027000009F
(1469304018.922929) can0 1C8#80
(1469304018.924753) can0 260#0E00000000000078
(1469304018.925197) can0 4DC#1D00000200000000
(1469304018.928085) can0 0AA#1A6F1A6F1A6F1A6F
(1469304018.928245) can0 1AA#0000000000B1
(1469304018.931101) can0 1D0#11F7090000AC0096
(1469304018.932043) can0 2C1#08009400DBC40006
(1469304018.934017) can0 020#0000072B
(1469304018.934297) can0 0B4#00000000020000BE
(1469304018.934476) can0 025#000000027000009F
(1469304018.934738) can0 024#520001FD420A8048
(1469304018.934975) can0 223#000000000000002D
(1469304018.939143) can0 1C8#80
(1469304018.940156) can0 0AA#1A6F1A6F1A6F1A6F
(1469304018.944682) can0 260#0E00000000000078
(1469304018.945426) can0 263#00000000B2001E
(1469304018.946099) can0 020#0000072B
(1469304018.946193) can0 0BA#060000C4
(1469304018.946534) can0 025#000000027000009F
(1469304018.946702) can0 024#520001FA420A8045
(1469304018.946955) can0 1C4#08D028080000FFD4
(1469304018.947210) can0 224#0000000000000008
(1469304018.947512) can0 361#0019000000000000
(1469304018.949661) can0 351#00000000
(1469304018.952360) can0 0AA#1A6F1A6F1A6F1A6F
(1469304018.954575) can0 262#000000016A
(1469304018.955593) can0 1C8#80
(1469304018.958326) can0 020#0000072B
(1469304018.958527) can0 0B4#00000000020000BE
(1469304018.958781) can0 024#520001F842088041
(1469304018.959002) can0 223#000000000000002D
(1469304018.959534) can0 025#000000027000009F
(1469304018.963933) can0 1D0#11BD090000AC005C
(1469304018.964403) can0 0AA#1A6F1A6F1A6F1A6F
(1469304018.964603) can0 260#0E00000000000078
(1469304018.964857) can0 2C1#08009B00AAC400DC
(1469304018.966980) can0 3F9#5198260100000014
(1469304018.969598) can0 394#4300
(1469304018.970068) can0 263#00000000B2001E
(1469304018.970261) can0 020#0000072B
(1469304018.970443) can0 0BA#060000C4
(1469304018.970696) can0 024#520001FA42088043
(1469304018.970944) can0 224#0000000000000008
(1469304018.971174) can0 1C4#08C528080000FFC9
(1469304018.971452) can0 025#000000027000009F
(1469304018.971916) can0 1C8#80
(1469304018.972184) can0 387#0000000000003F3F
(1469304018.976333) can0 0AA#1A6F1A6F1A6F1A6F
(1469304018.976575) can0 1AA#0000000000B1
(1469304018.982351) can0 020#0000072B
(1469304018.982553) can0 0B4#00000000020000BE
(1469304018.982811) can0 223#000000000000002D
(1469304018.983453) can0 025#000000027000009F
(1469304018.983622) can0 024#520001FB42088044
(1469304018.984679) can0 260#0800000000000072
(1469304018.987368) can0 3D0#00
(1469304018.988509) can0 0AA#1A6F1A6F1A6F1A6F
(1469304018.988526) can0 1C8#80
(1469304018.990606) can0 4DD#1E00000000000000
(1469304018.994207) can0 3A0#008C000000000066
(1469304018.994301) can0 020#0000072B
(1469304018.994549) can0 0BA#060000C4
(1469304018.994745) can0 224#0000000000000008
(1469304018.994913) can0 262#000000016A
(1469304018.995164) can0 263#00000000B2001E
(1469304018.995452) can0 025#000000027000009F
(1469304018.995655) can0 024#520001FF42088048
(1469304018.995846) can0 1C4#08B228080000FFB6
(1469304018.996674) can0 1D0#1194090000AC0033
(1469304018.997627) can0 2C1#0800A20081C500BB
(1469304019.000429) can0 0AA#1A6F1A6F1A6F1A6F
(1469304019.002126) can0 389#0000000000000000
(1469304019.004631) can0 260#08FFFF0000000070
(1469304019.004771) can0 1C8#80
(1469304019.006400) can0 020#0000072B
(1469304019.006567) can0 0B4#00000000020000BE
(1469304019.006852) can0 223#000000000000002D
(1469304019.007345) can0 025#000000027000009F
(1469304019.007585) can0 024#520001FF42088048
(1469304019.009628) can0 351#00000000
(1469304019.012431) can0 0AA#1A6F1A6F1A6F1A6F
(1469304019.013117) can0 361#0018000000000000
(1469304019.014993) can0 622#1280581000000000
(1469304019.018500) can0 020#0000072B
(1469304019.018529) can0 0BA#060000C4
(1469304019.018868) can0 224#0000000000000008
(1469304019.019314) can0 263#00000000B2001E
(1469304019.019502) can0 025#000000027000009F
(1469304019.019757) can0 024#520001FF420A804A
(1469304019.020002) can0 440#4202001101000000
(1469304019.020306) can0 1C4#089628080000FF9A
(1469304019.021173) can0 1C8#80
(1469304019.024556) can0 0AA#1A6F1A6F1A6F1A6F
(1469304019.024724) can0 1AA#0000000000B1
(1469304019.024981) can0 260#0800000000000072
(1469304019.025203) can0 3B7#583B000000000008
(1469304019.029607) can0 1D0#115C090000AC00FB
(1469304019.030552) can0 2C1#0800AC0060C500A4
(1469304019.030645) can0 020#0000072B
(1469304019.030969) can0 0B4#00000000020000BE
(1469304019.031170) can0 223#000000000000002D
(1469304019.031457) can0 025#000000027000009F
(1469304019.031654) can0 024#520001FB420A8046
(1469304019.032124) can0 38E#2020000000000000
(1469304019.034623) can0 262#000000016A
(1469304019.036607) can0 0AA#1A6F1A6F1A6F1A6F
(1469304019.037642) can0 1C8#80
(1469304019.042526) can0 020#0000072B
(1469304019.042621) can0 0BA#060000C4
(1469304019.042926) can0 224#0000000000000008
(1469304019.043283) can0 025#000000027000009F
(1469304019.043612) can0 024#520001FB420A8046
(1469304019.043900) can0 263#00000000B2001E
(1469304019.044628) can0 260#0800000000000072
(1469304019.044975) can0 1C4#088228080000FF86
(1469304019.048658) can0 0AA#1A6F1A6F1A6F1A6F
(1469304019.054032) can0 1C8#80
(1469304019.054572) can0 020#0000072B
(1469304019.054779) can0 0B4#00000000020000BE
(1469304019.055029) can0 223#000000000000002D
(1469304019.055375) can0 025#000000027000009F
(1469304019.055587) can0 024#520001FA420A8045
(1469304019.060656) can0 0AA#1A6F1A6F1A6F1A6F
(1469304019.062178) can0 38F#0300000000000000
(1469304019.062377) can0 1D0#112A090000AC00C9
(1469304019.063357) can0 2C1#0800B20048C50092
(1469304019.064604) can0 260#0800000000000072
(1469304019.066597) can0 020#0000072B
(1469304019.066690) can0 0BA#060000C4
(1469304019.067043) can0 224#0000000000000008
(1469304019.067245) can0 025#000000027000009F
(1469304019.067640) can0 024#520001FA420A8045
(1469304019.068579) can0 263#00000000B2001E
(1469304019.069579) can0 1C4#087228080000FF76
(1469304019.069672) can0 351#00000000
(1469304019.070492) can0 1C8#80
(1469304019.072733) can0 0AA#1A6F1A6F1A6F1A6F
(1469304019.072874) can0 1AA#0000000000B1
(1469304019.074474) can0 262#000000016A
(1469304019.075125) can0 380#C0A0400000004000
(1469304019.075452) can0 3B0#00B5005600180000
(1469304019.078652) can0 020#0000072B
(1469304019.078887) can0 0B4#00000000020000BE
(1469304019.079104) can0 223#000000000000002D
(1469304019.079356) can0 025#000000026000008F
(1469304019.079616) can0 361#0017000000000000
(1469304019.079921) can0 024#520001FD420A8048
(1469304019.084540) can0 260#0800000000000072
(1469304019.084757) can0 0AA#1A6F1A6F1A6F1A6F
(1469304019.086919) can0 1C8#80
(1469304019.090029) can0 6E1#A180000000100000
(1469304019.090672) can0 020#0000072B
(1469304019.090765) can0 0BA#060000C4
(1469304019.091122) can0 224#0000000000000008
(1469304019.091318) can0 025#000000027000009F
(1469304019.091556) can0 3A5#0000000000007EFC
(1469304019.091801) can0 024#520001FD420A8048
(1469304019.093127) can0 3A0#008C000007000066
(1469304019.093350) can0 263#00000000B2001E
(1469304019.094228) can0 1C4#085B28080000FF5F
(1469304019.095253) can0 1D0#10EE090000AC008C
(1469304019.096232) can0 2C1#0800BB0032C50085
(1469304019.096780) can0 0AA#1A6F1A6F1A6F1A6F
(1469304019.102727) can0 020#0000072B
(1469304019.102929) can0 0B4#00000000020000BE
(1469304019.103185) can0 223#000000000000002D
(1469304019.103457) can0 025#000000027000009F
(1469304019.103661) can0 024#520001FF420A804A
(1469304019.103715) can0 1C8#80
(1469304019.104547) can0 260#0800000000000072
(1469304019.108827) can0 0AA#1A6F1A6F1A6F1A6F
(1469304019.110493) can0 354#01
(1469304019.111195) can0 382#2338380000000000
(1469304019.111511) can0 381#0001019080000000
(1469304019.114505) can0 262#000000016A
(1469304019.114729) can0 020#0000072B
(1469304019.114906) can0 0BA#060000C4
(1469304019.115144) can0 224#0000000000000008
(1469304019.115462) can0 025#000000027000009F
(1469304019.115616) can0 024#520001FF420C804C
(1469304019.117518) can0 442#4302000001000000
(1469304019.117766) can0 263#00000000B2001E
(1469304019.118837) can0 1C4#084928080000FF4D
(1469304019.119731) can0 1C8#80
(1469304019.120885) can0 0AA#1A6F1A6F1A6F1A6F
(1469304019.121019) can0 1AA#0000000000B1
(1469304019.122185) can0 413#0101010900000000
(1469304019.124565) can0 260#0800000000000072
(1469304019.126830) can0 020#0000072B
(1469304019.127032) can0 0B4#00000000020000BE
(1469304019.127288) can0 025#000000027000009F
(1469304019.127537) can0 223#000000000000002D
(1469304019.127757) can0 024#520001FB420A8046
(1469304019.128043) can0 1D0#10B4090000AC0052
(1469304019.129061) can0 2C1#08014E0020CA000C
(1469304019.129654) can0 351#00000000
(1469304019.132937) can0 0AA#1A6F1A6F1A6F1A6F
(1469304019.136132) can0 1C8#80
(1469304019.138853) can0 020#0000072B
(1469304019.138938) can0 0BA#060000C4
(1469304019.139267) can0 224#0000000000000008
(1469304019.139492) can0 025#000000027000009F
(1469304019.139717) can0 024#520001FA420A8045
(1469304019.142501) can0 263#00000000B2001E
(1469304019.143502) can0 1C4#083628080000FF3A
(1469304019.144511) can0 361#0016000000000000
(1469304019.144705) can0 260#0800000000000072
(1469304019.144931) can0 0AA#1A6F1A6F1A6F1A6F
(1469304019.150873) can0 020#0000072B
(1469304019.151089) can0 0B4#00000000020000BE
(1469304019.151376) can0 025#000000027000009F
(1469304019.151597) can0 223#000000000000002D
(1469304019.151833) can0 024#520001FB420A8046
(1469304019.152085) can0 434#3F00000000000000
(1469304019.152501) can0 1C8#80
(1469304019.154435) can0 262#000000016A
(1469304019.156956) can0 0AA#1A6F1A6F1A6F1A6F
(1469304019.160906) can0 1D0#1089090000AC0027
(1469304019.161877) can0 2C1#08015A0015CA000D
(1469304019.162898) can0 020#0000072B
(1469304019.163015) can0 0BA#060000C4
(1469304019.163274) can0 224#0000000000000008
(1469304019.163531) can0 025#000000027000009F
(1469304019.163756) can0 024#520001FD420A8048
(1469304019.164577) can0 260#0800000000000072
(1469304019.167104) can0 263#00000000B2001E
(1469304019.168110) can0 1C4#082328080000FF27
(1469304019.169005) can0 0AA#1A6F1A6F1A6F1A6F
(1469304019.169177) can0 1AA#0000000000B1
(1469304019.169196) can0 1C8#80
(1469304019.174953) can0 020#0000072B
(1469304019.175148) can0 0B4#00000000020000BE
(1469304019.175444) can0 025#000000027000009F
(1469304019.175645) can0 024#520001FF420A804A
(1469304019.175877) can0 223#000000000000002D
(1469304019.176130) can0 6E2#A28000FEFEFEFEFE
(1469304019.180656) can0 4AC#2800600100000324
(1469304019.181078) can0 0AA#1A6F1A6F1A6F1A6F
(1469304019.182154) can0 435#0F0505FFE00FE003
(1469304019.184504) can0 260#0800000000000072
(1469304019.185422) can0 1C8#80
(1469304019.186997) can0 020#0000072B
(1469304019.187113) can0 0BA#060000C4
(1469304019.187518) can0 224#0000000000000008
(1469304019.187608) can0 024#52000200420A804C
(1469304019.187925) can0 025#000000027000009F
(1469304019.189546) can0 351#00000000
(1469304019.190654) can0 3B1#00000D0900080000
(1469304019.191733) can0 263#00000000B2001E
(1469304019.192150) can0 3A0#008C000007000066
(1469304019.192754) can0 1C4#081A28080000FF1E
(1469304019.193101) can0 0AA#1A6F1A6F1A6F1A6F
(1469304019.193805) can0 1D0#104F090000AC00ED
(1469304019.194499) can0 262#000000016A
(1469304019.194740) can0 2C1#080161000ECB000E
(1469304019.194981) can0 620#1000FFFFB0500040
(1469304019.198982) can0 020#0000072B
(1469304019.199222) can0 0B4#00000000020000BE
(1469304019.199489) can0 223#000000000000002D
(1469304019.199738) can0 024#520001FF420A804A
(1469304019.200336) can0 025#000000027000009F
(1469304019.201850) can0 1C8#80
(1469304019.204560) can0 260#0800000000000072
(1469304019.205133) can0 0AA#1A6F1A6F1A6F1A6F
(1469304019.210208) can0 361#0016000000000000
(1469304019.211054) can0 020#0000072B
(1469304019.211138) can0 0BA#060000C4
(1469304019.211508) can0 224#0000000000000008
(1469304019.211668) can0 024#520001FB420A8046
(1469304019.211931) can0 436#0000000000000000
(1469304019.212192) can0 025#000000027000009F
(1469304019.216334) can0 263#00000000B2001E
(1469304019.217154) can0 443#4002002F06000000
(1469304019.217339) can0 0AA#1A6F1A6F1A6F1A6F
(1469304019.217533) can0 1AA#0000000000B1
(1469304019.217779) can0 1C4#080E28080000FF12
(1469304019.218267) can0 1C8#80
(1469304019.219539) can0 610#2000006480FFFD60
(1469304019.223296) can0 020#0000072B
(1469304019.223514) can0 0B4#00000000020000BE
(1469304019.223769) can0 024#520001FB42088044
(1469304019.223997) can0 223#000000000000002D
(1469304019.224277) can0 3F9#5198260100000014
(1469304019.224492) can0 025#000000027000009F
(1469304019.224731) can0 260#0800000000000072
(1469304019.226448) can0 3D3#0241
(1469304019.226764) can0 1D0#102D090000AC00CB
(1469304019.227563) can0 2C1#080167000ECB0014
(1469304019.229367) can0 0AA#1A6F1A6F1A6F1A6F
(1469304019.234395) can0 262#000000016A
(1469304019.234688) can0 1C8#80
(1469304019.235333) can0 020#0000072B
(1469304019.235408) can0 0BA#060000C4
(1469304019.235749) can0 024#520001FB42088044
(1469304019.235950) can0 224#0000000000000008
(1469304019.236197) can0 025#000000027000009F
(1469304019.240972) can0 263#00000000B2001E
(1469304019.241423) can0 0AA#1A6F1A6F1A6F1A6F
(1469304019.241998) can0 1C4#07FF28080000FF02
(1469304019.242216) can0 437#FCFFFFFFFFFFFFFF
(1469304019.243867) can0 3D0#00
(1469304019.244496) can0 260#0800000000000072
(1469304019.247342) can0 020#0000072B
(1469304019.247592) can0 0B4#00000000020000BE
(1469304019.247837) can0 024#520001FB42088044
(1469304019.248118) can0 223#000000000000002D
(1469304019.248315) can0 025#000000027000009F
(1469304019.249542) can0 351#00000000
(1469304019.251086) can0 1C8#80
(1469304019.253499) can0 0AA#1A6F1A6F1A6F1A6F
(1469304019.259498) can0 1D0#100E090000AC00AC
(1469304019.259543) can0 020#0000072B
(1469304019.259724) can0 0BA#060000C4
(1469304019.259977) can0 224#0000000000000008
(1469304019.260313) can0 025#000000027000009F
(1469304019.260503) can0 2C1#08016D0010CB001C
(1469304019.260732) can0 024#520001FF42088048
(1469304019.264508) can0 260#0800000000000072
(1469304019.265504) can0 0AA#1A6F1A6F1A6F1A6F
(1469304019.265674) can0 1AA#0000000000B1
(1469304019.265927) can0 263#00000000B2001E
(1469304019.266592) can0 1C4#07FA28080000FFFD
(1469304019.267519) can0 1C8#80
(1469304019.269397) can0 394#4300
(1469304019.271498) can0 020#0000072B
(1469304019.271661) can0 0B4#00000000020000BE
(1469304019.271910) can0 223#000000000000002D
(1469304019.272160) can0 025#000000027000009F
(1469304019.272661) can0 024#520001FF42088048
(1469304019.274430) can0 262#000000016A
(1469304019.275885) can0 361#0016000000000000
(1469304019.277533) can0 0AA#1A6F1A6F1A6F1A6F
(1469304019.283503) can0 020#0000072B
(1469304019.283603) can0 0BA#05FF00C2
(1469304019.283847) can0 224#0000000000000008
(1469304019.284112) can0 025#000000027000009F
(1469304019.284135) can0 1C8#80
(1469304019.284502) can0 260#08FFFF0000000070
(1469304019.284711) can0 024#520001FF42088048
(1469304019.289559) can0 0AA#1A6F1A6F1A6F1A6F
(1469304019.290251) can0 263#00000000B2001E
(1469304019.291284) can0 1C4#07F228080000FFF5
(1469304019.292331) can0 1D0#0FFC090000AC0099
(1469304019.293279) can0 2C1#0801760015CB002A
(1469304019.294155) can0 3A0#008C000007000066
(1469304019.295460) can0 020#0000072B
(1469304019.295737) can0 0B4#00000000000000BC
(1469304019.295957) can0 223#000000000000002D
(1469304019.296353) can0 025#000000027000009F
(1469304019.296683) can0 024#520001FB42088044
(1469304019.300372) can0 1C8#80
(1469304019.301627) can0 0AA#1A6F1A6F1A6F1A6F
(1469304019.304413) can0 260#0800000000000072
(1469304019.307557) can0 020#0000072B
(1469304019.307697) can0 0BA#05FB00BE
(1469304019.307936) can0 224#0000000000000008
(1469304019.308240) can0 025#000000027000009F
(1469304019.308638) can0 024#020001FB420880F4
(1469304019.309482) can0 351#00000000
(1469304019.313667) can0 0AA#1A6F1A6F1A6F1A6F
(1469304019.313821) can0 1AA#0000000000B1
(1469304019.314331) can0 262#000000016A
(1469304019.314861) can0 263#00000000B2001E
(1469304019.315897) can0 1C4#07E728080000FFEA
(1469304019.315910) can0 354#01
(1469304019.316755) can0 1C8#80
(1469304019.319586) can0 020#0000072B
(1469304019.319855) can0 0B4#00000000000000BC
(1469304019.320108) can0 025#000000027000009F
(1469304019.320358) can0 223#000000000000002D
(1469304019.320565) can0 440#4202001101000000
(1469304019.320797) can0 024#020001FB420880F4
(1469304019.324451) can0 260#0800000000000072
(1469304019.325142) can0 1D0#0FE8090000AC0085
(1469304019.325688) can0 0AA#1A6F1A6F1A6F1A6F
(1469304019.325938) can0 3B7#583B000000000008
(1469304019.326134) can0 2C1#0800EE001EC700A6
(1469304019.331595) can0 020#0000072B
(1469304019.331767) can0 0BA#05FB00BE
(1469304019.332036) can0 224#0000000000000008
(1469304019.332324) can0 025#000000027000009F
(1469304019.332640) can0 024#020001FD420880F6
(1469304019.333144) can0 1C8#80
(1469304019.337699) can0 0AA#1A6F1A6F1A6F1A6F
(1469304019.339487) can0 263#00000000B2001E
(1469304019.340516) can0 1C4#07DA28080000FFDD
(1469304019.341540) can0 361#0016000000000000
(1469304019.343641) can0 020#0000072B
(1469304019.343912) can0 0B4#00000000000000BC
(1469304019.344162) can0 025#000000027000009F
(1469304019.344416) can0 223#000000000000002D
(1469304019.344667) can0 260#0800000000000072
(1469304019.344847) can0 024#020001FF420880F8
(1469304019.349696) can0 1C8#80
(1469304019.349801) can0 0AA#1A6F1A6F1A6F1A6F
(1469304019.354241) can0 262#000000016A
(1469304019.355606) can0 020#0000072B
(1469304019.355758) can0 0BA#05FF00C2
(1469304019.356091) can0 224#0000000000000008
(1469304019.356291) can0 025#000000027000009F
(1469304019.356605) can0 024#020001FF420A80FA
(1469304019.357882) can0 1D0#0FC8090000AC0065
(1469304019.358879) can0 2C1#0801020025C800C3
(1469304019.361804) can0 0AA#1A6F1A6F1A6F1A6F
(1469304019.361988) can0 1AA#0000000000B1
(1469304019.364102) can0 263#00000000B2001E
(1469304019.364412) can0 260#08FFFF0000FFF160
(1469304019.365129) can0 1C4#07CD28080000FFD0
(1469304019.366018) can0 1C8#80
(1469304019.367749) can0 020#0000072B
(1469304019.367980) can0 0B4#00000000000000BC
(1469304019.368281) can0 025#000000027000009F
(1469304019.368452) can0 223#000000000000002D
(1469304019.368706) can0 024#020001FD420A80F8
(1469304019.369454) can0 351#00000000
(1469304019.373795) can0 0AA#1A6F1A6F1A6F1A6F
(1469304019.379776) can0 020#0000072B
(1469304019.379874) can0 0BA#05FD00C0
(1469304019.380149) can0 224#0000000000000008
(1469304019.380507) can0 025#000000027000009F
(1469304019.380603) can0 024#020001FB420A80F6
(1469304019.382494) can0 1C8#80
(1469304019.384406) can0 260#0800000000000072
(1469304019.385883) can0 0AA#1A6F1A6F1A6F1A6F
(1469304019.388730) can0 263#00000000B2001E
(1469304019.389754) can0 1C4#07BA28080000FFBD
(1469304019.390738) can0 1D0#0FA4090000AC0041
(1469304019.391767) can0 2C1#080112002AC800D8
(1469304019.391859) can0 020#0000072B
(1469304019.392176) can0 0B4#00000000000000BC
(1469304019.392375) can0 223#000000000000002D
(1469304019.392635) can0 024#020001FB420A80F6
(1469304019.393053) can0 025#000000027000009F
(1469304019.393250) can0 3A0#008C000007000066
(1469304019.394524) can0 262#000000016A
(1469304019.397883) can0 0AA#1A6F1A6F1A6F1A6F
(1469304019.398845) can0 1C8#80
(1469304019.403826) can0 020#0000072B
(1469304019.403906) can0 0BA#05FB00BE
(1469304019.404243) can0 224#0000000000000008
(1469304019.404453) can0 260#0800000000FFEE5F
(1469304019.404680) can0 024#020001FB420A80F6
(1469304019.404928) can0 025#000000027000009F
(1469304019.407205) can0 361#0016000000000000
(1469304019.409932) can0 0AA#1A6F1A6F1A6F1A6F
(1469304019.410074) can0 1AA#0000000000B1
(1469304019.413330) can0 263#00000000B2001E
(1469304019.414354) can0 1C4#07B028080000FFB3
(1469304019.415243) can0 1C8#80
(1469304019.415877) can0 020#0000072B
(1469304019.416076) can0 0B4#00000000000000BC
(1469304019.416330) can0 223#000000000000002D
(1469304019.416679) can0 024#020001FB420A80F6
(1469304019.417027) can0 025#000000027000009F
(1469304019.417553) can0 442#4302000001000000
(1469304019.421965) can0 0AA#1A6F1A6F1A6F1A6F
(1469304019.423611) can0 1D0#0F7D090000AC001A
(1469304019.424357) can0 260#0800000000001486
(1469304019.424553) can0 2C1#08013F0028C90004
(1469304019.427902) can0 020#0000072B
(1469304019.427995) can0 0BA#05FB00BE
(1469304019.428313) can0 224#0000000000000008
(1469304019.428700) can0 024#020001FD420A80F8
(1469304019.428902) can0 025#000000027000009F
(1469304019.429377) can0 351#00000000
(1469304019.431658) can0 1C8#80
(1469304019.433980) can0 0AA#1A6F1A6F1A6F1A6F
(1469304019.434288) can0 262#000000016A
(1469304019.438006) can0 263#00000000B2001E
(1469304019.438954) can0 1C4#07A628080000FFA9
(1469304019.439907) can0 020#0000072B
(1469304019.440132) can0 0B4#00000000000000BC
(1469304019.440357) can0 223#000000000000002D
(1469304019.440689) can0 024#020001FD420A80F8
(1469304019.440962) can0 025#000000027000009F
(1469304019.444431) can0 260#08FFFF0000000070
(1469304019.446029) can0 0AA#1A6F1A6F1A6F1A6F
(1469304019.448095) can0 1C8#80
(1469304019.451954) can0 020#0000072B
(1469304019.452057) can0 0BA#05FD00C0
(1469304019.452393) can0 224#0000000000000008
(1469304019.452709) can0 024#020001FD420A80F8
(1469304019.452902) can0 025#000000027000009F
(1469304019.456505) can0 1D0#0F59090000AC00F6
(1469304019.457429) can0 2C1#0801320023C900F2
(1469304019.458055) can0 0AA#1A6F1A6F1A6F1A6F
(1469304019.458224) can0 1AA#0000000000B1
(1469304019.462603) can0 263#00000000B2001E
(1469304019.463635) can0 1C4#079328080000FF96
(1469304019.463996) can0 020#0000072B
(1469304019.464229) can0 0B4#00000000000000BC
(1469304019.464474) can0 223#000000000000002D
(1469304019.464724) can0 024#020001FD420A80F8
(1469304019.464971) can0 025#000000027000009F
(1469304019.464996) can0 1C8#80
(1469304019.465363) can0 260#0800000000000072
(1469304019.465452) can0 3BB#0000B200
(1469304019.470112) can0 0AA#1A6F1A6F1A6F1A6F
(1469304019.472880) can0 361#0016000000000000
(1469304019.474249) can0 262#000000016A
(1469304019.476026) can0 020#0000072B
(1469304019.476171) can0 0BA#05FD00C0
(1469304019.476459) can0 224#0000000000000008
(1469304019.476686) can0 024#020001FD420A80F8
(1469304019.476990) can0 025#000000027000009F
(1469304019.480060) can0 3F9#5198260100000014
(1469304019.480944) can0 1C8#80
(1469304019.482280) can0 0AA#1A6F1A6F1A6F1A6F
(1469304019.484308) can0 260#0800000000000072
(1469304019.487226) can0 263#00000000B2001E
(1469304019.488265) can0 1C4#078228080000FF85
(1469304019.488335) can0 020#0000072B
(1469304019.488678) can0 0B4#00000000000000BC
(1469304019.488877) can0 025#000000027000009F
(1469304019.489128) can0 223#000000000000002D
(1469304019.489361) can0 1D0#0F39090000AC00D6
(1469304019.489498) can0 351#00000000
(1469304019.489785) can0 024#020001FD420A80F8
(1469304019.490008) can0 4C3#0300000100000000
(1469304019.490258) can0 2C1#0801480022CA0008
(1469304019.494261) can0 0AA#1A6F1A6F1A6F1A6F
(1469304019.494953) can0 620#1000FFFFB0500040
(1469304019.495152) can0 3A0#008C000007000066
(1469304019.497298) can0 1C8#80
(1469304019.500247) can0 020#0000072B
(1469304019.500341) can0 0BA#05FD00C0
(1469304019.500678) can0 224#0000000000000008
(1469304019.500878) can0 024#020001FD420880F6
(1469304019.501132) can0 025#000000027000009F
(1469304019.501186) can0 3D0#00
(1469304019.504336) can0 260#0800000000000072
(1469304019.506355) can0 0AA#1A6F1A6F1A6F1A6F
(1469304019.506501) can0 1AA#0000000000B1
(1469304019.511829) can0 263#00000000B2001E
(1469304019.512270) can0 020#0000072B
(1469304019.512479) can0 0B4#00000000000000BC
(1469304019.512733) can0 024#020001FD420A80F8
(1469304019.512979) can0 025#000000027000009F
(1469304019.513252) can0 1C4#076628080000FF69
(1469304019.513457) can0 223#000000000000002D
(1469304019.513757) can0 1C8#80
(1469304019.514311) can0 262#000000016A
(1469304019.517157) can0 443#4002002F06000000
(1469304019.518406) can0 0AA#1A6F1A6F1A6F1A6F
(1469304019.520919) can0 354#01
(1469304019.522130) can0 1D0#0F0F090000AC00AC
(1469304019.523044) can0 2C1#0801B90021CD007B
(1469304019.524305) can0 260#08FFFF0000000070
(1469304019.524447) can0 020#0000072B
(1469304019.524532) can0 0BA#05FD00C0
(1469304019.524893) can0 025#000000027000009F
(1469304019.525088) can0 224#0000000000000008
(1469304019.525678) can0 024#020001FD420A80F8
(1469304019.530122) can0 1C8#80
(1469304019.530352) can0 0AA#1A6F1A6F1A6F1A6F
(1469304019.536381) can0 020#0000072B
(1469304019.536613) can0 0B4#00000000000000BC
(1469304019.536916) can0 024#020001FD420880F6
(1469304019.537101) can0 025#000000027000009F
(1469304019.537329) can0 223#000000000000002D
(1469304019.537551) can0 263#00000000B2001E
(1469304019.537893) can0 1C4#075E28080000FF61
(1469304019.538484) can0 361#0016000000000000
(1469304019.542505) can0 0AA#1A6F1A6F1A6F1A6F
(1469304019.544283) can0 260#0800000000000072
(1469304019.546599) can0 1C8#80
(1469304019.548426) can0 020#0000072B
(1469304019.548519) can0 0BA#05FD00C0
(1469304019.548846) can0 025#000000027000009F
(1469304019.549045) can0 224#0000000000000008
(1469304019.549237) can0 351#00000000
(1469304019.549703) can0 024#020001FD420A80F8
(1469304019.549902) can0 621#1100000000000000
(1469304019.554224) can0 262#000000016A
(1469304019.554533) can0 0AA#1A6F1A6F1A6F1A6F
(1469304019.554674) can0 1AA#0000000000B1
(1469304019.554931) can0 1D0#0EDB090000AC0077
(1469304019.555906) can0 2C1#0801730022CB0034
(1469304019.559955) can0 623#1900000000000000
(1469304019.560503) can0 020#0000072B
(1469304019.560671) can0 0B4#00000000000000BC
(1469304019.560971) can0 025#000000027000009F
(1469304019.561144) can0 223#000000000000002D
(1469304019.561371) can0 263#00000000B2001E
(1469304019.561658) can0 024#020001FD420880F6
(1469304019.562062) can0 1C4#074D28080000FF50
(1469304019.562284) can0 4C1#0100000500000000
(1469304019.562912) can0 1C8#80
(1469304019.564285) can0 260#0800000000000072
(1469304019.566509) can0 0AA#1A6F1A6F1A6F1A6F
(1469304019.568962) can0 624#1A00414949400000
(1469304019.569171) can0 394#4300
(1469304019.572501) can0 020#0000072B
(1469304019.572581) can0 0BA#05FD00C0
(1469304019.572877) can0 224#0000000000000008
(1469304019.573124) can0 025#000000027000009F
(1469304019.573661) can0 024#020001FD420A80F8
(1469304019.577981) can0 626#1C00300000000000
(1469304019.578603) can0 0AA#1A6F1A6F1A6F1A6F
(1469304019.579394) can0 1C8#80
(1469304019.584234) can0 260#08FFFF0000000070
(1469304019.584547) can0 020#0000072B
(1469304019.584752) can0 0B4#00000000000000BC
(1469304019.585053) can0 025#000000027000009F
(1469304019.585251) can0 223#000000000000002D
(1469304019.585706) can0 024#020001FB420880F4
(1469304019.585876) can0 263#00000000B2001E
(1469304019.586688) can0 1C4#074628080000FF49
(1469304019.586908) can0 638#1300180100000000
(1469304019.587677) can0 1D0#0EB1090000AC004D
(1469304019.588671) can0 2C1#0801800024CC0044
(1469304019.590654) can0 0AA#1A6F1A6F1A6F1A6F
(1469304019.594059) can0 3A0#008D000007000066
(1469304019.594248) can0 262#000000016A
(1469304019.595931) can0 63C#98005A5245172060
(1469304019.595948) can0 1C8#80
(1469304019.596607) can0 020#0000072B
(1469304019.596700) can0 0BA#05FB00BE
(1469304019.597020) can0 025#000000027000009F
(1469304019.597218) can0 224#0000000000000008
(1469304019.597678) can0 024#020001FB420880F4
(1469304019.602662) can0 0AA#1A6F1A6F1A6F1A6F
(1469304019.602884) can0 1AA#0000000000B1
(1469304019.604121) can0 361#0016000000000000
(1469304019.604438) can0 260#08FFFF0000000070
(1469304019.604930) can0 63D#9900444558534B00
(1469304019.608650) can0 020#0000072B
(1469304019.608819) can0 0B4#00000000000000BC
(1469304019.609073) can0 223#000000000000002D
(1469304019.609242) can0 351#00000000
(1469304019.609632) can0 024#020001FB420880F4
(1469304019.609888) can0 025#000000027000009F
(1469304019.610229) can0 263#00000000B2001E
(1469304019.611308) can0 1C4#072F28080000FF32
(1469304019.612195) can0 1C8#80
(1469304019.613878) can0 680#D800010000000000
(1469304019.614693) can0 0AA#1A6F1A6F1A6F1A6F
(1469304019.618557) can0 640#A800005701350000
(1469304019.619888) can0 440#4202001101000000
(1469304019.620508) can0 1D0#0E85090000AC0021
(1469304019.620713) can0 020#0000072B
(1469304019.620838) can0 0BA#05FB00BE
(1469304019.621090) can0 224#0000000000000008
(1469304019.621376) can0 420#00000000FB0180A8
(1469304019.621629) can0 2C1#080198002ACC0062
(1469304019.621863) can0 024#020001FB420880F4
(1469304019.622166) can0 025#000000027000009F
(1469304019.624307) can0 260#08FFFF0000000070
(1469304019.626829) can0 0AA#1A6F1A6F1A6F1A6F
(1469304019.627002) can0 3B7#583B000000000008
(1469304019.628645) can0 1C8#80
(1469304019.632751) can0 020#0000072B
(1469304019.632986) can0 0B4#00000000000000BC
(1469304019.633289) can0 223#000000000000002D
(1469304019.633708) can0 024#020001FD420A80F8
(1469304019.633902) can0 025#000000027000009F
(1469304019.634127) can0 262#000000016A
(1469304019.634901) can0 263#00000000B2001E
(1469304019.635953) can0 1C4#071928080000FF1C
(1469304019.639078) can0 0AA#1A6F1A6F1A6F1A6F
(1469304019.644207) can0 260#0800000000000072
(1469304019.644804) can0 020#0000072B
(1469304019.644897) can0 0BA#05FD00C0
(1469304019.645245) can0 224#0000000000000008
(1469304019.645262) can0 1C8#80
(1469304019.645706) can0 024#020001FD420A80F8
(1469304019.645876) can0 025#000000027000009F
(1469304019.650906) can0 0AA#1A6F1A6F1A6F1A6F
(1469304019.651019) can0 1AA#0000000000B1
(1469304019.653434) can0 1D0#0E5A090000AC00F6
(1469304019.654382) can0 2C1#0802500033D2002A
(1469304019.656829) can0 020#0000072B
(1469304019.657032) can0 0B4#00000000000000BC
(1469304019.657284) can0 223#000000000000002D
(1469304019.657673) can0 024#020001FD420880F6
(1469304019.657894) can0 025#000000027000009F
(1469304019.659558) can0 263#00000000B2001E
(1469304019.660547) can0 1C4#070B28080000FF0E
(1469304019.661426) can0 1C8#80
(1469304019.662932) can0 0AA#1A6F1A6F1A6F1A6F
(1469304019.664217) can0 260#08FFFF0000FFF160
(1469304019.665957) can0 4C6#0700030000000000
(1469304019.668884) can0 020#0000072B
(1469304019.668971) can0 0BA#05FD00C0
(1469304019.669327) can0 224#0000000000000008
(1469304019.669412) can0 351#00000000
(1469304019.669688) can0 024#020001FB420880F4
(1469304019.669909) can0 025#000000027000009F
(1469304019.670164) can0 361#0016000000000000
(1469304019.674156) can0 262#000000016A
(1469304019.674993) can0 0AA#1A6F1A6F1A6F1A6F
(1469304019.677926) can0 1C8#80
(1469304019.680736) can0 4AC#4800A00100000324
(1469304019.680897) can0 020#0000072B
(1469304019.681155) can0 0B4#00000000000000BC
(1469304019.681432) can0 223#000000000000002D
(1469304019.681630) can0 024#020001FB420A80F6
(1469304019.681896) can0 025#000000027000009F
(1469304019.684236) can0 260#08FFFF0000000070
(1469304019.684466) can0 263#00000000B2001E
(1469304019.685163) can0 1C4#06F928080000FFFB
(1469304019.686284) can0 1D0#0E30090000AC00CC
(1469304019.687060) can0 0AA#1A6F1A6F1A6F1A6F
(1469304019.687244) can0 2C1#0801C4003ACE00A0
(1469304019.690711) can0 3B1#00000D0500080000
(1469304019.692978) can0 020#0000072B
(1469304019.693064) can0 0BA#05FB00BE
(1469304019.693419) can0 224#0000000000000008
(1469304019.693623) can0 3A0#008D000007000066
(1469304019.693871) can0 024#020001FD420A80F8
(1469304019.694108) can0 025#000000027000009F
(1469304019.694305) can0 1C8#80
(1469304019.699260) can0 0AA#1A6F1A6F1A6F1A6F
(1469304019.699463) can0 1AA#0000000000B1
(1469304019.704188) can0 260#0800000000000072
(1469304019.705203) can0 020#0000072B
(1469304019.705467) can0 0B4#00000000000000BC
(1469304019.705694) can0 025#000000027000009F
(1469304019.705922) can0 024#020001FD420A80F8
(1469304019.706223) can0 223#000000000000002D
(1469304019.708835) can0 263#00000000B2001E
(1469304019.709883) can0 1C4#06F328080000FFF5
(1469304019.710706) can0 1C8#80
(1469304019.711257) can0 0AA#1A6F1A6F1A6F1A6F
(1469304019.714106) can0 262#000000016A
(1469304019.717253) can0 020#0000072B
(1469304019.717339) can0 0BA#05FD00C0
(1469304019.717684) can0 224#0000000000000008
(1469304019.717888) can0 024#020001FF420A80FA
(1469304019.718138) can0 025#000000027000009F
(1469304019.718388) can0 442#4302000001000000
(1469304019.718608) can0 610#2000006480FFFD60
(1469304019.719060) can0 1D0#0E01090000AC009D
(1469304019.719281) can0 4C8#0900000000000000
(1469304019.720018) can0 2C1#0801C70041CE00AA
(1469304019.723359) can0 0AA#1A6F1A6F1A6F1A6F
(1469304019.724186) can0 260#08FFFF0000FFEE5D
(1469304019.726124) can0 354#01
(1469304019.727149) can0 1C8#80
(1469304019.729183) can0 351#00000000
(1469304019.729266) can0 020#0000072B
(1469304019.729611) can0 0B4#00000000000000BC
(1469304019.729814) can0 024#020001FD420A80F8
(1469304019.730036) can0 025#000000026000008F
(1469304019.730255) can0 223#000000000000002D
(1469304019.730516) can0 611#21000020000062D4
(1469304019.733508) can0 263#00000000B2001E
(1469304019.734510) can0 1C4#06E128080000FFE3
(1469304019.735385) can0 0AA#1A6F1A6F1A6F1A6F
(1469304019.735594) can0 361#0017000000000000
(1469304019.736507) can0 3F9#5198260100000014
(1469304019.741308) can0 020#0000072B
(1469304019.741414) can0 0BA#05FD00C0
(1469304019.741678) can0 224#0000000000000008
(1469304019.741951) can0 024#020001FD420A80F8
(1469304019.742173) can0 025#000000027000009F
(1469304019.743619) can0 1C8#80
(1469304019.744176) can0 260#0800000000000072
(1469304019.747406) can0 0AA#1A6F1A6F1A6F1A6F
(1469304019.747550) can0 1AA#0000000000B1
(1469304019.751799) can0 3D3#01A1
(1469304019.751995) can0 1D0#0DDF090000AC007A
(1469304019.752880) can0 2C1#0801DE0049CE00C9
(1469304019.753348) can0 020#0000072B
(1469304019.753554) can0 0B4#00000000000000BC
(1469304019.753853) can0 024#020001FB420A80F6
(1469304019.754050) can0 025#000000027000009F
(1469304019.754315) can0 223#000000000000002D
(1469304019.754476) can0 262#000000016A
(1469304019.756845) can0 3D0#00
(1469304019.758058) can0 263#00000000B2001E
(1469304019.759105) can0 1C4#06D328080000FFD5
(1469304019.759512) can0 0AA#1A6F1A6F1A6F1A6F
(1469304019.759937) can0 1C8#80
(1469304019.764157) can0 260#0800000000000072
(1469304019.765372) can0 020#0000072B
(1469304019.765467) can0 0BA#05FB00BE
(1469304019.765795) can0 024#020001FB420A80F6
(1469304019.765994) can0 025#000000027000009F
(1469304019.766306) can0 224#0000000000000008
(1469304019.766697) can0 423#00
(1469304019.771505) can0 0AA#1A6F1A6F1A6F1A6F
(1469304019.776412) can0 1C8#80
(1469304019.777427) can0 020#0000072B
(1469304019.777633) can0 0B4#00000000000000BC
(1469304019.777889) can0 025#000000027000009F
(1469304019.778135) can0 223#000000000000002D
(1469304019.778710) can0 024#020001FD420A80F8
(1469304019.782686) can0 263#00000000B2001E
(1469304019.783561) can0 0AA#1A6F1A6F1A6F1A6F
(1469304019.783782) can0 1C4#06BF28080000FFC1
(1469304019.784093) can0 260#0800000000000072
(1469304019.784734) can0 1D0#0DB3090000AC004E
(1469304019.785711) can0 2C1#0802140050D00009
(1469304019.789156) can0 351#00000000
(1469304019.789504) can0 020#0000072B
(1469304019.789573) can0 0BA#05FD00C0
(1469304019.789893) can0 224#0000000000000008
(1469304019.790592) can0 025#000000027000009F
(1469304019.790811) can0 024#020001FD420A80F8
(1469304019.792026) can0 3A0#008C000007000066
(1469304019.792800) can0 1C8#80
(1469304019.794079) can0 262#000000016A
(1469304019.794908) can0 620#1000FFFFB0500040
(1469304019.795517) can0 0AA#1A6F1A6F1A6F1A6F
(1469304019.795694) can0 1AA#0000000000B1
(1469304019.801162) can0 361#0017000000000000
(1469304019.801501) can0 020#0000072B
(1469304019.801706) can0 0B4#00000000000000BC
(1469304019.801933) can0 223#000000000000002D
(1469304019.802607) can0 025#000000027000009F
(1469304019.802854) can0 024#020001FD420A80F8
(1469304019.803185) can0 3BC#0020000000000000
(1469304019.804162) can0 260#0800000000000072
(1469304019.805258) can0 399#00000000000000
(1469304019.807307) can0 263#00000000B3001F
(1469304019.807619) can0 0AA#1A6F1A6F1A6F1A6F
(1469304019.808315) can0 1C4#06A728080000FFA9
(1469304019.809200) can0 1C8#80
(1469304019.813555) can0 020#0000072B
(1469304019.813625) can0 0BA#05FD00C0
(1469304019.813973) can0 224#0000000000000008
(1469304019.814609) can0 025#000000027000009F
(1469304019.814814) can0 024#020001FD420880F6
(1469304019.817114) can0 443#4002002F06000000
(1469304019.817557) can0 1D0#0D90090000AC002B
(1469304019.818537) can0 2C1#08025E005BD20060
(1469304019.819635) can0 0AA#1A6F1A6F1A6F1A6F
(1469304019.824093) can0 260#08FFFF0000000070
(1469304019.825604) can0 020#0000072B
(1469304019.825808) can0 0B4#00000000000000BC
(1469304019.825867) can0 1C8#80
(1469304019.826219) can0 223#000000000000002D
(1469304019.826659) can0 025#000000027000009F
(1469304019.826863) can0 024#020001FD420880F6
(1469304019.831685) can0 0AA#1A6F1A6F1A6F1A6F
(1469304019.831817) can0 263#00000000B2001E
(1469304019.832861) can0 1C4#06A228080000FFA4
(1469304019.834028) can0 262#000000016A
(1469304019.837653) can0 020#0000072B
(1469304019.837738) can0 0BA#05FD00C0
(1469304019.838077) can0 224#0000000000000008
(1469304019.838583) can0 025#000000027000009F
(1469304019.838785) can0 024#020001FB420880F4
(1469304019.842030) can0 1C8#80
(1469304019.843709) can0 0AA#1A6F1A6F1A6F1A6F
(1469304019.843914) can0 1AA#0000000000B1
(1469304019.844161) can0 260#08FFFF0000000070
(1469304019.849108) can0 351#00000000
(1469304019.849678) can0 020#0000072B
(1469304019.849926) can0 0B4#00000000000000BC
(1469304019.850184) can0 223#000000000000002D
(1469304019.850387) can0 1D0#0D5E090000AC00F9
(1469304019.850638) can0 025#000000027000009F
(1469304019.850882) can0 024#020001FB420A80F6
(1469304019.851287) can0 2C1#08020D0066D00018
(1469304019.855747) can0 0AA#1A6F1A6F1A6F1A6F
(1469304019.856483) can0 263#00000000B3001F
(1469304019.857558) can0 1C4#069328080000FF95
(1469304019.858424) can0 1C8#80
(1469304019.861707) can0 020#0000072B
(1469304019.861787) can0 0BA#05FB00BE
(1469304019.862074) can0 224#0000000000000008
(1469304019.862483) can0 025#000000027000009F
(1469304019.862732) can0 024#020001FB420A80F6
(1469304019.864106) can0 260#08FFFE0000FFEE5C
(1469304019.866858) can0 361#0017000000000000
(1469304019.867747) can0 0AA#1A6F1A6F1A6F1A6F
(1469304019.869005) can0 394#4300
(1469304019.873754) can0 020#0000072B
(1469304019.873962) can0 0B4#00000000000000BC
(1469304019.874214) can0 223#000000000000002D
(1469304019.874359) can0 262#000000016A
(1469304019.874635) can0 025#000000027000009F
(1469304019.874891) can0 024#020001FD420A80F8
(1469304019.874941) can0 1C8#80
(1469304019.879863) can0 0AA#1A6F1A6F1A6F1A6F
(1469304019.881206) can0 263#00000000B2001E
(1469304019.882235) can0 1C4#068A28080000FF8C
(1469304019.883257) can0 1D0#0D34090000AC00CF
(1469304019.884012) can0 260#08FFFF0000FFF160
(1469304019.884259) can0 2C1#080219006ED0002C
(1469304019.885781) can0 020#0000072B
(1469304019.885868) can0 0BA#05FD00C0
(1469304019.886194) can0 224#0000000000000008
(1469304019.886533) can0 025#000000027000009F
(1469304019.886737) can0 024#020001FD420A80F8
(1469304019.891325) can0 1C8#80
(1469304019.891469) can0 38A#0804000000
(1469304019.891883) can0 0AA#1A6F1A6F1A6F1A6F
(1469304019.892017) can0 1AA#0000000000B1
(1469304019.894086) can0 3A0#008C000007000066
(1469304019.897804) can0 020#0000072B
(1469304019.898044) can0 0B4#00000000000000BC
(1469304019.898302) can0 223#000000000000002D
(1469304019.898611) can0 025#000000027000009F
(1469304019.898797) can0 024#020001FD420880F6
(1469304019.903938) can0 0AA#1A6F1A6F1A6F1A6F
(1469304019.904147) can0 260#0800000000000072
(1469304019.905808) can0 263#00000000B3001F
(1469304019.906784) can0 1C4#068128080000FF83
(1469304019.907728) can0 1C8#80
(1469304019.909079) can0 351#00000000
(1469304019.909854) can0 020#0000072B
(1469304019.909938) can0 0BA#05FD00C0
(1469304019.910300) can0 224#0000000000000008
(1469304019.910501) can0 025#000000027000009F
(1469304019.910738) can0 024#020001FD420880F6
(1469304019.914008) can0 262#000000016A
(1469304019.915963) can0 0AA#1A6F1A6F1A6F1A6F
(1469304019.916148) can0 1D0#0D17090000AC00B2
(1469304019.917084) can0 2C1#0802210076D1003D
(1469304019.919895) can0 440#4202001101000000
(1469304019.921879) can0 020#0000072B
(1469304019.922086) can0 0B4#00000000000000BC
(1469304019.922338) can0 223#000000000000002D
(1469304019.922591) can0 025#000000027000009F
(1469304019.922812) can0 024#020001FD420880F6
(1469304019.924089) can0 260#08FFFF0000000070
(1469304019.924104) can0 1C8#80
(1469304019.924495) can0 383#0100010000000000
(1469304019.924710) can0 4DC#1D00000200000000
(1469304019.927962) can0 0AA#1A6F1A6F1A6F1A6F
(1469304019.928166) can0 3B7#583B000000000008
(1469304019.930436) can0 263#00000000B2001E
(1469304019.931511) can0 1C4#066F28080000FF71
(1469304019.931526) can0 354#01
(1469304019.932504) can0 361#0018000000000000
(1469304019.933873) can0 020#0000072B
(1469304019.933967) can0 0BA#05FD00C0
(1469304019.934322) can0 224#0000000000000008
(1469304019.934504) can0 025#000000027000009F
(1469304019.934756) can0 024#020001FB420880F4
(1469304019.939937) can0 0AA#1A6F1A6F1A6F1A6F
(1469304019.940137) can0 1AA#0000000000B1
(1469304019.940570) can0 1C8#80
(1469304019.944006) can0 260#0800000000000072
(1469304019.945924) can0 020#0000072B
(1469304019.946158) can0 0B4#00000000000000BC
(1469304019.946506) can0 223#000000000000002D
(1469304019.946599) can0 025#000000027000009F
(1469304019.946930) can0 024#020001FB420880F4
(1469304019.948841) can0 1D0#0CF9090000AC0093
(1469304019.949880) can0 2C1#080240007BD20062
(1469304019.952041) can0 0AA#1A6F1A6F1A6F1A6F
(1469304019.953952) can0 262#000000016A
(1469304019.955025) can0 263#00000000B2001E
(1469304019.956080) can0 1C4#065128080000FF53
(1469304019.956969) can0 1C8#80
(1469304019.957951) can0 020#0000072B
(1469304019.958121) can0 0BA#05FB00BE
(1469304019.958375) can0 224#0000000000000008
(1469304019.958641) can0 025#000000027000009F
(1469304019.958900) can0 024#020001FD420A80F8
(1469304019.964033) can0 260#08FFFF0000000070
(1469304019.964198) can0 0AA#1A6F1A6F1A6F1A6F
(1469304019.968973) can0 351#00000000
(1469304019.970084) can0 020#0000072B
(1469304019.970362) can0 0B4#00000000000000BC
(1469304019.970562) can0 025#000000027000009F
(1469304019.970838) can0 024#020001FD420A80F8
(1469304019.971087) can0 223#000000000000002D
(1469304019.971309) can0 387#0000000000003F3F
(1469304019.973393) can0 1C8#80
(1469304019.976279) can0 0AA#1A6F1A6F1A6F1A6F
(1469304019.979655) can0 263#00000000B2001E
(1469304019.980679) can0 1C4#064028080000FF42
(1469304019.981731) can0 1D0#0CC4090000AC005E
(1469304019.982223) can0 020#0000072B
(1469304019.982316) can0 0BA#05FD00C0
(1469304019.982656) can0 224#0000000000000008
(1469304019.982853) can0 024#020001FD420A80F8
(1469304019.983152) can0 025#000000027000009F
(1469304019.983327) can0 2C1#0802F60088D7002A
(1469304019.984063) can0 260#0800000000000072
(1469304019.988332) can0 0AA#1A6F1A6F1A6F1A6F
(1469304019.988477) can0 1AA#0000000000B1
(1469304019.989794) can0 1C8#80
(1469304019.993006) can0 3F9#5198260100000014
(1469304019.993202) can0 3A0#008D000007000066
(1469304019.993899) can0 262#000000016A
(1469304019.994270) can0 020#0000072B
(1469304019.994478) can0 0B4#00000000000000BC
(1469304019.994777) can0 025#000000027000009F
(1469304019.994951) can0 024#020001FB420A80F6
(1469304019.995181) can0 223#000000000000002D
(1469304019.998093) can0 361#0018000000000000
(1469304020.000361) can0 0AA#1A6F1A6F1A6F1A6F
(1469304020.000754) can0 4DD#1E00000000000000
(1469304020.002157) can0 389#0000000000000000
(1469304020.003983) can0 260#08FFFF0000000070
(1469304020.004290) can0 263#00000000B3001F
(1469304020.005300) can0 1C4#062E28080000FF30
(1469304020.006153) can0 1C8#80
(1469304020.006289) can0 020#0000072B
(1469304020.006466) can0 0BA#05FB00BE
(1469304020.006715) can0 024#020001FD420A80F8
(1469304020.006998) can0 224#0000000000000008
(1469304020.007425) can0 025#000000027000009F
(1469304020.012387) can0 0AA#1A6F1A6F1A6F1A6F
(1469304020.013374) can0 3D0#00
(1469304020.014554) can0 1D0#0C8F090000AC0029
(1469304020.014878) can0 622#1200581000000000
(1469304020.015535) can0 2C1#080278009AD300BA
(1469304020.017555) can0 442#4302000001000000
(1469304020.018321) can0 020#0000072B
(1469304020.018530) can0 0B4#00000000000000BC
(1469304020.018831) can0 024#020001FB420A80F6
(1469304020.019027) can0 223#000000000000002D
(1469304020.019554) can0 025#000000027000009F
(1469304020.022624) can0 1C8#80
(1469304020.024010) can0 260#0800000000000072
(1469304020.024437) can0 0AA#1A6F1A6F1A6F1A6F
(1469304020.028910) can0 263#00000000B3001F
(1469304020.028994) can0 351#00000000
(1469304020.029870) can0 1C4#062628080000FF28
(1469304020.030355) can0 020#0000072B
(1469304020.030441) can0 0BA#05FB00BE
(1469304020.030786) can0 024#020001FB420A80F6
(1469304020.030989) can0 224#0000000000000008
(1469304020.031467) can0 025#000000027000009F
(1469304020.032118) can0 38E#2020000000000000
(1469304020.033880) can0 262#000000016A
(1469304020.036511) can0 0AA#1A6F1A6F1A6F1A6F
(1469304020.036594) can0 1AA#0000000000B1
(1469304020.039024) can0 1C8#80
(1469304020.042404) can0 020#0000072B
(1469304020.042610) can0 0B4#00000000000000BC
(1469304020.042864) can0 024#020001FD420A80F8
(1469304020.043110) can0 223#000000000000002D
(1469304020.043534) can0 025#000000027000009F
(1469304020.043964) can0 260#0800000000000072
(1469304020.047348) can0 1D0#0C69090000AC0003
(1469304020.048343) can0 2C1#08026C00ADD300C1
(1469304020.048547) can0 0AA#1A6F1A6F1A6F1A6F
(1469304020.053469) can0 263#00000000B3001F
(1469304020.054446) can0 020#0000072B
(1469304020.054582) can0 0BA#05FD00C0
(1469304020.054823) can0 024#020001FD420A80F8
(1469304020.055072) can0 1C4#062128080000FF23
(1469304020.055291) can0 224#0000000000000008
(1469304020.055537) can0 025#000000027000009F
(1469304020.055618) can0 1C8#80
(1469304020.060534) can0 0AA#1A6F1A6F1A6F1A6F
(1469304020.062160) can0 38F#0300000000000000
(1469304020.063819) can0 361#0019000000000000
(1469304020.064004) can0 260#08FFFF0000FFEE5D
(1469304020.066508) can0 020#0000072B
(1469304020.066692) can0 0B4#00000000000000BC
(1469304020.066933) can0 223#000000000000002D
(1469304020.067508) can0 025#000000027000009F
(1469304020.067721) can0 024#020001FD420A80F8
(1469304020.071851) can0 1C8#80
(1469304020.072584) can0 0AA#1A6F1A6F1A6F1A6F
(1469304020.073855) can0 262#000000016A
(1469304020.074058) can0 380#C0A0400000004000
(1469304020.074368) can0 3B0#00B5005600180000
(1469304020.078134) can0 263#00000000B2001E
(1469304020.078502) can0 020#0000072B
(1469304020.078586) can0 0BA#05FD00C0
(1469304020.078945) can0 224#0000000000000008
(1469304020.079149) can0 1C4#061F28080000FF21
(1469304020.079375) can0 025#000000027000009F
(1469304020.079790) can0 024#020001FD420A80F8
(1469304020.080192) can0 1D0#0C44090000AC00DE
(1469304020.081160) can0 2C1#08026B00C3D300D6
(1469304020.083935) can0 260#08FFFF0000FFF160
(1469304020.084633) can0 0AA#1A6F1A6F1A6F1A6F
(1469304020.084767) can0 1AA#0000000000B1
(1469304020.088251) can0 1C8#80
(1469304020.088927) can0 351#00000000
(1469304020.089859) can0 6E1#A180000000100000
(1469304020.090553) can0 020#0000072B
(1469304020.090742) can0 0B4#00000000000000BC
(1469304020.091009) can0 223#000000000000002D
(1469304020.091434) can0 025#000000027000009F
(1469304020.091762) can0 024#020001FD420880F6
(1469304020.092157) can0 3A5#0000000000007EFC
(1469304020.095015) can0 3A0#008D000007000066
(1469304020.096668) can0 0AA#1A6F1A6F1A6F1A6F
(1469304020.098859) can0 620#1000FFFFB0500040
(1469304020.102607) can0 020#0000072B
(1469304020.102692) can0 0BA#05FD00C0
(1469304020.103022) can0 224#0000000000000008
(1469304020.103207) can0 263#00000000B2001E
(1469304020.103466) can0 025#000000027000009F
(1469304020.103705) can0 024#020001FD420880F6
(1469304020.103959) can0 1C4#061F28080000FF21
(1469304020.104176) can0 260#0800000000FFF162
(1469304020.104648) can0 1C8#80
(1469304020.108675) can0 0AA#1A6F1A6F1A6F1A6F
(1469304020.113010) can0 1D0#0C36090000AC00D0
(1469304020.113812) can0 262#000000016A
(1469304020.114044) can0 2C1#08026C00D3D300E7
(1469304020.114627) can0 020#0000072B
(1469304020.114830) can0 0B4#00000000000000BC
(1469304020.115081) can0 223#000000000000002D
(1469304020.115353) can0 025#000000027000009F
(1469304020.115762) can0 024#020001FD420A80F8
(1469304020.117117) can0 443#4002002F06000000
(1469304020.120712) can0 0AA#1A6F1A6F1A6F1A6F
(1469304020.121071) can0 1C8#80
(1469304020.122160) can0 413#0101010900000000
(1469304020.123913) can0 260#0800000000000072
(1469304020.126630) can0 020#0000072B
(1469304020.126715) can0 0BA#05FD00C0
(1469304020.127075) can0 224#0000000000000008
(1469304020.127280) can0 025#000000027000009F
(1469304020.127502) can0 263#00000000B2001E
(1469304020.127742) can0 024#020001FD420A80F8
(1469304020.128398) can0 1C4#061728080000FF19
(1469304020.129422) can0 361#0019000000000000
(1469304020.132750) can0 0AA#1A6F1A6F1A6F1A6F
(1469304020.132908) can0 1AA#0000000000B1
(1469304020.136491) can0 354#01
(1469304020.137488) can0 1C8#80
(1469304020.138692) can0 020#0000072B
(1469304020.138976) can0 0B4#00000000000000BC
(1469304020.139153) can0 223#000000000000002D
(1469304020.139457) can0 025#000000027000009F
(1469304020.139749) can0 024#020001FB420A80F6
(1469304020.143930) can0 260#0800000000000072
(1469304020.144798) can0 0AA#1A6F1A6F1A6F1A6F
(1469304020.145821) can0 1D0#0C2B090000AC00C5
(1469304020.146801) can0 2C1#08027400DAD300F6
(1469304020.148921) can0 351#00000000
(1469304020.150718) can0 020#0000072B
