(1469305088.817354) can0 440#40008011010F0F0F
(1469305088.819409) can0 442#42008000010F0F0F
(1469305088.917373) can0 440#4001801101000000
(1469305088.917569) can0 620#1080FFFF80500080
(1469305088.918472) can0 442#4201800001000000
(1469305089.011372) can0 440#4212001101000000
(1469305089.011535) can0 442#4002000001000000
(1469305089.111306) can0 440#4212001101000000
(1469305089.140403) can0 610#2000006480FFFD60
(1469305089.141343) can0 621#1100000000000000
(1469305089.150349) can0 622#1200481000000000
(1469305089.152453) can0 611#21000020000062D4
(1469305089.159347) can0 623#1900000000000000
(1469305089.168360) can0 624#1A00414949400000
(1469305089.177346) can0 626#1C00300000000000
(1469305089.186344) can0 638#1300180100000000
(1469305089.195345) can0 63C#98005A5245172060
(1469305089.204282) can0 63D#9900444558534B00
(1469305089.209501) can0 442#4002000001000000
(1469305089.213346) can0 680#D800010000000000
(1469305089.222347) can0 620#1000FFFF80500080
(1469305089.311241) can0 440#4212001101000000
(1469305089.410347) can0 442#4002000001000000
(1469305089.437296) can0 620#1080FFFF90500080
(1469305089.456129) can0 443#4300802F060F0F0F
(1469305089.461450) can0 618#2200000080000000
(1469305089.473444) can0 619#230000000C003A80
(1469305089.485447) can0 61A#2400000000014F60
(1469305089.491298) can0 6E1#A100030000F00000
(1469305089.492119) can0 020#0000072B
(1469305089.497448) can0 61C#2600000000000000
(1469305089.500300) can0 6E2#A200CCFEFEFEFEFE
(1469305089.504122) can0 020#0000072B
(1469305089.504318) can0 0B4#00000000020000BE
(1469305089.504573) can0 223#0008000000000035
(1469305089.504829) can0 420#0000000000008AB6
(1469305089.509446) can0 640#A8000000012C0000
(1469305089.511296) can0 440#4202001101000000
(1469305089.516118) can0 020#0000072B
(1469305089.516208) can0 0BA#06008044
(1469305089.516515) can0 224#0000000000000048
(1469305089.516721) can0 4C3#0300000100000000
(1469305089.522225) can0 0AA#9A6F9A6F9A6F9A6F
(1469305089.522367) can0 1AA#421080000083
(1469305089.528107) can0 020#0000072B
(1469305089.528439) can0 0B4#0000000002008745
(1469305089.528621) can0 223#0008000000000035
(1469305089.534272) can0 0AA#1A6F1A6F1A6F1A6F
(1469305089.540372) can0 020#0000072B
(1469305089.540544) can0 0BA#06008044
(1469305089.540768) can0 224#0000000000000048
(1469305089.546473) can0 0AA#1A6F1A6F1A6F1A6F
(1469305089.552398) can0 020#0000072B
(1469305089.552630) can0 0B4#00000000020000BE
(1469305089.552933) can0 223#0008000000000035
(1469305089.556122) can0 443#4301802F06000000
(1469305089.558043) can0 263#0000000001006D
(1469305089.558451) can0 0AA#1A6F1A6F1A6F1A6F
(1469305089.559094) can0 1C4#0000000000003E0B
(1469305089.564421) can0 020#0000072B
(1469305089.564514) can0 0BA#06008044
(1469305089.564837) can0 224#0000000000000048
(1469305089.567135) can0 354#00
(1469305089.568167) can0 1C8#00
(1469305089.570482) can0 0AA#1A6F1A6F1A6F1A6F
(1469305089.570672) can0 1AA#0000000000B1
(1469305089.576521) can0 1D0#00000100000000DA
(1469305089.576595) can0 020#0000072B
(1469305089.576901) can0 0B4#00000000020000BE
(1469305089.577202) can0 223#0008000000000035
(1469305089.577442) can0 2C1#08FFD412A1BE0017
(1469305089.577692) can0 3F9#5198260100000014
(1469305089.582523) can0 0AA#1A6F1A6F1A6F1A6F
(1469305089.582693) can0 263#00000000AA0016
(1469305089.583704) can0 1C4#00002A000000FFF6
(1469305089.584585) can0 1C8#00
(1469305089.587821) can0 4C1#0100000500000000
(1469305089.588464) can0 020#0000072B
(1469305089.588546) can0 0BA#06008044
(1469305089.588821) can0 224#0000000000000048
(1469305089.592947) can0 361#00A0000700000000
(1469305089.594595) can0 0AA#1A6F1A6F1A6F1A6F
(1469305089.594995) can0 3BC#0020000000000000
(1469305089.595918) can0 3BB#8000AA00
(1469305089.597019) can0 399#00000000000000
(1469305089.597890) can0 3D0#00
(1469305089.600498) can0 020#0000072B
(1469305089.600730) can0 0B4#00000000020000BE
(1469305089.601040) can0 223#0008000000000035
(1469305089.601059) can0 1C8#00
(1469305089.602069) can0 38A#1C04000000
(1469305089.606272) can0 620#1080FFFFA0500080
(1469305089.606578) can0 0AA#1A6F1A6F1A6F1A6F
(1469305089.607191) can0 263#00000000AA0016
(1469305089.608252) can0 1C4#00002A000000FFF6
(1469305089.609315) can0 1D0#0000010000AC0086
(1469305089.610322) can0 2C1#08FFD412A1BE0017
(1469305089.611446) can0 442#4302000001000000
(1469305089.612593) can0 020#0000072B
(1469305089.612666) can0 0BA#06008044
(1469305089.612980) can0 224#0000000000000048
(1469305089.617386) can0 1C8#00
(1469305089.618649) can0 0AA#1A6F1A6F1A6F1A6F
(1469305089.618792) can0 1AA#0000000000B1
(1469305089.624595) can0 020#0000072B
(1469305089.624788) can0 0B4#00000000020000BE
(1469305089.625041) can0 223#0008000000000035
(1469305089.626621) can0 260#0E00000000000078
(1469305089.630672) can0 0AA#1A6F1A6F1A6F1A6F
(1469305089.631389) can0 351#00000000
(1469305089.631878) can0 263#00000000AA0016
(1469305089.632947) can0 1C4#00002A000000FFF6
(1469305089.633785) can0 1C8#00
(1469305089.636470) can0 262#000000016A
(1469305089.636561) can0 020#0000072B
(1469305089.636773) can0 0BA#06008044
(1469305089.636996) can0 224#0000000000000048
(1469305089.641447) can0 610#2000006480FFFD60
(1469305089.641645) can0 4C8#0900000000000000
(1469305089.642145) can0 1D0#0000010000AC0086
(1469305089.642722) can0 0AA#1A6F1A6F1A6F1A6F
(1469305089.643144) can0 2C1#08FFD412A1BE0017
(1469305089.646597) can0 260#0E00000000000078
(1469305089.648605) can0 020#0000072B
(1469305089.648876) can0 0B4#00000000020000BE
(1469305089.649086) can0 025#000000027000009F
(1469305089.649341) can0 223#0008000000000035
(1469305089.650210) can0 1C8#00
(1469305089.651362) can0 394#4300
(1469305089.654723) can0 0AA#1A6F1A6F1A6F1A6F
(1469305089.656499) can0 263#00000000AA0016
(1469305089.657594) can0 1C4#00002A000000FFF6
(1469305089.658518) can0 361#00A0000700000000
(1469305089.660666) can0 020#0000072B
(1469305089.660760) can0 0BA#06008044
(1469305089.661080) can0 224#0000000000000048
(1469305089.661281) can0 025#000000027000009F
(1469305089.666597) can0 260#0E00000000000078
(1469305089.666744) can0 0AA#1A6F1A6F1A6F1A6F
(1469305089.666939) can0 1AA#0000000000B1
(1469305089.667004) can0 1C8#00
(1469305089.668253) can0 4C6#0700030000000000
(1469305089.672694) can0 020#0000072B
(1469305089.672887) can0 0B4#00000000020000BE
(1469305089.673141) can0 025#000000027000009F
(1469305089.673397) can0 223#0008000000000035
(1469305089.674136) can0 423#00
(1469305089.674972) can0 1D0#0000010000AC0086
(1469305089.675973) can0 2C1#08FFD412A1BE0017
(1469305089.676472) can0 262#000000016A
(1469305089.678694) can0 0AA#1A6F1A6F1A6F1A6F
(1469305089.681120) can0 263#00000000AA0016
(1469305089.682169) can0 1C4#00002A000000FFF6
(1469305089.683011) can0 1C8#00
(1469305089.684719) can0 020#0000072B
(1469305089.684811) can0 0BA#06008044
(1469305089.685136) can0 224#0000000000000048
(1469305089.685329) can0 025#000000027000009F
(1469305089.686594) can0 260#0E00000000000078
(1469305089.690795) can0 0AA#1A6F1A6F1A6F1A6F
(1469305089.691365) can0 351#00000000
(1469305089.696744) can0 020#0000072B
(1469305089.696973) can0 0B4#00000000020000BE
(1469305089.697276) can0 025#000000027000009F
(1469305089.697460) can0 223#0008000000000035
(1469305089.699435) can0 1C8#00
(1469305089.702846) can0 0AA#1A6F1A6F1A6F1A6F
(1469305089.705722) can0 263#00000000AA0016
(1469305089.706521) can0 260#0E00000000000078
(1469305089.706753) can0 1C4#00002A000000FFF6
(1469305089.707797) can0 1D0#0000010000AC0086
(1469305089.708728) can0 2C1#08FFD412A1BE0017
(1469305089.708857) can0 020#0000072B
(1469305089.709034) can0 0BA#06008044
(1469305089.709325) can0 224#0000000000000048
(1469305089.710045) can0 025#000000027000009F
(1469305089.711120) can0 443#4202002F06000000
(1469305089.714899) can0 0AA#1A6F1A6F1A6F1A6F
(1469305089.715042) can0 1AA#0000000000B1
(1469305089.715298) can0 3B7#583B000000000008
(1469305089.715864) can0 1C8#00
(1469305089.716429) can0 262#000000016A
(1469305089.717201) can0 440#4201001101000000
(1469305089.720808) can0 020#0000072B
(1469305089.721105) can0 0B4#00000000020000BE
(1469305089.721289) can0 025#000000027000009F
(1469305089.721550) can0 223#0008000000000035
(1469305089.724197) can0 361#00A0000700000000
(1469305089.726595) can0 260#0E00000000000078
(1469305089.726920) can0 0AA#1A6F1A6F1A6F1A6F
(1469305089.730345) can0 263#00000000AA0016
(1469305089.731395) can0 1C4#00002A000000FFF6
(1469305089.732263) can0 1C8#00
(1469305089.732840) can0 020#0000072B
(1469305089.732933) can0 0BA#06008044
(1469305089.733261) can0 224#0000000000000048
(1469305089.733460) can0 025#000000027000009F
(1469305089.738948) can0 0AA#1A6F1A6F1A6F1A6F
(1469305089.740453) can0 610#2080006480FFFD60
(1469305089.740620) can0 1D0#0000010000AC0086
(1469305089.741596) can0 2C1#08FFD412A1BE0017
(1469305089.744918) can0 020#0000072B
(1469305089.745113) can0 0B4#00000000020000BE
(1469305089.745367) can0 223#0008000000000035
(1469305089.746094) can0 025#000000027000009F
(1469305089.746594) can0 260#0E00000000000078
(1469305089.748627) can0 1C8#00
(1469305089.751019) can0 0AA#1A6F1A6F1A6F1A6F
(1469305089.751289) can0 351#00000000
(1469305089.752424) can0 611#21800020000062D4
(1469305089.754946) can0 263#00000000AA0016
(1469305089.756000) can0 1C4#00002A000000FFF6
(1469305089.756414) can0 262#000000016A
(1469305089.756942) can0 020#0000072B
(1469305089.757039) can0 0BA#06008044
(1469305089.757307) can0 224#0000000000000048
(1469305089.757941) can0 025#000000027000009F
(1469305089.763045) can0 0AA#1A6F1A6F1A6F1A6F
(1469305089.763192) can0 1AA#0000000000B1
(1469305089.764448) can0 618#2280000080000000
(1469305089.765063) can0 1C8#00
(1469305089.766469) can0 260#0E00000000000078
(1469305089.768997) can0 020#0000072B
(1469305089.769187) can0 0B4#00000000020000BE
(1469305089.769409) can0 223#0008000000000035
(1469305089.770024) can0 025#000000027000009F
(1469305089.772266) can0 354#07
(1469305089.773423) can0 1D0#0000010000AC0086
(1469305089.774421) can0 2C1#08FFD412A1BE0017
(1469305089.775094) can0 0AA#1A6F1A6F1A6F1A6F
(1469305089.776428) can0 619#238000000C003A80
(1469305089.779598) can0 263#00000000AA0016
(1469305089.780623) can0 1C4#00002A000000FFF6
(1469305089.781041) can0 020#0000072B
(1469305089.781136) can0 0BA#06008044
(1469305089.781456) can0 224#0000000000000048
(1469305089.781514) can0 1C8#00
(1469305089.781986) can0 025#000000027000009F
(1469305089.786523) can0 260#0E00000000000078
(1469305089.787121) can0 0AA#1A6F1A6F1A6F1A6F
(1469305089.788422) can0 61A#2480000000014F60
(1469305089.789798) can0 361#00A0000700000000
(1469305089.793067) can0 020#0000072B
(1469305089.793268) can0 0B4#00000000020000BE
(1469305089.793550) can0 223#0008000000000035
(1469305089.794046) can0 025#000000027000009F
(1469305089.796446) can0 262#000000016A
(1469305089.797911) can0 1C8#00
(1469305089.799170) can0 0AA#1A6F1A6F1A6F1A6F
(1469305089.800416) can0 61C#2680000000000000
(1469305089.804197) can0 263#00000000AA0016
(1469305089.805141) can0 020#0000072B
(1469305089.805217) can0 0BA#06008044
(1469305089.805596) can0 1C4#00002A000000FFF6
(1469305089.805745) can0 224#0000000000000048
(1469305089.805997) can0 025#000000027000009F
(1469305089.806248) can0 1D0#0000010000AC0086
(1469305089.806600) can0 260#0E00000000000078
(1469305089.807225) can0 2C1#08FFD412A1BE0017
(1469305089.809386) can0 442#4302000001000000
(1469305089.811163) can0 0AA#1A6F1A6F1A6F1A6F
(1469305089.811366) can0 1AA#0000000000B1
(1469305089.811506) can0 351#00000000
(1469305089.814315) can0 1C8#00
(1469305089.817168) can0 020#0000072B
(1469305089.817398) can0 0B4#00000000020000BE
(1469305089.817700) can0 223#0008000000000035
(1469305089.818022) can0 025#000000027000009F
(1469305089.823426) can0 0AA#1A6F1A6F1A6F1A6F
(1469305089.826472) can0 260#0E00000000000078
(1469305089.828821) can0 263#00000000AA0016
(1469305089.829362) can0 020#0000072B
(1469305089.829507) can0 0BA#06008044
(1469305089.829801) can0 224#0000000000000048
(1469305089.829954) can0 025#000000027000009F
(1469305089.830214) can0 1C4#00002A000000FFF6
(1469305089.830552) can0 383#0100010000000000
(1469305089.830803) can0 381#0000000080000000
(1469305089.830863) can0 1C8#00
(1469305089.831136) can0 4DC#1D00000200000000
(1469305089.833946) can0 3F9#5198260100000014
(1469305089.835476) can0 0AA#1A6F1A6F1A6F1A6F
(1469305089.836377) can0 262#000000016A
(1469305089.839102) can0 1D0#0000010000AC0086
(1469305089.839990) can0 2C1#08FFD412A1BE0017
(1469305089.841347) can0 020#0000072B
(1469305089.841601) can0 0B4#00000000020000BE
(1469305089.841823) can0 223#0008000000000035
(1469305089.842073) can0 025#000000027000009F
(1469305089.846505) can0 260#0E00000000000078
(1469305089.847141) can0 1C8#00
(1469305089.847469) can0 0AA#1A6F1A6F1A6F1A6F
(1469305089.853429) can0 263#00000000AA0016
(1469305089.853515) can0 020#0000072B
(1469305089.853760) can0 0BA#06008044
(1469305089.853968) can0 224#0000000000000048
(1469305089.854220) can0 025#000000027000009F
(1469305089.854467) can0 1C4#00CB2A000000FFC1
(1469305089.854549) can0 3D0#00
(1469305089.855489) can0 361#00A0000100000000
(1469305089.859520) can0 0AA#1A6F1A6F1A6F1A6F
(1469305089.859632) can0 1AA#0000000000B1
(1469305089.863541) can0 1C8#00
(1469305089.865466) can0 020#0000072B
(1469305089.865680) can0 0B4#00000000020000BE
(1469305089.865970) can0 025#000000027000009F
(1469305089.866181) can0 223#0008000000000035
(1469305089.866468) can0 260#0E00000000000078
(1469305089.866679) can0 387#0000000000003F3F
(1469305089.871232) can0 351#00000000
(1469305089.871532) can0 0AA#1A6F1A6F1A6F1A6F
(1469305089.871856) can0 1D0#0000010000AC0086
(1469305089.872870) can0 2C1#0805A112A1ED0019
(1469305089.875497) can0 4DD#1E00000000000000
(1469305089.876362) can0 262#000000016A
(1469305089.877483) can0 020#0000072B
(1469305089.877600) can0 0BA#06008044
(1469305089.877865) can0 025#000000027000009F
(1469305089.878114) can0 224#0000000000000048
(1469305089.878333) can0 263#00000000AA0016
(1469305089.878997) can0 1C4#01442A000000FF3B
(1469305089.879889) can0 1C8#00
(1469305089.883592) can0 0AA#1A6F1A6F1A6F1A6F
(1469305089.886416) can0 260#0E00000000000078
(1469305089.889586) can0 020#0000072B
(1469305089.889748) can0 0B4#00000000020000BE
(1469305089.889986) can0 025#000000027000009F
(1469305089.890213) can0 223#0008000000000035
(1469305089.895492) can0 024#5E0009FD4A088062
(1469305089.895684) can0 0AA#1A6F1A6F1A6F1A6F
(1469305089.896135) can0 389#0000000000000000
(1469305089.896303) can0 1C8#00
(1469305089.901538) can0 020#0000072B
(1469305089.901644) can0 0BA#06008044
(1469305089.901929) can0 025#000000027000009F
(1469305089.902198) can0 224#0000000000000048
(1469305089.902568) can0 263#00000000AA0016
(1469305089.903638) can0 1C4#014E2A000000FF45
(1469305089.904711) can0 1D0#0000010000AC0086
(1469305089.905687) can0 2C1#0805A312A3ED001D
(1469305089.906211) can0 620#1000FFFFA0500080
(1469305089.906488) can0 260#0E00000000000078
(1469305089.907488) can0 024#5E000A004A088066
(1469305089.907678) can0 0AA#1A6F1A6F1A6F1A6F
(1469305089.907870) can0 1AA#0000000000B1
(1469305089.911067) can0 443#4002002F06000000
(1469305089.912720) can0 1C8#00
(1469305089.913579) can0 020#0000072B
(1469305089.913858) can0 0B4#00000000020000BE
(1469305089.914031) can0 025#000000027000009F
(1469305089.914284) can0 223#0008000000000035
(1469305089.916362) can0 262#000000016A
(1469305089.919488) can0 024#5E000A004A088066
(1469305089.919679) can0 0AA#1A6F1A6F1A6F1A6F
(1469305089.921048) can0 361#00A0000000000000
(1469305089.925634) can0 020#0000072B
(1469305089.925701) can0 0BA#060000C4
(1469305089.926054) can0 224#0000000000000048
(1469305089.926278) can0 025#000000027000009F
(1469305089.926587) can0 260#0E00000000000078
(1469305089.926755) can0 38E#2020000000000000
(1469305089.927258) can0 263#00000000AA0016
(1469305089.928290) can0 1C4#01432A000000FF3A
(1469305089.929176) can0 1C8#00
(1469305089.931216) can0 351#00000000
(1469305089.931446) can0 024#5E0009FF4A088064
(1469305089.931683) can0 0AA#1A6F1A6F1A6F1A6F
(1469305089.937595) can0 1D0#0000010000AC0086
(1469305089.937611) can0 020#0000072B
(1469305089.937952) can0 0B4#00000000020000BE
(1469305089.938189) can0 223#0008000000000035
(1469305089.938503) can0 2C1#0805A312A3ED001D
(1469305089.938910) can0 025#000000027000009F
(1469305089.943487) can0 024#5E0009FB4A088060
(1469305089.943813) can0 0AA#1A6F1A6F1A6F1A6F
(1469305089.945579) can0 1C8#00
(1469305089.946399) can0 260#0E00000000000078
(1469305089.949732) can0 020#0000072B
(1469305089.949839) can0 0BA#060000C4
(1469305089.950129) can0 224#0000000000000048
(1469305089.950834) can0 025#000000027000009F
(1469305089.951142) can0 394#4300
(1469305089.951812) can0 263#00000000AA0016
(1469305089.952823) can0 1C4#014D2A000000FF44
(1469305089.955488) can0 024#5E0009F64A08805B
(1469305089.955839) can0 0AA#1A6F1A6F1A6F1A6F
(1469305089.956010) can0 1AA#0000000000B1
(1469305089.956266) can0 38F#0300000000000000
(1469305089.956440) can0 262#000000016A
(1469305089.961783) can0 020#0000072B
(1469305089.961991) can0 0B4#00000000020000BE
(1469305089.962070) can0 1C8#00
(1469305089.962361) can0 223#0008000000000035
(1469305089.962885) can0 025#000000027000009F
(1469305089.966414) can0 260#0E00000000000078
(1469305089.967486) can0 024#5E0009F64A0A805D
(1469305089.967894) can0 0AA#1A6F1A6F1A6F1A6F
(1469305089.970335) can0 1D0#0031010000AC00B7
(1469305089.971314) can0 2C1#0805A312A3ED001D
(1469305089.973833) can0 020#0000072B
(1469305089.973941) can0 0BA#060000C4
(1469305089.974204) can0 224#0000000000000048
(1469305089.974812) can0 025#000000027000009F
(1469305089.976488) can0 263#00000000AA0016
(1469305089.977510) can0 1C4#01722A000000FF69
(1469305089.977551) can0 354#07
(1469305089.978390) can0 1C8#00
(1469305089.979510) can0 024#5E0009FB4A0A8062
(1469305089.979945) can0 0AA#1A6F1A6F1A6F1A6F
(1469305089.983445) can0 382#3838380000000000
(1469305089.985893) can0 020#0000072B
(1469305089.986122) can0 0B4#00000000020000BE
(1469305089.986422) can0 223#0008000000000035
(1469305089.986620) can0 260#0E00000000000078
(1469305089.986873) can0 025#000000027000009F
(1469305089.987094) can0 361#00A0000000000000
(1469305089.987370) can0 3A5#0000000000007EFC
(1469305089.991245) can0 351#00000000
(1469305089.991475) can0 024#5E0009FF4A0A8066
(1469305089.991948) can0 0AA#1A6F1A6F1A6F1A6F
(1469305089.994812) can0 1C8#00
(1469305089.996296) can0 262#000000016A
(1469305089.997964) can0 020#0000072B
(1469305089.998057) can0 0BA#060000C4
(1469305089.998407) can0 224#0000000000000048
(1469305089.998796) can0 025#000000027000009F
(1469305090.001120) can0 263#00000000AA0016
(1469305090.002150) can0 1C4#01E82A000000FFDF
(1469305090.003101) can0 1D0#0146010000AC00CD
(1469305090.003425) can0 024#5E000A014A068065
(1469305090.004067) can0 0AA#1A6F1A6F1A6F1A6F
(1469305090.004214) can0 1AA#0000000000B1
(1469305090.004469) can0 2C1#0805A212A5ED001E
(1469305090.006421) can0 260#0E00000000000078
(1469305090.009990) can0 020#0000072B
(1469305090.010187) can0 0B4#00000000020000BE
(1469305090.010441) can0 223#0008000000000035
(1469305090.010871) can0 025#000000027000009F
(1469305090.011196) can0 440#4202001101000000
(1469305090.011213) can0 1C8#00
(1469305090.015520) can0 024#5E000A034A068067
(1469305090.016077) can0 0AA#1A6F1A6F1A6F1A6F
(1469305090.016274) can0 3B7#583B000000000008
(1469305090.016550) can0 413#0101010900000000
(1469305090.021224) can0 6E1#A180000000100000
(1469305090.021991) can0 020#0000072B
(1469305090.022084) can0 0BA#060000C4
(1469305090.022359) can0 224#0000000000000048
(1469305090.022722) can0 025#000000027000009F
(1469305090.025720) can0 263#00000000AA0016
(1469305090.026367) can0 260#0E00000000000078
(1469305090.026747) can0 1C4#03602A080000FF61
(1469305090.027603) can0 024#5E000A004A0A8068
(1469305090.027621) can0 1C8#80
(1469305090.028083) can0 0AA#1A6F1A6F1A6F1A6F
(1469305090.034050) can0 020#0000072B
(1469305090.034242) can0 0B4#00000000020000BE
(1469305090.034554) can0 223#0008000000000035
(1469305090.034829) can0 025#000000027000009F
(1469305090.035998) can0 1D0#02E3010000AC006B
(1469305090.036276) can0 262#000000016A
(1469305090.036973) can0 2C1#0805A10A55ED00C5
(1469305090.039601) can0 024#5E0009FB4A0A8062
(1469305090.040122) can0 0AA#1A6F1A6F1A6F1A6F
(1469305090.044036) can0 1C8#80
(1469305090.046151) can0 434#3F00000000000000
(1469305090.046224) can0 020#0000072B
(1469305090.046479) can0 0BA#060000C4
(1469305090.046673) can0 224#0000000000000048
(1469305090.046923) can0 025#000000027000009F
(1469305090.047195) can0 260#0E00000000000078
(1469305090.050345) can0 263#00000000AA0016
(1469305090.051165) can0 351#00000000
(1469305090.051368) can0 1C4#039E2A080000FF9F
(1469305090.051633) can0 024#5E0009F14A088056
(1469305090.052173) can0 0AA#1A6F1A6F1A6F1A6F
(1469305090.052315) can0 1AA#0000000000B1
(1469305090.052573) can0 361#0054000000000000
(1469305090.058067) can0 020#0000072B
(1469305090.058388) can0 0B4#00000000020000BE
(1469305090.058597) can0 223#0008000000000035
(1469305090.058849) can0 025#000000027000009F
(1469305090.060464) can0 1C8#80
(1469305090.063565) can0 024#5E0009F14A088056
(1469305090.064340) can0 0AA#1A6F1A6F1A6F1A6F
(1469305090.066344) can0 260#0E00000000000078
(1469305090.068697) can0 3D3#013A
(1469305090.068913) can0 1D0#0553010000AC00DE
(1469305090.069770) can0 2C1#0805A10A31ED00A1
(1469305090.070314) can0 020#0000072B
(1469305090.070408) can0 0BA#060000C4
(1469305090.070746) can0 224#0000000000000048
(1469305090.070943) can0 025#000000027000009F
(1469305090.072153) can0 6E2#A28000FEFEFEFEFE
(1469305090.074947) can0 263#00000000AA0016
(1469305090.075552) can0 024#5E0009FA4A0A8061
(1469305090.075729) can0 3B1#00000E0A00080000
(1469305090.075936) can0 1C4#04232A080000FF25
(1469305090.076177) can0 435#0F0505FFE00FE003
(1469305090.076431) can0 0AA#1A6F1A6F1A6F1A6F
(1469305090.076627) can0 262#000000016A
(1469305090.076876) can0 4AC#0802200500000004
(1469305090.076920) can0 1C8#80
(1469305090.082324) can0 020#0000072B
(1469305090.082578) can0 0B4#00000000020000BE
(1469305090.082828) can0 025#00010002900000C0
(1469305090.083074) can0 223#0008000000000035
(1469305090.086350) can0 260#0E00000000000078
(1469305090.087603) can0 024#5E000A034A0C806D
(1469305090.088476) can0 0AA#1A6F1A6F1A6F1A6F
(1469305090.090303) can0 3F9#5198260100000014
(1469305090.093295) can0 1C8#80
(1469305090.094393) can0 020#0000072B
(1469305090.094560) can0 0BA#060000C4
(1469305090.094844) can0 025#000000027000009F
(1469305090.095050) can0 224#0000000000000048
(1469305090.099603) can0 024#5E0002084208805E
(1469305090.099687) can0 263#00000000AA0016
(1469305090.100524) can0 0AA#1A6F1A6F1A6F1A6F
(1469305090.100661) can0 1AA#0000000000B1
(1469305090.100930) can0 1C4#046B2A080000FF6D
(1469305090.101629) can0 1D0#0708010000AC0095
(1469305090.102601) can0 2C1#08051B0A06E800EB
(1469305090.106126) can0 436#0000000000000000
(1469305090.106360) can0 260#0E00000000000078
(1469305090.106558) can0 020#0000072B
(1469305090.106751) can0 0B4#00000000020000BE
(1469305090.107003) can0 223#000000000000002D
(1469305090.107777) can0 025#000000027000009F
(1469305090.109425) can0 442#4302000001000000
(1469305090.109702) can0 1C8#80
(1469305090.110693) can0 3D0#00
(1469305090.111159) can0 351#00000000
(1469305090.111612) can0 024#5E0002064208805C
(1469305090.112602) can0 0AA#1A6F1A6F1A6F1A6F
(1469305090.116224) can0 262#000000016A
(1469305090.118077) can0 361#0051000000000000
(1469305090.118523) can0 020#0000072B
(1469305090.118593) can0 0BA#060000C4
(1469305090.118950) can0 224#0000000000000048
(1469305090.119113) can0 025#000000027000009F
(1469305090.123605) can0 024#5E0001FF42088054
(1469305090.124198) can0 263#00000000AA0016
(1469305090.124585) can0 0AA#1A6F1A6F1A6F1A6F
(1469305090.125225) can0 1C4#04722A080000FF74
(1469305090.126115) can0 1C8#80
(1469305090.126348) can0 260#0E00000000000078
(1469305090.130428) can0 3B0#00B4000000000000
(1469305090.130513) can0 020#0000072B
(1469305090.130851) can0 0B4#00000000020000BE
(1469305090.131057) can0 223#000000000000002D
(1469305090.131756) can0 025#000000027000009F
(1469305090.134436) can0 1D0#0855010000AC00E3
(1469305090.135455) can0 2C1#0804F609AFE7006C
(1469305090.135665) can0 024#5E0001F442088049
(1469305090.136124) can0 437#FCFFFFFFFFFFFFFF
(1469305090.136675) can0 0AA#1A6F1A6F1A6F1A6F
(1469305090.141203) can0 621#1100000000000000
(1469305090.142593) can0 1C8#80
(1469305090.142619) can0 020#0000072B
(1469305090.142844) can0 0BA#060000C4
(1469305090.143152) can0 224#0000000000000048
(1469305090.143684) can0 025#000000027000009F
(1469305090.146300) can0 260#0E00000000000078
(1469305090.147606) can0 024#5E0001ED42088042
(1469305090.148700) can0 0AA#1A6F1A6F1A6F1A6F
(1469305090.148886) can0 1AA#0000000000B1
(1469305090.149102) can0 263#00000000AA0016
(1469305090.149851) can0 1C4#04CF2A080000FFD1
(1469305090.150210) can0 622#1200481000000000
(1469305090.154646) can0 020#0000072B
(1469305090.154858) can0 0B4#00000000020000BE
(1469305090.155099) can0 223#000000000000002D
(1469305090.155730) can0 025#000000027000009F
(1469305090.156246) can0 262#000000016A
(1469305090.158943) can0 1C8#80
(1469305090.159176) can0 623#1900000000000000
(1469305090.159613) can0 024#5E0001F142058043
(1469305090.160725) can0 0AA#1A6F1A6F1A6F1A6F
(1469305090.166100) can0 384#F0F000000000
(1469305090.166305) can0 260#0E00000000000078
(1469305090.166696) can0 020#0000072B
(1469305090.166781) can0 0BA#060000C4
(1469305090.167135) can0 224#0000000000000048
(1469305090.167322) can0 1D0#094D010000AC00DC
(1469305090.167609) can0 025#000000027000009F
(1469305090.168175) can0 624#1A00414949400000
(1469305090.168380) can0 2C1#08043809B3E100AC
(1469305090.171102) can0 351#00000000
(1469305090.171602) can0 024#5E0001FD42088052
(1469305090.172828) can0 0AA#1A6F1A6F1A6F1A6F
(1469305090.173451) can0 263#00000000AA0016
(1469305090.174425) can0 1C4#056C2A080000FF6F
(1469305090.175305) can0 1C8#80
(1469305090.177179) can0 626#1C00300000000000
(1469305090.178770) can0 020#0000072B
(1469305090.178978) can0 0B4#00000000020000BE
(1469305090.179232) can0 223#000000000000002D
(1469305090.179703) can0 025#000000027000009F
(1469305090.182479) can0 354#01
(1469305090.183605) can0 024#5E000206420D8061
(1469305090.183738) can0 361#004C000000000000
(1469305090.184423) can0 380#0000000000008000
(1469305090.184850) can0 0AA#1A6F1A6F1A6F1A6F
(1469305090.186140) can0 638#1300180100000000
(1469305090.186440) can0 260#0E00000000000078
(1469305090.190761) can0 020#0000072B
(1469305090.190936) can0 0BA#060000C4
(1469305090.191234) can0 224#0000000000000048
(1469305090.191642) can0 025#000000027000009F
(1469305090.191667) can0 1C8#80
(1469305090.195138) can0 63C#98005A5245172060
(1469305090.195560) can0 024#5E00020C420D8067
(1469305090.196092) can0 386#000000070003
(1469305090.196186) can0 262#000000016A
(1469305090.196870) can0 0AA#1A6F1A6F1A6F1A6F
(1469305090.197041) can0 1AA#0000000000B1
(1469305090.198069) can0 263#00000000AA0016
(1469305090.199071) can0 1C4#05DD2A080000FFE0
(1469305090.199395) can0 3A0#0096000000000066
(1469305090.200123) can0 1D0#0A87010000AC0017
(1469305090.201033) can0 2C1#08035709A4DA00B4
(1469305090.202745) can0 020#0000072B
(1469305090.202997) can0 0B4#00000000020000BE
(1469305090.203324) can0 223#000000000000002D
(1469305090.203604) can0 025#000000027000009F
(1469305090.204099) can0 63D#9900444558534B00
(1469305090.206256) can0 260#0E00000000000078
(1469305090.207608) can0 024#56000205420A8055
(1469305090.208166) can0 1C8#80
(1469305090.208896) can0 0AA#1A6F1A6F1A6F1A6F
(1469305090.211121) can0 443#4002002F06000000
(1469305090.213174) can0 680#D800010000000000
(1469305090.214866) can0 020#0000072B
(1469305090.214960) can0 0BA#060000C4
(1469305090.215284) can0 224#0000000000000048
(1469305090.215556) can0 025#000000027000009F
(1469305090.219604) can0 024#560001FB42058045
(1469305090.220977) can0 0AA#1A6F1A6F1A6F1A6F
(1469305090.222176) can0 620#1000FFFFA0500080
(1469305090.222651) can0 263#00000000AA0016
(1469305090.223687) can0 1C4#068C2A080000FF90
(1469305090.224592) can0 1C8#80
(1469305090.226038) can0 3E6#0000000000
(1469305090.226351) can0 260#0E00000000000078
(1469305090.226920) can0 020#0000072B
(1469305090.227127) can0 0B4#00000000020000BE
(1469305090.227378) can0 223#000000000000002D
(1469305090.227631) can0 025#000000027000009F
(1469305090.231047) can0 351#00000000
(1469305090.231603) can0 024#560001EF42018035
(1469305090.232975) can0 1D0#0C40010000AC00D2
(1469305090.233163) can0 0AA#1A6F1A6F1A6F1A6F
(1469305090.233949) can0 2C1#0802790953D3007D
(1469305090.236170) can0 262#000000016A
(1469305090.238946) can0 020#0000072B
(1469305090.239028) can0 0BA#060000C4
(1469305090.239387) can0 224#0000000000000048
(1469305090.239595) can0 025#000000027000009F
(1469305090.241016) can0 1C8#80
(1469305090.241439) can0 610#2000006480FFFD60
(1469305090.243602) can0 024#560001EC42058036
(1469305090.245050) can0 0AA#1A6F1A6F1A6F1A6F
(1469305090.245195) can0 1AA#0000000000B1
(1469305090.246212) can0 260#0E00000000000078
(1469305090.247327) can0 263#00000000AA0016
(1469305090.248354) can0 1C4#07162A080000FF1B
(1469305090.249400) can0 361#0048000000000000
(1469305090.250994) can0 020#0000072B
(1469305090.251200) can0 0B4#00000000020000BE
(1469305090.251454) can0 223#000000000000002D
(1469305090.251703) can0 025#000000027000009F
(1469305090.251796) can0 394#4300
(1469305090.255543) can0 024#560001F4420A8043
(1469305090.256010) can0 3E7#00000000000000
(1469305090.256978) can0 0AA#1A6F1A6F1A6F1A6F
(1469305090.257341) can0 1C8#80
(1469305090.262967) can0 020#0000072B
(1469305090.263100) can0 0BA#060000C4
(1469305090.263373) can0 224#0000000000000008
(1469305090.263609) can0 025#00010002900000C0
(1469305090.265747) can0 1D0#0DDD010000AC0070
(1469305090.266181) can0 260#0E00000000000078
(1469305090.266697) can0 2C1#0801EE08D3CF006C
(1469305090.267547) can0 024#56000201420D8054
(1469305090.269072) can0 0AA#1A6F1A6F1A6F1A6F
(1469305090.271902) can0 263#00000000AA0016
(1469305090.272922) can0 1C4#07832A080000FF88
(1469305090.273788) can0 1C8#80
(1469305090.275017) can0 020#0000072B
(1469305090.275250) can0 0B4#00000000020000BE
(1469305090.275532) can0 025#000000027000009F
(1469305090.275757) can0 223#000000000000002D
(1469305090.276141) can0 262#000000016A
(1469305090.279605) can0 024#5600020A420D805D
(1469305090.281351) can0 0AA#1A6F1A6F1A6F1A6F
(1469305090.286154) can0 3E8#0000000000000000
(1469305090.286338) can0 260#0E00000000000078
(1469305090.287271) can0 020#0000072B
(1469305090.287356) can0 0BA#060000C4
(1469305090.287709) can0 024#5200020C420C805A
(1469305090.287913) can0 025#000000027000009F
(1469305090.288160) can0 224#0000000000000008
(1469305090.290330) can0 3BB#0000AA00
(1469305090.290354) can0 1C8#80
(1469305090.291069) can0 351#00000000
(1469305090.293380) can0 0AA#1A6F1A6F1A6F1A6F
(1469305090.293570) can0 1AA#0000000000B1
(1469305090.296535) can0 263#00000000AA0016
(1469305090.297604) can0 1C4#07F22A080000FFF7
(1469305090.298599) can0 1D0#0F3A090000AC00D7
(1469305090.299293) can0 020#0000072B
(1469305090.299605) can0 0B4#00000000020000BE
(1469305090.299738) can0 024#520002054206804D
(1469305090.300004) can0 025#000000027000009F
(1469305090.300277) can0 223#000000000000002D
(1469305090.300483) can0 2C1#080159084DCA004C
(1469305090.301386) can0 610#2080006480FFFD60
(1469305090.304390) can0 3A0#0096000000000066
(1469305090.305425) can0 0AA#1A6F1A6F1A6F1A6F
(1469305090.306175) can0 260#0E00000000000078
(1469305090.306620) can0 1C8#80
(1469305090.311152) can0 440#4202001101000000
(1469305090.311340) can0 020#0000072B
(1469305090.311549) can0 0BA#060000C4
(1469305090.311736) can0 224#0000000000000008
(1469305090.312518) can0 025#000000027000009F
(1469305090.312719) can0 024#520001F84206803F
(1469305090.313421) can0 618#2280000080000000
(1469305090.315020) can0 361#0041000000000000
(1469305090.316125) can0 3E9#0000000000000000
(1469305090.316265) can0 262#000000016A
(1469305090.317147) can0 620#1080FFFFB0500080
(1469305090.317461) can0 0AA#1A6F1A6F1A6F1A6F
(1469305090.317645) can0 3B7#583B000000000008
(1469305090.321101) can0 263#00000000AA0016
(1469305090.322171) can0 1C4#084C2A080000FF52
(1469305090.323063) can0 1C8#80
(1469305090.323382) can0 020#0000072B
(1469305090.323599) can0 0B4#00000000020000BE
(1469305090.323848) can0 223#000000000000002D
(1469305090.324595) can0 025#000000027000009F
(1469305090.324769) can0 024#520001EF42068036
(1469305090.325403) can0 619#238000000C003A80
(1469305090.326195) can0 260#0E00000000000078
(1469305090.329456) can0 0AA#1A6F1A6F1A6F1A6F
(1469305090.331421) can0 1D0#1059090000AC00F7
(1469305090.332401) can0 2C1#080123077CC90043
(1469305090.335443) can0 020#0000072B
(1469305090.335526) can0 0BA#060000C4
(1469305090.335871) can0 224#0000000000000008
(1469305090.336519) can0 025#000000027000009F
(1469305090.336696) can0 024#520001EF42088038
(1469305090.337418) can0 61A#2480000000014F60
(1469305090.339485) can0 1C8#80
(1469305090.341596) can0 0AA#1A6F1A6F1A6F1A6F
(1469305090.341673) can0 1AA#0000000000B1
(1469305090.345775) can0 263#00000000AA0016
(1469305090.346142) can0 260#0E00000000000078
(1469305090.346796) can0 1C4#088E2A080000FF94
(1469305090.346994) can0 3F9#5198260100000014
(1469305090.347466) can0 020#0000072B
(1469305090.347671) can0 0B4#00000000020000BE
(1469305090.347922) can0 223#000000000000002D
(1469305090.348545) can0 025#000000027000009F
(1469305090.348744) can0 024#520001FA420A8045
(1469305090.349442) can0 61C#2680000000000000
(1469305090.351022) can0 351#00000000
(1469305090.353553) can0 0AA#1A6F1A6F1A6F1A6F
(1469305090.355889) can0 1C8#80
(1469305090.356030) can0 262#000000016A
(1469305090.359493) can0 020#0000072B
(1469305090.359589) can0 0BA#060000C4
(1469305090.359944) can0 224#0000000000000008
(1469305090.360492) can0 025#000000027000009F
(1469305090.360699) can0 024#52000203420A804F
(1469305090.364258) can0 1D0#111F090000AC00BE
(1469305090.365227) can0 2C1#08010406ACC80052
(1469305090.365628) can0 0AA#1A6F1A6F1A6F1A6F
(1469305090.366161) can0 260#0E00000000000078
(1469305090.367154) can0 3D0#00
(1469305090.370401) can0 263#00000000AA0016
(1469305090.371425) can0 1C4#08BE2A080000FFC4
(1469305090.371510) can0 020#0000072B
(1469305090.371846) can0 0B4#00000000020000BE
(1469305090.372050) can0 223#000000000000002D
(1469305090.372261) can0 1C8#80
(1469305090.372553) can0 025#000000027000009F
(1469305090.372770) can0 024#5200020A42088054
(1469305090.377581) can0 0AA#1A6F1A6F1A6F1A6F
(1469305090.380730) can0 361#0038000000000000
(1469305090.383608) can0 020#0000072B
(1469305090.383668) can0 0BA#060000C4
(1469305090.384016) can0 224#0000000000000008
(1469305090.384467) can0 025#000000027000009F
(1469305090.384672) can0 024#520002064206804E
(1469305090.386202) can0 260#0E00000000000078
(1469305090.387667) can0 354#01
(1469305090.388767) can0 1C8#80
(1469305090.389678) can0 0AA#1A6F1A6F1A6F1A6F
(1469305090.389866) can0 1AA#0000000000B1
(1469305090.395076) can0 263#00000000AA0016
(1469305090.395625) can0 020#0000072B
(1469305090.395857) can0 0B4#00000000020000BE
(1469305090.396084) can0 1C4#08EE2A080000FFF4
(1469305090.396387) can0 223#000000000000002D
(1469305090.396590) can0 025#000000027000009F
(1469305090.396805) can0 024#520001FD42088046
(1469305090.396990) can0 262#000000016A
(1469305090.397198) can0 1D0#11BD090000AC005C
(1469305090.398027) can0 2C1#0800EB05E9C70073
(1469305090.400342) can0 3A0#0096000000000066
(1469305090.401655) can0 0AA#1A6F1A6F1A6F1A6F
(1469305090.405189) can0 1C8#80
(1469305090.406123) can0 260#0E00000000000078
(1469305090.407674) can0 020#0000072B
(1469305090.407759) can0 0BA#060000C4
(1469305090.408079) can0 224#0000000000000008
(1469305090.408435) can0 025#000000027000009F
(1469305090.408640) can0 024#520001F3420A803E
(1469305090.409423) can0 442#4302000001000000
(1469305090.410995) can0 351#00000000
(1469305090.413802) can0 0AA#1A6F1A6F1A6F1A6F
(1469305090.419677) can0 263#00000000AA0016
(1469305090.419759) can0 020#0000072B
(1469305090.420091) can0 0B4#00000000020000BE
(1469305090.420295) can0 223#000000000000002D
(1469305090.420555) can0 025#000000027000009F
(1469305090.420774) can0 024#520001EF420A803A
(1469305090.421027) can0 1C4#09242A080000FF2B
(1469305090.421590) can0 1C8#80
(1469305090.425803) can0 0AA#1A6F1A6F1A6F1A6F
(1469305090.426149) can0 260#0E00000000000078
(1469305090.429952) can0 1D0#123B090000AC00DB
(1469305090.430926) can0 2C1#0800D0053DC600AB
(1469305090.431735) can0 020#0000072B
(1469305090.431814) can0 0BA#060000C4
(1469305090.432146) can0 224#0000000000000008
(1469305090.432376) can0 025#000000027000009F
(1469305090.432677) can0 024#520001F6420A8041
(1469305090.436099) can0 262#000000016A
(1469305090.437826) can0 0AA#1A6F1A6F1A6F1A6F
(1469305090.437959) can0 1AA#0000000000B1
(1469305090.438034) can0 1C8#80
(1469305090.443750) can0 020#0000072B
(1469305090.443955) can0 0B4#00000000020000BE
(1469305090.444205) can0 223#000000000000002D
(1469305090.444450) can0 025#000000027000009F
(1469305090.444702) can0 024#520002004208804A
(1469305090.444921) can0 263#00000000AA0016
(1469305090.445523) can0 1C4#094A2A080000FF51
(1469305090.446201) can0 260#0E00000000000078
(1469305090.446405) can0 361#0030000000000000
(1469305090.449808) can0 0AA#1A6F1A6F1A6F1A6F
(1469305090.450058) can0 4C3#0300000100000000
(1469305090.454493) can0 1C8#80
(1469305090.455799) can0 020#0000072B
(1469305090.455883) can0 0BA#060000C4
(1469305090.456235) can0 224#0000000000000008
(1469305090.456451) can0 025#000000027000009F
(1469305090.456655) can0 024#520002064206804E
(1469305090.461878) can0 0AA#1A6F1A6F1A6F1A6F
(1469305090.462874) can0 1D0#12AE090000AC004E
(1469305090.463887) can0 2C1#0800C604A0C60003
(1469305090.466126) can0 260#0E00000000000078
(1469305090.467799) can0 020#0000072B
(1469305090.468038) can0 0B4#00000000020000BE
(1469305090.468244) can0 223#000000000000002D
(1469305090.468512) can0 025#00010002900000C0
(1469305090.468756) can0 024#520002064206804E
(1469305090.468975) can0 263#00000000AA0016
(1469305090.470052) can0 1C4#09502A080000FF57
(1469305090.470942) can0 1C8#80
(1469305090.471026) can0 351#00000000
(1469305090.473880) can0 0AA#1A6F1A6F1A6F1A6F
(1469305090.475997) can0 262#000000016A
(1469305090.479804) can0 020#0000072B
(1469305090.479886) can0 0BA#060000C4
(1469305090.480243) can0 224#0000000000000008
(1469305090.480447) can0 025#000000027000009F
(1469305090.480681) can0 024#520002004208804A
(1469305090.485904) can0 0AA#1A6F1A6F1A6F1A6F
(1469305090.486091) can0 1AA#0000000000B1
(1469305090.486330) can0 260#0E00000000000078
(1469305090.487342) can0 1C8#80
(1469305090.491849) can0 020#0000072B
(1469305090.492053) can0 0B4#00000000020000BE
(1469305090.492304) can0 223#000000000000002D
(1469305090.492553) can0 025#000000027000009F
(1469305090.492769) can0 024#520101F8420A8044
(1469305090.493648) can0 263#00000000AA0016
(1469305090.494650) can0 1C4#09502A080000FF57
(1469305090.495715) can0 1D0#12DA090000AC007A
(1469305090.496675) can0 2C1#0800C30412C60072
(1469305090.497891) can0 0AA#1A6F1A6F1A6F1A6F
(1469305090.499426) can0 640#A8000057012C0000
(1469305090.502380) can0 3A0#0096000000000066
(1469305090.503769) can0 1C8#80
(1469305090.503853) can0 020#0000072B
(1469305090.504103) can0 0BA#060000C4
(1469305090.504335) can0 224#0000000000000008
(1469305090.504637) can0 025#000000027000009F
(1469305090.504821) can0 024#520001F3420A803E
(1469305090.506126) can0 260#0E00000000000078
(1469305090.509945) can0 0AA#1A6F1A6F1A6F1A6F
(1469305090.510143) can0 420#00000000FB0182AA
(1469305090.511096) can0 443#4002002F06000000
(1469305090.512107) can0 361#002A000000000000
(1469305090.515893) can0 020#0000072B
(1469305090.516122) can0 0B4#00000000020000BE
(1469305090.516425) can0 025#000000027000009F
(1469305090.516594) can0 223#000000000000002D
(1469305090.516849) can0 024#520001F6420A8041
(1469305090.517013) can0 262#000000016A
(1469305090.518198) can0 263#00000000AA0016
(1469305090.519230) can0 1C4#094C2A080000FF53
(1469305090.520243) can0 38A#0804000000
(1469305090.520406) can0 1C8#80
(1469305090.521294) can0 4C1#0100000500000000
(1469305090.521995) can0 0AA#1A6F1A6F1A6F1A6F
(1469305090.526049) can0 260#0E00000000000078
(1469305090.527923) can0 020#0000072B
(1469305090.528015) can0 0BA#060000C4
(1469305090.528315) can0 224#0000000000000008
(1469305090.528549) can0 025#000000027000009F
(1469305090.528800) can0 024#520001FD42088046
(1469305090.529026) can0 1D0#12CE090000AC006E
(1469305090.529434) can0 2C1#0800C60392C600F4
(1469305090.530968) can0 351#00000000
(1469305090.534049) can0 0AA#1A6F1A6F1A6F1A6F
(1469305090.534192) can0 1AA#0000000000B1
(1469305090.536588) can0 1C8#80
(1469305090.539996) can0 020#0000072B
(1469305090.540188) can0 0B4#00000000020000BE
(1469305090.540442) can0 025#000000027000009F
(1469305090.540671) can0 024#5200020142068049
(1469305090.540979) can0 223#000000000000002D
(1469305090.542871) can0 263#00000000AA0016
(1469305090.543903) can0 1C4#09552A080000FF5C
(1469305090.546094) can0 260#0E00000000000078
(1469305090.546268) can0 0AA#1A6F1A6F1A6F1A6F
(1469305090.550838) can0 394#4300
(1469305090.552053) can0 020#0000072B
(1469305090.552193) can0 0BA#060000C4
(1469305090.552439) can0 025#000000027000009F
(1469305090.552672) can0 024#520002034206804B
(1469305090.552989) can0 224#0000000000000008
(1469305090.553017) can0 1C8#80
(1469305090.556019) can0 262#000000016A
(1469305090.558322) can0 0AA#1A6F1A6F1A6F1A6F
(1469305090.561345) can0 1D0#12C0090000AC0060
(1469305090.562299) can0 2C1#0800BF031CC50076
(1469305090.564271) can0 020#0000072B
(1469305090.564594) can0 0B4#00000000020000BE
(1469305090.564685) can0 024#520002004208804A
(1469305090.565019) can0 223#000000000000002D
(1469305090.565419) can0 025#000000027000009F
(1469305090.566121) can0 260#0E00000000000078
(1469305090.567492) can0 263#00000000AA0016
(1469305090.568454) can0 1C4#09582A080000FF5F
(1469305090.569340) can0 1C8#80
(1469305090.570372) can0 0AA#1A6F1A6F1A6F1A6F
(1469305090.575653) can0 4AC#18024005000002E4
(1469305090.576295) can0 020#0000072B
(1469305090.576388) can0 0BA#060000C4
(1469305090.576721) can0 024#520001FB420A8046
(1469305090.576918) can0 224#0000000000000008
(1469305090.577343) can0 025#000000027000009F
(1469305090.577700) can0 361#0025000000000000
(1469305090.582372) can0 0AA#1A6F1A6F1A6F1A6F
(1469305090.582541) can0 1AA#0000000000B1
(1469305090.585810) can0 1C8#80
(1469305090.586045) can0 260#0E00000000000078
(1469305090.588315) can0 020#0000072B
(1469305090.588551) can0 0B4#00000000020000BE
(1469305090.588782) can0 024#520001F6420A8041
(1469305090.589034) can0 223#000000000000002D
(1469305090.589366) can0 025#000000027000009F
(1469305090.590914) can0 351#00000000
(1469305090.592154) can0 263#00000000AA0016
(1469305090.592382) can0 610#2080006480FFFD60
(1469305090.593169) can0 1C4#093E2A080000FF45
(1469305090.593197) can0 354#01
(1469305090.594088) can0 3D3#04AF
(1469305090.594320) can0 1D0#12AD090000AC004D
(1469305090.594568) can0 0AA#1A6F1A6F1A6F1A6F
(1469305090.595194) can0 2C1#0800CB02B3C60019
(1469305090.595993) can0 262#000000016A
(1469305090.600369) can0 020#0000072B
(1469305090.600539) can0 0BA#060000C4
(1469305090.600734) can0 224#0000000000000008
(1469305090.601263) can0 025#00010002900000C0
(1469305090.601463) can0 3A0#0097000000000066
(1469305090.601698) can0 024#520001F842088041
(1469305090.602287) can0 1C8#80
(1469305090.603396) can0 3F9#5198260100000014
(1469305090.604422) can0 611#21800020000062D4
(1469305090.606070) can0 260#0E00000000000078
(1469305090.606472) can0 0AA#1A6F1A6F1A6F1A6F
(1469305090.611095) can0 440#4202001101000000
(1469305090.612422) can0 020#0000072B
(1469305090.612619) can0 0B4#00000000020000BE
(1469305090.612872) can0 223#000000000000002D
(1469305090.613320) can0 025#000000027000009F
(1469305090.613630) can0 024#520001FB42088044
(1469305090.616772) can0 263#00000000AA0016
(1469305090.617093) can0 620#1000FFFFB0500080
(1469305090.617757) can0 1C4#092B2A080000FF32
(1469305090.618459) can0 0AA#1A6F1A6F1A6F1A6F
(1469305090.618700) can0 3B7#583B000000000008
(1469305090.618770) can0 1C8#80
(1469305090.620947) can0 4C8#0900000000000000
(1469305090.623821) can0 3D0#00
(1469305090.624413) can0 020#0000072B
(1469305090.624505) can0 0BA#060000C4
(1469305090.624837) can0 224#0000000000000008
(1469305090.625238) can0 025#000000027000009F
(1469305090.625621) can0 024#520001FF42088048
(1469305090.626043) can0 260#0E00000000000078
(1469305090.627052) can0 1D0#1289090000AC0029
(1469305090.628035) can0 2C1#0800D80259C600CC
(1469305090.628411) can0 4C6#0700030000000000
(1469305090.630465) can0 0AA#1A6F1A6F1A6F1A6F
(1469305090.630642) can0 1AA#0000000000B1
(1469305090.635168) can0 1C8#80
(1469305090.635893) can0 262#000000016A
(1469305090.636438) can0 020#0000072B
(1469305090.636692) can0 0B4#00000000020000BE
(1469305090.636933) can0 223#000000000000002D
(1469305090.637256) can0 025#000000027000009F
(1469305090.637600) can0 024#520002004208804A
(1469305090.641470) can0 263#00000000AA0016
(1469305090.642469) can0 1C4#09112A080000FF18
(1469305090.642645) can0 0AA#1A6F1A6F1A6F1A6F
(1469305090.643520) can0 361#0020000000000000
(1469305090.645598) can0 3BC#0020000000000000
(1469305090.646021) can0 260#0E00000000000078
(1469305090.647626) can0 399#00000000000000
(1469305090.648513) can0 020#0000072B
(1469305090.648594) can0 0BA#060000C4
(1469305090.648900) can0 224#0000000000000008
(1469305090.649173) can0 025#000000027000009F
(1469305090.649577) can0 024#520002004208804A
(1469305090.650825) can0 351#00000000
(1469305090.651590) can0 1C8#80
(1469305090.654622) can0 0AA#1A6F1A6F1A6F1A6F
(1469305090.660000) can0 1D0#1243090000AC00E3
(1469305090.660545) can0 020#0000072B
(1469305090.660792) can0 0B4#00000000020000BE
(1469305090.661105) can0 223#000000000000002D
(1469305090.661260) can0 025#000000027000009F
(1469305090.661549) can0 2C1#0800E4020BC7008B
(1469305090.661746) can0 024#520001FD420A8048
(1469305090.666074) can0 260#0E00000000000078
(1469305090.666242) can0 263#00000000AA0016
(1469305090.666672) can0 0AA#1A6F1A6F1A6F1A6F
(1469305090.667194) can0 1C4#08F92A080000FFFF
(1469305090.668064) can0 1C8#80
(1469305090.672621) can0 020#0000072B
(1469305090.672715) can0 0BA#060000C4
(1469305090.673058) can0 224#0000000000000008
(1469305090.673253) can0 025#000000027000009F
(1469305090.673648) can0 024#520001FA420A8045
(1469305090.675944) can0 262#000000016A
(1469305090.678719) can0 0AA#1A6F1A6F1A6F1A6F
(1469305090.678866) can0 1AA#0000000000B1
(1469305090.681189) can0 423#00
(1469305090.684464) can0 1C8#80
(1469305090.684558) can0 020#0000072B
(1469305090.684919) can0 0B4#00000000020000BE
(1469305090.685117) can0 223#000000000000002D
(1469305090.685349) can0 025#000000027000009F
(1469305090.685624) can0 024#520001F8420A8043
(1469305090.686020) can0 260#0E00000000000078
(1469305090.690750) can0 0AA#1A6F1A6F1A6F1A6F
(1469305090.690917) can0 263#00000000AA0016
(1469305090.691797) can0 1C4#08E82A080000FFEE
(1469305090.692821) can0 1D0#11FF090000AC009E
(1469305090.693796) can0 2C1#0800ED01C7C7004F
(1469305090.696692) can0 020#0000072B
(1469305090.696784) can0 0BA#060000C4
(1469305090.697138) can0 224#0000000000000008
(1469305090.697335) can0 025#000000027000009F
(1469305090.697599) can0 024#520001FA42088043
(1469305090.700913) can0 1C8#80
(1469305090.702796) can0 0AA#1A6F1A6F1A6F1A6F
(1469305090.703370) can0 3A0#0097000000000066
(1469305090.705975) can0 260#0E00000000000078
(1469305090.708746) can0 020#0000072B
(1469305090.708976) can0 0B4#00000000020000BE
(1469305090.709208) can0 025#000000027000009F
(1469305090.709447) can0 223#000000000000002D
(1469305090.709699) can0 024#520001FD42088046
(1469305090.709948) can0 361#001D000000000000
(1469305090.710173) can0 442#4302000001000000
(1469305090.710760) can0 351#00000000
(1469305090.714802) can0 0AA#1A6F1A6F1A6F1A6F
(1469305090.715290) can0 263#00000000AA0016
(1469305090.715868) can0 262#000000016A
(1469305090.716396) can0 1C4#08D22A080000FFD8
(1469305090.717285) can0 1C8#80
(1469305090.720793) can0 020#0000072B
(1469305090.720884) can0 0BA#060000C4
(1469305090.721163) can0 025#000000027000009F
(1469305090.721419) can0 224#0000000000000008
(1469305090.721658) can0 024#520002004208804A
(1469305090.725649) can0 1D0#11CB090000AC006A
(1469305090.725995) can0 260#0E00000000000078
(1469305090.726644) can0 2C1#0800F9018CC70020
(1469305090.726880) can0 0AA#1A6F1A6F1A6F1A6F
(1469305090.727064) can0 1AA#0000000000B1
(1469305090.732816) can0 020#0000072B
(1469305090.733046) can0 0B4#00000000020000BE
(1469305090.733348) can0 025#000000027000009F
(1469305090.733543) can0 223#000000000000002D
(1469305090.733797) can0 024#520001FF42088048
(1469305090.733827) can0 1C8#80
(1469305090.738927) can0 0AA#1A6F1A6F1A6F1A6F
(1469305090.740101) can0 263#00000000AA0016
(1469305090.741052) can0 1C4#08BD2A080000FFC3
(1469305090.744868) can0 020#0000072B
(1469305090.744960) can0 0BA#060000C4
(1469305090.745307) can0 025#000000027000009F
(1469305090.745574) can0 224#0000000000000008
(1469305090.745743) can0 024#520001FD420A8048
(1469305090.745996) can0 260#0E00000000001D95
(1469305090.750214) can0 1C8#80
(1469305090.750932) can0 0AA#1A6F1A6F1A6F1A6F
(1469305090.755843) can0 262#000000016A
(1469305090.756893) can0 020#0000072B
(1469305090.757092) can0 0B4#00000000020000BE
(1469305090.757347) can0 025#000000027000009F
(1469305090.757603) can0 223#000000000000002D
(1469305090.757830) can0 024#520001FB420A8046
(1469305090.758595) can0 1D0#118D090000AC002C
(1469305090.759476) can0 2C1#0801040158C800F9
(1469305090.762997) can0 0AA#1A6F1A6F1A6F1A6F
(1469305090.764699) can0 263#00000000AA0016
(1469305090.765721) can0 1C4#08AA2A080000FFB0
(1469305090.765918) can0 260#0E00000000000078
(1469305090.766609) can0 1C8#80
(1469305090.768920) can0 020#0000072B
(1469305090.769013) can0 0BA#060000C4
(1469305090.769361) can0 025#000000027000009F
(1469305090.769544) can0 224#0000000000000008
(1469305090.769799) can0 024#520001FA420A8045
(1469305090.770776) can0 351#00000000
(1469305090.774971) can0 361#001B000000000000
(1469305090.775142) can0 0AA#1A6F1A6F1A6F1A6F
(1469305090.775336) can0 1AA#0000000000B1
(1469305090.781168) can0 020#0000072B
(1469305090.781368) can0 0B4#00000000020000BE
(1469305090.781630) can0 223#000000000000002D
(1469305090.781848) can0 024#520001FB42088044
(1469305090.782124) can0 025#00010002900000C0
(1469305090.783012) can0 1C8#80
(1469305090.785647) can0 3B1#00000D0A00080000
(1469305090.785952) can0 260#0E00000000000078
(1469305090.787271) can0 0AA#1A6F1A6F1A6F1A6F
(1469305090.789295) can0 263#00000000AA0016
(1469305090.790351) can0 1C4#089E2A080000FFA4
(1469305090.791094) can0 620#1080FFFFB0500040
(1469305090.791383) can0 1D0#1154090000AC00F3
(1469305090.792302) can0 2C1#08010C0125C800CE
(1469305090.793173) can0 020#0000072B
(1469305090.793302) can0 0BA#060000C4
(1469305090.793645) can0 224#0000000000000008
(1469305090.793787) can0 024#520001FB42088044
(1469305090.794119) can0 025#000000027000009F
(1469305090.795919) can0 262#000000016A
(1469305090.798388) can0 354#01
(1469305090.799322) can0 0AA#1A6F1A6F1A6F1A6F
(1469305090.799618) can0 3A0#0098000000000066
(1469305090.799637) can0 1C8#80
(1469305090.805218) can0 020#0000072B
(1469305090.805508) can0 0B4#00000000020000BE
(1469305090.805651) can0 024#520001FD42088046
(1469305090.805972) can0 223#000000000000002D
(1469305090.806176) can0 260#08FFFE000000006F
(1469305090.806474) can0 025#000000027000009F
(1469305090.811098) can0 443#4002002F06000000
(1469305090.811238) can0 0AA#1A6F1A6F1A6F1A6F
(1469305090.813924) can0 263#00000000AA0016
(1469305090.814906) can0 1C4#08852A080000FF8B
(1469305090.815844) can0 1C8#80
(1469305090.817265) can0 020#0000072B
(1469305090.817347) can0 0BA#060000C4
(1469305090.817696) can0 024#520001FD42088046
(1469305090.817906) can0 224#0000000000000008
(1469305090.818193) can0 025#000000027000009F
(1469305090.823375) can0 0AA#1A6F1A6F1A6F1A6F
(1469305090.823522) can0 1AA#0000000000B1
(1469305090.824198) can0 1D0#112F090000AC00CE
(1469305090.825171) can0 2C1#0801180100C800B5
(1469305090.825921) can0 260#08FFFE0000FFE553
(1469305090.829349) can0 4DC#1D00000200000000
(1469305090.829429) can0 020#0000072B
(1469305090.829771) can0 0B4#00000000020000BE
(1469305090.829978) can0 223#000000000000002D
(1469305090.830269) can0 025#000000027000009F
(1469305090.830674) can0 024#520001FD42088046
(1469305090.830780) can0 351#00000000
(1469305090.831087) can0 622#1280581000000000
(1469305090.832226) can0 1C8#80
(1469305090.835427) can0 0AA#1A6F1A6F1A6F1A6F
(1469305090.835846) can0 262#000000016A
(1469305090.838594) can0 263#00000000AA0016
(1469305090.839599) can0 1C4#08652A080000FF6B
(1469305090.840621) can0 361#001A000000000000
(1469305090.841341) can0 020#0000072B
(1469305090.841435) can0 0BA#060000C4
(1469305090.841725) can0 024#520001FD42088046
(1469305090.842022) can0 224#0000000000000008
(1469305090.842217) can0 025#000000027000009F
(1469305090.845906) can0 260#08FFFE0000FFE553
(1469305090.847450) can0 0AA#1A6F1A6F1A6F1A6F
(1469305090.848688) can0 1C8#80
(1469305090.850663) can0 394#4300
(1469305090.853368) can0 020#0000072B
(1469305090.853569) can0 0B4#00000000020000BE
(1469305090.853824) can0 024#520001FB42088044
(1469305090.854079) can0 025#000000027000009F
(1469305090.854384) can0 223#000000000000002D
(1469305090.857052) can0 1D0#10FF090000AC009D
(1469305090.857997) can0 2C1#08012C00DBC900A4
(1469305090.859470) can0 0AA#1A6F1A6F1A6F1A6F
(1469305090.860146) can0 3F9#5198260100000014
(1469305090.863193) can0 263#00000000AA0016
(1469305090.864232) can0 1C4#08462A080000FF4C
(1469305090.865138) can0 1C8#80
(1469305090.865364) can0 020#0000072B
(1469305090.865539) can0 0BA#060000C4
(1469305090.865790) can0 224#0000000000000008
(1469305090.866037) can0 025#000000027000009F
(1469305090.866262) can0 260#08FFFE0000FFF462
(1469305090.866595) can0 387#0000000000003F3F
(1469305090.866744) can0 024#520001FB42088044
(1469305090.871523) can0 0AA#1A6F1A6F1A6F1A6F
(1469305090.871673) can0 1AA#0000000000B1
(1469305090.875827) can0 262#000000016A
(1469305090.877445) can0 020#0000072B
(1469305090.877714) can0 0B4#00000000020000BE
(1469305090.877936) can0 223#000000000000002D
(1469305090.878181) can0 025#000000027000009F
(1469305090.878637) can0 024#520001FB42088044
(1469305090.880534) can0 3D0#00
(1469305090.881521) can0 1C8#80
(1469305090.883530) can0 0AA#1A6F1A6F1A6F1A6F
(1469305090.885671) can0 4DD#1E00000000000000
(1469305090.885881) can0 260#08FFFE0000FFF15F
(1469305090.887822) can0 263#00000000AA0016
(1469305090.888870) can0 1C4#083C2A080000FF42
(1469305090.889489) can0 020#0000072B
(1469305090.889561) can0 0BA#060000C4
(1469305090.889925) can0 224#0000000000000008
(1469305090.890115) can0 025#00010002900000C0
(1469305090.890346) can0 1D0#10AF090000AC004D
(1469305090.890654) can0 024#520001FB42088044
(1469305090.890853) can0 2C1#08013300C2C90092
(1469305090.890988) can0 351#00000000
(1469305090.895531) can0 0AA#1A6F1A6F1A6F1A6F
(1469305090.896124) can0 389#0000000000000000
(1469305090.897985) can0 1C8#80
(1469305090.901494) can0 020#0000072B
(1469305090.901703) can0 0B4#00000000020000BE
(1469305090.901950) can0 223#000000000000002D
(1469305090.902173) can0 025#000000027000009F
(1469305090.902603) can0 024#520001FF42068046
(1469305090.904370) can0 3A0#0098000000000066
(1469305090.905945) can0 260#08FFFE0000FFF15F
(1469305090.906319) can0 361#0019000000000000
(1469305090.907598) can0 0AA#1A6F1A6F1A6F1A6F
(1469305090.911044) can0 440#4202001101000000
(1469305090.912452) can0 263#00000000AA0016
(1469305090.913495) can0 1C4#082B2A080000FF31
(1469305090.913568) can0 020#0000072B
(1469305090.913766) can0 0BA#060000C4
(1469305090.914035) can0 224#0000000000000008
(1469305090.914297) can0 025#000000027000009F
(1469305090.914341) can0 1C8#80
(1469305090.914695) can0 024#520001FF42088048
(1469305090.915845) can0 262#000000016A
(1469305090.919623) can0 0AA#1A6F1A6F1A6F1A6F
(1469305090.919793) can0 1AA#0000000000B1
(1469305090.920024) can0 3B7#583B000000000008
(1469305090.922745) can0 1D0#1074090000AC0012
(1469305090.923702) can0 2C1#08013C00A7C90080
(1469305090.925589) can0 020#0000072B
(1469305090.925778) can0 0B4#00000000020000BE
(1469305090.926016) can0 025#000000027000009F
(1469305090.926241) can0 223#000000000000002D
(1469305090.926554) can0 260#08FFFE0000FFF15F
(1469305090.926756) can0 024#520001FF42088048
(1469305090.926972) can0 38E#2020000000000000
(1469305090.930766) can0 1C8#80
(1469305090.931625) can0 0AA#1A6F1A6F1A6F1A6F
(1469305090.937072) can0 263#00000000AA0016
(1469305090.937589) can0 020#0000072B
(1469305090.937662) can0 0BA#060000C4
(1469305090.937985) can0 224#0000000000000008
(1469305090.938194) can0 025#000000027000009F
(1469305090.938486) can0 1C4#08122A080000FF18
(1469305090.938676) can0 024#520001FB420A8046
(1469305090.943678) can0 0AA#1A6F1A6F1A6F1A6F
(1469305090.945821) can0 260#08FFFE0000FFF15F
(1469305090.947188) can0 1C8#80
(1469305090.949616) can0 020#0000072B
(1469305090.949826) can0 0B4#00000000020000BE
(1469305090.950112) can0 025#000000027000009F
(1469305090.950321) can0 223#000000000000002D
(1469305090.950695) can0 024#520001FA42088043
(1469305090.950763) can0 351#00000000
(1469305090.955520) can0 1D0#1049090000AC00E7
(1469305090.955696) can0 0AA#1A6F1A6F1A6F1A6F
(1469305090.955860) can0 262#000000016A
(1469305090.956146) can0 38F#0300000000000000
(1469305090.956523) can0 2C1#0801470097CA007C
(1469305090.961671) can0 263#00000000AA0016
(1469305090.961764) can0 020#0000072B
(1469305090.961959) can0 0BA#060000C4
(1469305090.962210) can0 224#0000000000000008
(1469305090.962631) can0 024#520001FA42088043
(1469305090.962887) can0 1C4#07FE2A080000FF03
(1469305090.963108) can0 025#000000027000009F
(1469305090.963589) can0 1C8#80
(1469305090.965922) can0 260#08FFFE0000FFF15F
(1469305090.967749) can0 0AA#1A6F1A6F1A6F1A6F
(1469305090.967892) can0 1AA#0000000000B1
(1469305090.971948) can0 361#0018000000000000
(1469305090.973621) can0 020#0000072B
(1469305090.973901) can0 0B4#00000000020000BE
(1469305090.974130) can0 025#000000027000009F
(1469305090.974382) can0 223#000000000000002D
(1469305090.974697) can0 024#520001FB42088044
(1469305090.979772) can0 0AA#1A6F1A6F1A6F1A6F
(1469305090.979934) can0 1C8#80
(1469305090.985126) can0 3A5#0000000000007EFC
(1469305090.985665) can0 020#0000072B
(1469305090.985757) can0 0BA#060000C4
(1469305090.986108) can0 224#0000000000000008
(1469305090.986304) can0 025#000000027000009F
(1469305090.986605) can0 260#08FFFE0000FFF15F
(1469305090.986794) can0 024#520001FD42088046
(1469305090.987041) can0 263#00000000AA0016
(1469305090.987286) can0 6E1#A180000000100000
(1469305090.987601) can0 1C4#07F02A080000FFF5
(1469305090.988346) can0 1D0#1011090000AC00AF
(1469305090.989321) can0 2C1#080189008CCC00B5
(1469305090.991777) can0 0AA#1A6F1A6F1A6F1A6F
(1469305090.995770) can0 262#000000016A
(1469305090.996407) can0 1C8#80
(1469305090.997714) can0 020#0000072B
(1469305090.997922) can0 0B4#00000000020000BE
(1469305090.998222) can0 025#000000027000009F
(1469305090.998417) can0 223#000000000000002D
(1469305090.998682) can0 024#520001FF42088048
(1469305091.003346) can0 3A0#0098000000000066
(1469305091.003589) can0 354#01
(1469305091.003860) can0 0AA#1A6F1A6F1A6F1A6F
(1469305091.005771) can0 260#08FFFF0000FFF160
(1469305091.009394) can0 442#4302000001000000
(1469305091.009765) can0 020#0000072B
(1469305091.009856) can0 0BA#060000C4
(1469305091.010182) can0 224#0000000000000008
(1469305091.010669) can0 024#520001FF420A804A
(1469305091.010868) can0 025#000000027000009F
(1469305091.011094) can0 263#00000000AA0016
(1469305091.011255) can0 351#00000000
(1469305091.011930) can0 1C4#07E12A080000FFE6
(1469305091.012809) can0 1C8#80
(1469305091.015847) can0 0AA#1A6F1A6F1A6F1A6F
(1469305091.015990) can0 1AA#0000000000B1
(1469305091.017120) can0 413#0101010900000000
(1469305091.021224) can0 1D0#0FE5090000AC0082
(1469305091.021766) can0 020#0000072B
(1469305091.021996) can0 0B4#00000000020000BE
(1469305091.022298) can0 223#000000000000002D
(1469305091.022461) can0 2C1#0801680082CB0089
(1469305091.022722) can0 024#520001FD420A8048
(1469305091.022943) can0 025#000000027000009F
(1469305091.025897) can0 260#08FFFF0000FFE554
(1469305091.027873) can0 0AA#1A6F1A6F1A6F1A6F
(1469305091.029219) can0 1C8#80
(1469305091.033820) can0 020#0000072B
(1469305091.033914) can0 0BA#060000C4
(1469305091.034257) can0 224#0000000000000008
(1469305091.034634) can0 024#520001FA420A8045
(1469305091.034874) can0 025#000000027000009F
(1469305091.035600) can0 263#00000000AA0016
(1469305091.035692) can0 262#000000016A
(1469305091.036595) can0 1C4#07DA2A080000FFDF
(1469305091.037621) can0 361#0018000000000000
(1469305091.039933) can0 0AA#1A6F1A6F1A6F1A6F
(1469305091.045075) can0 434#3F00000000000000
(1469305091.045748) can0 260#08FFFF0000FFF160
(1469305091.045825) can0 020#0000072B
(1469305091.046166) can0 0B4#00000000020000BE
(1469305091.046184) can0 1C8#80
(1469305091.046551) can0 223#000000000000002D
(1469305091.046718) can0 024#520001FB420A8046
(1469305091.046963) can0 025#00010002900000C0
(1469305091.051950) can0 0AA#1A6F1A6F1A6F1A6F
(1469305091.054018) can0 1D0#0FC4090000AC0061
(1469305091.055000) can0 2C1#080172007DCB008E
(1469305091.057868) can0 020#0000072B
(1469305091.057945) can0 0BA#060000C4
(1469305091.058306) can0 224#0000000000000008
(1469305091.058697) can0 024#520001FB42088044
(1469305091.058903) can0 025#000000027000009F
(1469305091.060172) can0 263#00000000AA0016
(1469305091.061196) can0 1C4#07CC2A080000FFD1
(1469305091.062087) can0 1C8#80
(1469305091.063951) can0 0AA#1A6F1A6F1A6F1A6F
(1469305091.064102) can0 1AA#0000000000B1
(1469305091.065796) can0 260#08FFFE0000FFF15F
(1469305091.069892) can0 020#0000072B
(1469305091.070088) can0 0B4#00000000020000BE
(1469305091.070341) can0 223#000000000000002D
(1469305091.070539) can0 351#00000000
(1469305091.070815) can0 024#520001FD42088046
(1469305091.071066) can0 025#000000027000009F
(1469305091.072029) can0 6E2#A28000FEFEFEFEFE
(1469305091.072354) can0 380#C0A0400000004400
(1469305091.072671) can0 3B0#00B4005600180000
(1469305091.075663) can0 4AC#2800600100000324
(1469305091.075822) can0 262#000000016A
(1469305091.076062) can0 0AA#1A6F1A6F1A6F1A6F
(1469305091.077095) can0 435#0F0505FFE00FE003
(1469305091.078487) can0 1C8#80
(1469305091.081943) can0 020#0000072B
(1469305091.082050) can0 0BA#060000C4
(1469305091.082406) can0 224#0000000000000008
(1469305091.082698) can0 024#520001FF42088048
(1469305091.082900) can0 025#000000027000009F
(1469305091.084759) can0 263#00000000AA0016
(1469305091.085714) can0 3B1#00000D0900080000
(1469305091.085851) can0 1C4#07B72A080000FFBC
(1469305091.086169) can0 260#08FFFE0000FFF462
(1469305091.086870) can0 1D0#0FA1090000AC003E
(1469305091.087829) can0 2C1#08018B0074CC009F
(1469305091.088200) can0 0AA#1A6F1A6F1A6F1A6F
(1469305091.091980) can0 620#1000FFFFB0500040
(1469305091.093421) can0 610#2000006480FFFD60
(1469305091.094071) can0 020#0000072B
(1469305091.094326) can0 0B4#00000000020000BE
(1469305091.094543) can0 223#000000000000002D
(1469305091.094870) can0 024#520001FF420A804A
(1469305091.095070) can0 025#000000027000009F
(1469305091.095140) can0 1C8#80
(1469305091.100225) can0 0AA#1A6F1A6F1A6F1A6F
(1469305091.103269) can0 361#0017000000000000
(1469305091.105351) can0 3A0#0098000007000066
(1469305091.105674) can0 260#08FFFF0000FFE554
(1469305091.106121) can0 436#0000000000000000
(1469305091.106189) can0 020#0000072B
(1469305091.106391) can0 0BA#060000C4
(1469305091.106699) can0 224#0000000000000008
(1469305091.106905) can0 024#520001FD420A8048
(1469305091.107198) can0 025#00010002900000C0
(1469305091.109397) can0 263#00000000AB0017
(1469305091.110447) can0 1C4#07B22A080000FFB7
(1469305091.111099) can0 443#4002002F06000000
(1469305091.111302) can0 382#2338380000000000
(1469305091.111358) can0 1C8#80
(1469305091.111679) can0 381#0001019080000000
(1469305091.112203) can0 0AA#1A6F1A6F1A6F1A6F
(1469305091.112388) can0 1AA#0000000000B1
(1469305091.115649) can0 262#000000016A
(1469305091.116596) can0 3F9#5198260100000014
(1469305091.118190) can0 020#0000072B
(1469305091.118388) can0 0B4#00000000020000BE
(1469305091.118650) can0 223#000000000000002D
(1469305091.118907) can0 024#520001FB420A8046
(1469305091.119126) can0 025#000000027000009F
(1469305091.119597) can0 3D3#0238
(1469305091.119768) can0 1D0#0F71090000AC000E
(1469305091.120645) can0 2C1#0801930070CC00A3
(1469305091.124273) can0 0AA#1A6F1A6F1A6F1A6F
(1469305091.125726) can0 260#08FFFE0000FFF15F
(1469305091.127738) can0 1C8#80
(1469305091.130217) can0 020#0000072B
(1469305091.130309) can0 0BA#060000C4
(1469305091.130650) can0 224#0000000000000008
(1469305091.130844) can0 024#520001FB42088044
(1469305091.131097) can0 025#000000027000009F
(1469305091.131231) can0 351#00000000
(1469305091.134023) can0 263#00000000AA0016
(1469305091.135001) can0 1C4#07A72A080000FFAC
(1469305091.136030) can0 437#FCFFFFFFFFFFFFFF
(1469305091.136331) can0 0AA#1A6F1A6F1A6F1A6F
(1469305091.136910) can0 3D0#00
(1469305091.141023) can0 621#1100000000000000
(1469305091.142265) can0 020#0000072B
(1469305091.142470) can0 0B4#00000000020000BE
(1469305091.142724) can0 024#520001FB42088044
(1469305091.142945) can0 025#000000027000009F
(1469305091.143192) can0 223#000000000000002D
(1469305091.144085) can0 1C8#80
(1469305091.145770) can0 260#08FFFE0000FFF15F
(1469305091.148374) can0 0AA#1A6F1A6F1A6F1A6F
(1469305091.150513) can0 394#4300
(1469305091.151019) can0 623#1900000000000000
(1469305091.152503) can0 1D0#0F55090000AC00F2
(1469305091.153474) can0 2C1#0802270070D1003D
(1469305091.154290) can0 020#0000072B
(1469305091.154383) can0 0BA#060000C4
(1469305091.154674) can0 224#0000000000000008
(1469305091.154923) can0 024#520001FD42068044
(1469305091.155173) can0 025#000000027000009F
(1469305091.155677) can0 262#000000016A
(1469305091.158607) can0 263#00000000AA0016
(1469305091.159673) can0 1C4#07A02A080000FFA5
(1469305091.160021) can0 624#1A00414949400000
(1469305091.160419) can0 0AA#1A6F1A6F1A6F1A6F
(1469305091.160567) can0 1AA#0000000000B1
(1469305091.160641) can0 1C8#80
(1469305091.165657) can0 260#08FFFE0000FFE553
(1469305091.166294) can0 020#0000072B
(1469305091.166611) can0 0B4#00000000020000BE
(1469305091.166822) can0 024#520001FF42088048
(1469305091.167047) can0 025#000000027000009F
(1469305091.167294) can0 223#000000000000002D
(1469305091.168873) can0 361#0018000000000000
(1469305091.169155) can0 626#1C00300000000000
(1469305091.172451) can0 0AA#1A6F1A6F1A6F1A6F
(1469305091.176963) can0 1C8#80
(1469305091.178019) can0 638#1300180100000000
(1469305091.178366) can0 020#0000072B
(1469305091.178538) can0 0BA#060000C4
(1469305091.178746) can0 024#520001FD42088046
(1469305091.178988) can0 025#000000027000009F
(1469305091.179246) can0 224#0000000000000008
(1469305091.183204) can0 263#00000000AA0016
(1469305091.184281) can0 1C4#078D2A080000FF92
(1469305091.184449) can0 0AA#1A6F1A6F1A6F1A6F
(1469305091.185271) can0 1D0#0F45090000AC00E2
(1469305091.185694) can0 260#08FFFE0000FFF15F
(1469305091.186295) can0 2C1#080239006CD1004B
(1469305091.186997) can0 63C#98005A5245172060
(1469305091.190351) can0 020#0000072B
(1469305091.190671) can0 0B4#00000000000000BC
(1469305091.190843) can0 024#520001FD42088046
(1469305091.191142) can0 025#000000027000009F
(1469305091.191342) can0 223#000000000000002D
(1469305091.191505) can0 351#00000000
(1469305091.193336) can0 1C8#80
(1469305091.195650) can0 262#000000016A
(1469305091.195960) can0 63D#9900444558534B00
(1469305091.196477) can0 0AA#1A6F1A6F1A6F1A6F
(1469305091.201323) can0 3A0#0099000007000066
(1469305091.202465) can0 020#0000072B
(1469305091.202547) can0 0BA#05FD00C0
(1469305091.202896) can0 224#0000000000000008
(1469305091.203060) can0 025#000000027000009F
(1469305091.203627) can0 024#020001FB420880F4
(1469305091.204964) can0 680#D800010000000000
(1469305091.205701) can0 260#08FFFE0000FFE553
(1469305091.207898) can0 263#00000000AA0016
(1469305091.208606) can0 0AA#1A6F1A6F1A6F1A6F
(1469305091.208699) can0 1AA#0000000000B1
(1469305091.209022) can0 1C4#07832A080000FF88
(1469305091.209041) can0 354#01
(1469305091.209811) can0 1C8#80
(1469305091.210997) can0 440#4202001101000000
(1469305091.214496) can0 020#0000072B
(1469305091.214696) can0 0B4#00000000000000BC
(1469305091.214947) can0 025#000000027000009F
(1469305091.215193) can0 223#000000000000002D
(1469305091.215659) can0 024#020001FB420880F4
(1469305091.218171) can0 1D0#0F2A090000AC00C7
(1469305091.219146) can0 2C1#08024B0070D20062
(1469305091.220599) can0 0AA#1A6F1A6F1A6F1A6F
(1469305091.220770) can0 3B7#583B000000000008
(1469305091.225701) can0 260#08FFFE0000FFE553
(1469305091.226215) can0 1C8#80
(1469305091.226458) can0 020#0000072B
(1469305091.226639) can0 0BA#05FB00BE
(1469305091.226900) can0 025#000000027000009F
(1469305091.227203) can0 224#0000000000000008
(1469305091.227699) can0 024#020001FB420680F2
(1469305091.232597) can0 263#00000000AB0017
(1469305091.232664) can0 0AA#1A6F1A6F1A6F1A6F
(1469305091.233594) can0 1C4#07732A080000FF78
(1469305091.234594) can0 361#0018000000000000
(1469305091.235672) can0 262#000000016A
(1469305091.238589) can0 020#0000072B
(1469305091.238795) can0 0B4#00000000000000BC
(1469305091.239086) can0 223#000000000000002D
(1469305091.239699) can0 024#020001FD420680F4
(1469305091.239906) can0 025#000000027000009F
(1469305091.242636) can0 1C8#80
(1469305091.244672) can0 0AA#1A6F1A6F1A6F1A6F
(1469305091.245648) can0 260#08FFFE0000FFE856
(1469305091.250491) can0 351#00000000
(1469305091.250579) can0 020#0000072B
(1469305091.250832) can0 0BA#05FD00C0
(1469305091.251043) can0 1D0#0F08090000AC00A5
(1469305091.251333) can0 224#0000000000000008
(1469305091.251724) can0 024#020001FD420880F6
(1469305091.251932) can0 025#000000027000009F
(1469305091.252213) can0 2C1#0802630079D30084
(1469305091.256663) can0 0AA#1A6F1A6F1A6F1A6F
(1469305091.256828) can0 1AA#0000000000B1
(1469305091.257052) can0 263#00000000AB0017
(1469305091.258059) can0 1C4#07612A080000FF66
(1469305091.258946) can0 1C8#80
(1469305091.262567) can0 020#0000072B
(1469305091.262816) can0 0B4#00000000000000BC
(1469305091.263111) can0 223#000000000000002D
(1469305091.263645) can0 024#020001FD420880F6
(1469305091.263891) can0 025#00010002900000C0
(1469305091.265713) can0 260#08FFFE0000FFE553
(1469305091.268715) can0 0AA#1A6F1A6F1A6F1A6F
(1469305091.274661) can0 020#0000072B
(1469305091.274825) can0 0BA#05FD00C0
(1469305091.275074) can0 224#0000000000000008
(1469305091.275413) can0 1C8#80
(1469305091.275690) can0 024#020001FD420880F6
(1469305091.275907) can0 025#000000027000009F
(1469305091.276075) can0 262#000000016A
(1469305091.280765) can0 0AA#1A6F1A6F1A6F1A6F
(1469305091.281738) can0 263#00000000AB0017
(1469305091.282764) can0 1C4#075E2A080000FF63
(1469305091.283816) can0 1D0#0ED2090000AC006E
(1469305091.284787) can0 2C1#0802690088D30099
(1469305091.285637) can0 260#08FFFE0000FFE553
(1469305091.286677) can0 020#0000072B
(1469305091.286980) can0 0B4#00000000000000BC
(1469305091.287200) can0 223#000000000000002D
(1469305091.287665) can0 025#00010002900000C0
(1469305091.287912) can0 024#020001FD420A80F8
(1469305091.291879) can0 1C8#80
(1469305091.292813) can0 0AA#1A6F1A6F1A6F1A6F
(1469305091.298757) can0 020#0000072B
(1469305091.298925) can0 0BA#05FD00C0
(1469305091.299174) can0 224#0000000000000008
(1469305091.299591) can0 025#000000027000009F
(1469305091.299837) can0 024#020001FB420880F4
(1469305091.300211) can0 361#0018000000000000
(1469305091.303288) can0 3A0#0099000007000066
(1469305091.304865) can0 0AA#1A6F1A6F1A6F1A6F
(1469305091.305084) can0 1AA#0000000000B1
(1469305091.305588) can0 260#08FFFE0000FFE553
(1469305091.306330) can0 263#00000000AB0017
(1469305091.307357) can0 1C4#07532A080000FF58
(1469305091.308278) can0 1C8#80
(1469305091.309338) can0 442#4302000001000000
(1469305091.310407) can0 351#00000000
(1469305091.310782) can0 020#0000072B
(1469305091.311056) can0 0B4#00000000000000BC
(1469305091.311305) can0 223#000000000000002D
(1469305091.311645) can0 025#000000027000009F
(1469305091.311892) can0 024#020001FD420A80F8
(1469305091.315559) can0 262#000000016A
(1469305091.316610) can0 1D0#0EBE090000AC005A
(1469305091.316880) can0 0AA#1A6F1A6F1A6F1A6F
(1469305091.317587) can0 2C1#0802700094D300AC
(1469305091.322835) can0 020#0000072B
(1469305091.323050) can0 0BA#05FD00C0
(1469305091.323299) can0 224#0000000000000008
(1469305091.323563) can0 025#000000027000009F
(1469305091.323812) can0 024#020001FD420880F6
(1469305091.324703) can0 1C8#80
(1469305091.325640) can0 260#08FFFE0000FFE553
(1469305091.329113) can0 0AA#1A6F1A6F1A6F1A6F
(1469305091.330987) can0 263#00000000AB0017
(1469305091.332015) can0 1C4#07532A080000FF58
(1469305091.335057) can0 020#0000072B
(1469305091.335311) can0 0B4#00000000000000BC
(1469305091.335563) can0 025#000000027000009F
(1469305091.335807) can0 024#020001FD420880F6
(1469305091.336028) can0 223#000000000000002D
(1469305091.341200) can0 0AA#1A6F1A6F1A6F1A6F
(1469305091.341247) can0 1C8#80
(1469305091.341527) can0 3BB#0000AB00
(1469305091.345574) can0 260#08FFFE0000FFE553
(1469305091.347118) can0 020#0000072B
(1469305091.347270) can0 0BA#05FD00C0
(1469305091.347506) can0 224#0000000000000008
(1469305091.347755) can0 024#020001FD420A80F8
(1469305091.348008) can0 025#00010002900000C0
(1469305091.349473) can0 1D0#0EA3090000AC003F
(1469305091.350447) can0 2C1#0801F700A0CF003A
(1469305091.353224) can0 0AA#1A6F1A6F1A6F1A6F
(1469305091.353403) can0 1AA#0000000000B1
(1469305091.355542) can0 262#000000016A
(1469305091.355754) can0 263#00000000AB0017
(1469305091.356647) can0 1C4#073D2A080000FF42
(1469305091.357509) can0 1C8#80
(1469305091.359167) can0 020#0000072B
(1469305091.359400) can0 0B4#00000000000000BC
(1469305091.359664) can0 025#000000027000009F
(1469305091.359911) can0 024#020001FD420A80F8
(1469305091.360135) can0 223#000000000000002D
(1469305091.365274) can0 0AA#1A6F1A6F1A6F1A6F
(1469305091.365532) can0 260#08FFFF0000FFE554
(1469305091.365897) can0 361#0018000000000000
(1469305091.370446) can0 351#00000000
(1469305091.371248) can0 020#0000072B
(1469305091.371332) can0 0BA#05FD00C0
(1469305091.371676) can0 025#000000027000009F
(1469305091.371882) can0 024#020001FD420A80F8
(1469305091.372131) can0 224#0000000000000008
(1469305091.373101) can0 3F9#5198260100000014
(1469305091.373993) can0 1C8#80
(1469305091.377353) can0 0AA#1A6F1A6F1A6F1A6F
(1469305091.380304) can0 263#00000000AB0017
(1469305091.381325) can0 1C4#07322A080000FF37
(1469305091.382350) can0 1D0#0E90090000AC002C
(1469305091.383326) can0 2C1#08020800AAD00057
(1469305091.383409) can0 020#0000072B
(1469305091.383754) can0 0B4#00000000000000BC
(1469305091.383957) can0 223#000000000000002D
(1469305091.384203) can0 4C3#0300000100000000
(1469305091.384576) can0 025#000000027000009F
(1469305091.384798) can0 024#020001FD420A80F8
(1469305091.385649) can0 260#08FFFE0000FFE553
(1469305091.389375) can0 0AA#1A6F1A6F1A6F1A6F
(1469305091.390420) can0 1C8#80
(1469305091.390977) can0 620#1000FFFFB0500040
(1469305091.393468) can0 3D0#00
(1469305091.395321) can0 020#0000072B
(1469305091.395403) can0 0BA#05FD00C0
(1469305091.395751) can0 224#0000000000000008
(1469305091.395954) can0 024#020001FD420880F6
(1469305091.396176) can0 025#000000027000009F
(1469305091.396349) can0 262#000000016A
(1469305091.401428) can0 0AA#1A6F1A6F1A6F1A6F
(1469305091.401564) can0 1AA#0000000000B1
(1469305091.402324) can0 3A0#009A000007000066
(1469305091.404928) can0 263#00000000AB0017
(1469305091.405599) can0 260#08FFFF0000FFE554
(1469305091.405926) can0 1C4#07262A080000FF2B
(1469305091.406773) can0 1C8#80
(1469305091.407289) can0 020#0000072B
(1469305091.407559) can0 0B4#00000000000000BC
(1469305091.407804) can0 024#020001FD420880F6
(1469305091.408021) can0 025#000000027000009F
(1469305091.408266) can0 223#000000000000002D
(1469305091.411096) can0 443#4002002F06000000
(1469305091.413475) can0 0AA#1A6F1A6F1A6F1A6F
(1469305091.413988) can0 354#01
(1469305091.415170) can0 1D0#0E72090000AC000E
(1469305091.416148) can0 2C1#08021700B1D0006D
(1469305091.419415) can0 020#0000072B
(1469305091.419511) can0 0BA#05FD00C0
(1469305091.419841) can0 024#020001FD420880F6
(1469305091.420037) can0 224#0000000000000008
(1469305091.420596) can0 025#000000027000009F
(1469305091.423214) can0 1C8#80
(1469305091.425498) can0 0AA#1A6F1A6F1A6F1A6F
(1469305091.425694) can0 260#08FFFE0000FFE553
(1469305091.429477) can0 263#00000000AB0017
(1469305091.430359) can0 351#00000000
(1469305091.430589) can0 1C4#07192A080000FF1E
(1469305091.431382) can0 020#0000072B
(1469305091.431640) can0 0B4#00000000000000BC
(1469305091.431906) can0 024#020001FD420A80F8
(1469305091.432168) can0 223#000000000000002D
(1469305091.432415) can0 361#0018000000000000
(1469305091.432609) can0 025#000000027000009F
(1469305091.435596) can0 262#000000016A
(1469305091.437556) can0 0AA#1A6F1A6F1A6F1A6F
(1469305091.439643) can0 1C8#80
(1469305091.443464) can0 020#0000072B
(1469305091.443555) can0 0BA#05FD00C0
(1469305091.443894) can0 224#0000000000000008
(1469305091.444517) can0 025#000000027000009F
(1469305091.444660) can0 024#020001FD420880F6
(1469305091.445624) can0 260#08FFFE0000FFE553
(1469305091.447973) can0 1D0#0E46090000AC00E2
(1469305091.448878) can0 2C1#08022700B7D10084
(1469305091.449594) can0 0AA#1A6F1A6F1A6F1A6F
(1469305091.449680) can0 1AA#0000000000B1
(1469305091.450359) can0 394#4300
(1469305091.454123) can0 263#00000000AB0017
(1469305091.455147) can0 1C4#07082A080000FF0D
(1469305091.455438) can0 4C1#0100000500000000
(1469305091.455517) can0 020#0000072B
(1469305091.455843) can0 0B4#00000000000000BC
(1469305091.456021) can0 223#000000000000002D
(1469305091.456080) can0 1C8#80
(1469305091.456549) can0 025#000000027000009F
(1469305091.456744) can0 024#020001FD420880F6
(1469305091.461624) can0 0AA#1A6F1A6F1A6F1A6F
(1469305091.465598) can0 260#08FFFE0000FFE856
(1469305091.467593) can0 020#0000072B
(1469305091.467653) can0 0BA#05FD00C0
(1469305091.467906) can0 224#0000000000000008
(1469305091.468404) can0 025#000000027000009F
(1469305091.468702) can0 024#020001FD420880F6
(1469305091.472443) can0 1C8#80
(1469305091.473675) can0 0AA#1A6F1A6F1A6F1A6F
(1469305091.475516) can0 262#000000016A
(1469305091.478746) can0 263#00000000AB0017
(1469305091.479621) can0 020#0000072B
(1469305091.479813) can0 0B4#00000000000000BC
(1469305091.480069) can0 1C4#06FB2A080000FFFF
(1469305091.480314) can0 223#000000000000002D
(1469305091.480623) can0 025#000000027000009F
(1469305091.480802) can0 024#020001FD420680F4
(1469305091.481045) can0 1D0#0E28090000AC00C4
(1469305091.481771) can0 2C1#08023B00B9D1009A
(1469305091.485601) can0 260#08FFFE0000FFE553
(1469305091.485768) can0 0AA#1A6F1A6F1A6F1A6F
(1469305091.488863) can0 1C8#80
(1469305091.490371) can0 351#00000000
(1469305091.491692) can0 020#0000072B
(1469305091.491769) can0 0BA#05FD00C0
(1469305091.492110) can0 224#0000000000000008
(1469305091.492460) can0 025#000000027000009F
(1469305091.492774) can0 024#020001FB420880F4
(1469305091.497226) can0 361#0019000000000000
(1469305091.497757) can0 0AA#1A6F1A6F1A6F1A6F
(1469305091.497912) can0 1AA#0000000000B1
(1469305091.501399) can0 640#A8000057012C0000
(1469305091.503370) can0 263#00000000AB0017
(1469305091.503749) can0 020#0000072B
(1469305091.503942) can0 0B4#00000000000000BC
(1469305091.504243) can0 223#000000000000002D
(1469305091.504446) can0 1C4#06F72A080000FFFB
(1469305091.504737) can0 025#00010002900000C0
(1469305091.504918) can0 024#020001FB420880F4
(1469305091.505174) can0 3A0#009A000007000065
(1469305091.505241) can0 1C8#80
(1469305091.505597) can0 260#08FFFE0000FFE553
(1469305091.509845) can0 0AA#1A6F1A6F1A6F1A6F
(1469305091.510945) can0 440#4202001101000000
(1469305091.513623) can0 1D0#0E08090000AC00A4
(1469305091.514596) can0 2C1#08023E00B7D1009B
(1469305091.515464) can0 262#000000016A
(1469305091.515789) can0 020#0000072B
(1469305091.515879) can0 0BA#05FB00BE
(1469305091.516204) can0 224#0000000000000008
(1469305091.516403) can0 025#000000027000009F
(1469305091.516642) can0 420#00000000FB0180A8
(1469305091.516871) can0 024#020001FB420880F4
(1469305091.521684) can0 1C8#80
(1469305091.521884) can0 0AA#1A6F1A6F1A6F1A6F
(1469305091.522112) can0 3B7#583B000000000008
(1469305091.525500) can0 260#08FFFE0000FFE553
(1469305091.527818) can0 020#0000072B
(1469305091.528045) can0 0B4#00000000000000BC
(1469305091.528260) can0 223#000000000000002D
(1469305091.528515) can0 025#00010002900000C0
(1469305091.528745) can0 024#020001FB420880F4
(1469305091.528977) can0 263#00000000AB0017
(1469305091.529229) can0 1C4#06F32A080000FFF7
(1469305091.533883) can0 0AA#1A6F1A6F1A6F1A6F
(1469305091.538043) can0 1C8#80
(1469305091.539860) can0 020#0000072B
(1469305091.540006) can0 0BA#05FB00BE
(1469305091.540335) can0 224#0000000000000008
(1469305091.540545) can0 025#00010002900000C0
(1469305091.540772) can0 024#020001FD420880F6
(1469305091.545600) can0 260#08FFFE0000FFE553
(1469305091.546144) can0 0AA#1A6F1A6F1A6F1A6F
(1469305091.546315) can0 1AA#0000000000B1
(1469305091.546549) can0 1D0#0DF6090000AC0091
(1469305091.547423) can0 2C1#08024600B9D200A6
(1469305091.550366) can0 351#00000000
(1469305091.552073) can0 020#0000072B
(1469305091.552305) can0 0B4#00000000000000BC
(1469305091.552607) can0 025#00010002900000C0
(1469305091.552769) can0 024#020001FD420880F6
(1469305091.553022) can0 223#000000000000002D
(1469305091.553244) can0 263#00000000AB0017
(1469305091.553671) can0 1C4#06EB2A080000FFEF
(1469305091.554508) can0 1C8#80
(1469305091.555516) can0 262#000000016A
(1469305091.558195) can0 0AA#1A6F1A6F1A6F1A6F
(1469305091.562869) can0 361#0019000000000000
(1469305091.564146) can0 020#0000072B
(1469305091.564240) can0 0BA#05FD00C0
(1469305091.564594) can0 224#0000000000000008
(1469305091.564745) can0 024#020001FD420880F6
(1469305091.564997) can0 025#000000027000009F
(1469305091.565594) can0 260#08FFFE0000FFE553
(1469305091.570253) can0 0AA#1A6F1A6F1A6F1A6F
(1469305091.570910) can0 1C8#80
(1469305091.575772) can0 4AC#4800A00100000304
(1469305091.576189) can0 020#0000072B
(1469305091.576386) can0 0B4#00000000000000BC
(1469305091.576648) can0 025#00010002900000C0
(1469305091.576872) can0 024#020001FB420880F4
(1469305091.577184) can0 223#000000000000002D
(1469305091.577340) can0 263#00000000AB0017
(1469305091.578143) can0 1C4#06DC2A080000FFE0
(1469305091.579189) can0 1D0#0DD7090000AC0072
(1469305091.580168) can0 2C1#08025000BFD200B6
(1469305091.582270) can0 0AA#1A6F1A6F1A6F1A6F
(1469305091.585527) can0 260#08FFFE0000FFE553
(1469305091.585719) can0 3B1#00000D0500080000
(1469305091.587335) can0 1C8#80
(1469305091.587543) can0 4C6#0700030000000000
(1469305091.588213) can0 020#0000072B
(1469305091.588354) can0 0BA#05FB00BE
(1469305091.588567) can0 224#0000000000000008
(1469305091.588811) can0 024#020001FB420880F4
(1469305091.589368) can0 025#000000027000009F
(1469305091.591395) can0 610#2000006480FFFD60
(1469305091.594347) can0 0AA#1A6F1A6F1A6F1A6F
(1469305091.594541) can0 1AA#0000000000B1
(1469305091.595439) can0 262#000000016A
(1469305091.600298) can0 020#0000072B
(1469305091.600538) can0 0B4#00000000000000BC
(1469305091.600756) can0 024#020001FD420A80F8
(1469305091.601006) can0 223#000000000000002D
(1469305091.601260) can0 4C8#0900000000000000
(1469305091.601519) can0 025#000000027000009F
(1469305091.601739) can0 263#00000000AB0017
(1469305091.602767) can0 1C4#06D62A080000FFDA
(1469305091.603223) can0 3A0#0098000007000066
(1469305091.603518) can0 611#21000020000062D4
(1469305091.603652) can0 1C8#80
(1469305091.605524) can0 260#08FFFE0000FFE553
(1469305091.606405) can0 0AA#1A6F1A6F1A6F1A6F
(1469305091.610279) can0 351#00000000
(1469305091.612097) can0 1D0#0DC2090000AC005D
(1469305091.612410) can0 442#4302000001000000
(1469305091.612502) can0 020#0000072B
(1469305091.612668) can0 0BA#05FD00C0
(1469305091.612983) can0 224#0000000000000008
(1469305091.613155) can0 2C1#08025500C5D200C1
(1469305091.613412) can0 025#000000027000009F
(1469305091.613720) can0 024#020001FD420880F6
(1469305091.618399) can0 0AA#1A6F1A6F1A6F1A6F
(1469305091.619062) can0 354#01
(1469305091.620087) can0 1C8#80
(1469305091.624392) can0 020#0000072B
(1469305091.624595) can0 0B4#00000000000000BC
(1469305091.624851) can0 024#020001FD420A80F8
(1469305091.625103) can0 223#000000000000002D
(1469305091.625492) can0 025#000000027000009F
(1469305091.625695) can0 260#08FFFE0000FFE553
(1469305091.626443) can0 263#00000000AB0017
(1469305091.627470) can0 1C4#06CE2A080000FFD2
(1469305091.628484) can0 361#0019000000000000
(1469305091.629439) can0 3F9#5198260100000014
(1469305091.630466) can0 0AA#1A6F1A6F1A6F1A6F
(1469305091.635378) can0 262#000000016A
(1469305091.636424) can0 020#0000072B
(1469305091.636509) can0 0BA#05FD00C0
(1469305091.636845) can0 024#020001FD420880F6
(1469305091.636861) can0 1C8#80
(1469305091.637206) can0 224#0000000000000008
(1469305091.637411) can0 025#000000027000009F
(1469305091.642600) can0 0AA#1A6F1A6F1A6F1A6F
(1469305091.642670) can0 1AA#0000000000B1
(1469305091.644794) can0 3D3#01B6
(1469305091.645030) can0 1D0#0DA7090000AC0042
(1469305091.645441) can0 260#08FFFE0000FFE553
(1469305091.645876) can0 2C1#08025F00CBD200D1
(1469305091.648477) can0 020#0000072B
(1469305091.648713) can0 0B4#00000000000000BC
(1469305091.648956) can0 223#000000000000002D
(1469305091.649356) can0 025#000000027000009F
(1469305091.649732) can0 024#020001FD420A80F8
(1469305091.649843) can0 3D0#00
(1469305091.651010) can0 263#00000000AB0017
(1469305091.652083) can0 1C4#06C32A080000FFC7
(1469305091.652965) can0 1C8#80
(1469305091.654600) can0 0AA#1A6F1A6F1A6F1A6F
(1469305091.660523) can0 020#0000072B
(1469305091.660606) can0 0BA#05FD00C0
(1469305091.660926) can0 224#0000000000000008
(1469305091.661264) can0 025#000000027000009F
(1469305091.661778) can0 024#020001FB420A80F6
(1469305091.665504) can0 260#08FFFE0000FFE553
(1469305091.666628) can0 0AA#1A6F1A6F1A6F1A6F
(1469305091.669395) can0 1C8#80
(1469305091.670270) can0 351#00000000
(1469305091.672597) can0 020#0000072B
(1469305091.672784) can0 0B4#00000000000000BC
(1469305091.673022) can0 223#000000000000002D
(1469305091.673414) can0 025#000000027000009F
(1469305091.673778) can0 024#020001FD420A80F8
(1469305091.675422) can0 262#000000016A
(1469305091.675632) can0 263#00000000AB0017
(1469305091.676701) can0 1C4#06BC2A080000FFC0
(1469305091.677725) can0 1D0#0D97090000AC0032
(1469305091.678676) can0 0AA#1A6F1A6F1A6F1A6F
(1469305091.678863) can0 2C1#08026700CFD300DE
(1469305091.684623) can0 020#0000072B
(1469305091.684708) can0 0BA#05FD00C0
(1469305091.685043) can0 224#0000000000000008
(1469305091.685275) can0 025#000000027000009F
(1469305091.685602) can0 260#08FFFE0000FFF462
(1469305091.685737) can0 024#020001FB420A80F6
(1469305091.685806) can0 1C8#80
(1469305091.688344) can0 423#00
(1469305091.690724) can0 0AA#1A6F1A6F1A6F1A6F
(1469305091.690860) can0 1AA#0000000000B1
(1469305091.691135) can0 620#1000FFFFB0500040
(1469305091.694154) can0 361#0019000000000000
(1469305091.696209) can0 3BC#0020000000000000
(1469305091.696645) can0 020#0000072B
(1469305091.696880) can0 0B4#00000000000000BC
(1469305091.697183) can0 223#000000000000002D
(1469305091.697388) can0 025#000000027000009F
(1469305091.697775) can0 024#020001FB420A80F6
(1469305091.698248) can0 399#00000000000000
(1469305091.700234) can0 263#00000000AB0017
(1469305091.701264) can0 1C4#06A629080000FFA9
(1469305091.702192) can0 1C8#80
(1469305091.702378) can0 38A#0804000000
(1469305091.702767) can0 0AA#1A6F1A6F1A6F1A6F
(1469305091.705304) can0 3A0#0098000007000066
(1469305091.705613) can0 260#08FFFE0000FFE553
(1469305091.708698) can0 020#0000072B
(1469305091.708782) can0 0BA#05FB00BE
(1469305091.709136) can0 224#0000000000000008
(1469305091.709342) can0 025#000000027000009F
(1469305091.709729) can0 024#020001FD420A80F8
(1469305091.710552) can0 1D0#0D72090000AC000D
(1469305091.711051) can0 443#4002002F06000000
(1469305091.711476) can0 2C1#08028C00D1D40006
(1469305091.714777) can0 0AA#1A6F1A6F1A6F1A6F
(1469305091.715395) can0 262#000000016A
(1469305091.718618) can0 1C8#80
(1469305091.720743) can0 020#0000072B
(1469305091.720969) can0 0B4#00000000000000BC
(1469305091.721262) can0 223#000000000000002D
(1469305091.721463) can0 025#000000027000009F
(1469305091.721757) can0 024#020001FD420880F6
(1469305091.724897) can0 263#00000000AB0017
(1469305091.725468) can0 260#08FFFE0000FFE553
(1469305091.725921) can0 1C4#069F29080000FFA2
(1469305091.726845) can0 0AA#1A6F1A6F1A6F1A6F
(1469305091.730267) can0 351#00000000
(1469305091.732765) can0 020#0000072B
(1469305091.732858) can0 0BA#05FD00C0
(1469305091.733183) can0 224#0000000000000008
(1469305091.733380) can0 025#000000027000009F
(1469305091.733770) can0 024#020001FD420880F6
(1469305091.735039) can0 1C8#80
(1469305091.738848) can0 0AA#1A6F1A6F1A6F1A6F
(1469305091.738991) can0 1AA#0000000000B1
(1469305091.743372) can0 1D0#0D56090000AC00F1
(1469305091.744358) can0 2C1#08028700D5D40005
(1469305091.744767) can0 020#0000072B
(1469305091.744967) can0 0B4#00000000000000BC
(1469305091.745224) can0 025#000000027000009F
(1469305091.745473) can0 223#000000000000002D
(1469305091.745770) can0 260#08FFFE0000FFE553
(1469305091.745943) can0 024#020001FB420880F4
(1469305091.749523) can0 263#00000000AB0017
(1469305091.750194) can0 394#4300
(1469305091.750553) can0 1C4#069329080000FF96
(1469305091.750825) can0 0AA#1A6F1A6F1A6F1A6F
(1469305091.751394) can0 1C8#80
(1469305091.755342) can0 262#000000016A
(1469305091.756821) can0 020#0000072B
(1469305091.756915) can0 0BA#05FB00BE
(1469305091.757239) can0 025#00010002900000C0
(1469305091.757434) can0 224#0000000000000008
(1469305091.757725) can0 024#020001FB420880F4
(1469305091.759806) can0 361#0019000000000000
(1469305091.762898) can0 0AA#1A6F1A6F1A6F1A6F
(1469305091.765376) can0 260#08FFFE0000FFE856
(1469305091.767841) can0 1C8#80
(1469305091.768843) can0 020#0000072B
(1469305091.769072) can0 0B4#00000000000000BC
(1469305091.769373) can0 025#000000027000009F
(1469305091.769570) can0 223#000000000000002D
(1469305091.769821) can0 024#020001FB420880F4
(1469305091.774120) can0 263#00000000AB0017
(1469305091.775097) can0 0AA#1A6F1A6F1A6F1A6F
(1469305091.775294) can0 1C4#068E29080000FF91
(1469305091.776205) can0 1D0#0D38090000AC00D3
(1469305091.777169) can0 2C1#08028A00E0D40013
(1469305091.781018) can0 020#0000072B
(1469305091.781112) can0 0BA#05FB00BE
(1469305091.781415) can0 224#0000000000000008
(1469305091.781657) can0 025#000000027000009F
(1469305091.781951) can0 024#020001FB420880F4
(1469305091.784265) can0 1C8#80
(1469305091.785425) can0 260#08FFFE0000FFE553
(1469305091.787121) can0 0AA#1A6F1A6F1A6F1A6F
(1469305091.787291) can0 1AA#0000000000B1
(1469305091.790221) can0 351#00000000
(1469305091.793041) can0 020#0000072B
(1469305091.793281) can0 0B4#00000000000000BC
(1469305091.793597) can0 223#000000000000002D
(1469305091.793753) can0 024#020001FD420880F6
(1469305091.794318) can0 025#00010002900000C0
(1469305091.795366) can0 262#000000016A
(1469305091.798748) can0 263#00000000AB0017
(1469305091.799169) can0 0AA#1A6F1A6F1A6F1A6F
(1469305091.799773) can0 1C4#068D29080000FF90
(1469305091.800662) can0 1C8#80
(1469305091.801247) can0 3A0#0099000007000066
(1469305091.805119) can0 020#0000072B
(1469305091.805214) can0 0BA#05FD00C0
(1469305091.805595) can0 224#0000000000000008
(1469305091.805744) can0 024#020001FD420880F6
(1469305091.805998) can0 260#08FFFE0000FFE553
(1469305091.806250) can0 025#000000027000009F
(1469305091.809024) can0 1D0#0D25090000AC00C0
(1469305091.809998) can0 2C1#08028800E8D40019
(1469305091.810897) can0 440#4202001101000000
(1469305091.811204) can0 0AA#1A6F1A6F1A6F1A6F
(1469305091.817064) can0 1C8#80
(1469305091.817203) can0 020#0000072B
(1469305091.817456) can0 0B4#00000000000000BC
(1469305091.817700) can0 223#000000000000002D
(1469305091.818003) can0 024#020001FD420880F6
(1469305091.818192) can0 025#000000027000009F
(1469305091.823216) can0 0AA#1A6F1A6F1A6F1A6F
(1469305091.823447) can0 263#00000000AB0017
(1469305091.823707) can0 3B7#583B000000000008
(1469305091.824375) can0 1C4#068429080000FF87
(1469305091.824402) can0 354#01
(1469305091.825397) can0 260#08FFFE0000FFE553
(1469305091.825595) can0 361#0019000000000000
(1469305091.829194) can0 020#0000072B
(1469305091.829288) can0 0BA#05FD00C0
(1469305091.829622) can0 224#0000000000000008
(1469305091.829819) can0 024#020001FD420880F6
(1469305091.830127) can0 025#000000027000009F
(1469305091.830870) can0 622#1200581000000000
(1469305091.831276) can0 383#0100010000000000
(1469305091.831599) can0 4DC#1D00000200000000
(1469305091.833438) can0 1C8#80
(1469305091.835324) can0 0AA#1A6F1A6F1A6F1A6F
(1469305091.835468) can0 1AA#0000000000B1
(1469305091.835641) can0 262#000000016A
(1469305091.841218) can0 020#0000072B
(1469305091.841465) can0 0B4#00000000000000BC
(1469305091.841720) can0 223#000000000000002D
(1469305091.841971) can0 024#020001FD420880F6
(1469305091.842181) can0 025#000000027000009F
(1469305091.842418) can0 1D0#0D11090000AC00AC
(1469305091.842716) can0 2C1#08029600EED4002D
(1469305091.845380) can0 260#08FFFE0000FFE553
(1469305091.847348) can0 0AA#1A6F1A6F1A6F1A6F
(1469305091.847973) can0 263#00000000AB0017
(1469305091.848997) can0 1C4#067729080000FF7A
(1469305091.849886) can0 1C8#80
(1469305091.850205) can0 351#00000000
(1469305091.853257) can0 020#0000072B
(1469305091.853422) can0 0BA#05FD00C0
(1469305091.853721) can0 224#0000000000000008
(1469305091.853919) can0 024#020001FB420880F4
(1469305091.854221) can0 025#00010002900000C0
(1469305091.859424) can0 0AA#1A6F1A6F1A6F1A6F
(1469305091.865096) can0 387#0000000000003F3F
(1469305091.865294) can0 260#08FFFE0000FFE553
(1469305091.865460) can0 020#0000072B
(1469305091.865722) can0 0B4#00000000000000BC
(1469305091.866038) can0 223#000000000000002D
(1469305091.866217) can0 025#000000027000009F
(1469305091.866291) can0 1C8#80
(1469305091.866773) can0 024#020001FB420880F4
(1469305091.871424) can0 0AA#1A6F1A6F1A6F1A6F
(1469305091.872608) can0 263#00000000AB0017
(1469305091.873682) can0 1C4#066E29080000FF71
(1469305091.874697) can0 1D0#0CF9090000AC0093
(1469305091.875267) can0 262#000000016A
(1469305091.875674) can0 2C1#08029F00F4D4003C
(1469305091.877340) can0 020#0000072B
(1469305091.877434) can0 0BA#05FB00BE
(1469305091.877770) can0 224#0000000000000008
(1469305091.877969) can0 024#020001FD420A80F8
(1469305091.878224) can0 025#00010002900000C0
(1469305091.882751) can0 1C8#80
(1469305091.883443) can0 0AA#1A6F1A6F1A6F1A6F
(1469305091.883596) can0 1AA#0000000000B1
(1469305091.885301) can0 260#08FFFE0000FFE553
(1469305091.885997) can0 3F9#5198260100000014
(1469305091.889342) can0 020#0000072B
(1469305091.889585) can0 0B4#00000000000000BC
(1469305091.889851) can0 024#020001FD420880F6
(1469305091.890044) can0 223#000000000000002D
(1469305091.890296) can0 025#000000027000009F
(1469305091.891096) can0 361#0019000000000000
(1469305091.895403) can0 0AA#1A6F1A6F1A6F1A6F
(1469305091.895826) can0 4DD#1E00000000000000
(1469305091.896048) can0 389#0000000000000000
(1469305091.897273) can0 263#00000000AB0017
(1469305091.898296) can0 1C4#066529080000FF68
(1469305091.899187) can0 1C8#80
(1469305091.901393) can0 020#0000072B
(1469305091.901536) can0 0BA#05FD00C0
(1469305091.901767) can0 224#0000000000000008
(1469305091.901987) can0 024#020001FF420880F8
(1469305091.902235) can0 025#000000027000009F
(1469305091.903187) can0 3A0#0099000007000066
(1469305091.905375) can0 260#08FFFE0000FFE553
(1469305091.906363) can0 3D0#00
(1469305091.907497) can0 0AA#1A6F1A6F1A6F1A6F
(1469305091.907696) can0 1D0#0CE5090000AC007F
(1469305091.908521) can0 2C1#0802A900FAD5004D
(1469305091.910168) can0 351#00000000
(1469305091.912377) can0 442#4302000001000000
(1469305091.913377) can0 020#0000072B
(1469305091.913657) can0 0B4#00000000000000BC
(1469305091.913892) can0 024#020001FD420880F6
(1469305091.914116) can0 025#000000027000009F
(1469305091.914349) can0 223#000000000000002D
(1469305091.915309) can0 262#000000016A
(1469305091.915503) can0 1C8#80
(1469305091.919521) can0 0AA#1A6F1A6F1A6F1A6F
(1469305091.921826) can0 263#00000000AB0017
(1469305091.922818) can0 1C4#065E29080000FF61
(1469305091.925270) can0 260#08FFFE0000FFE553
(1469305091.925438) can0 020#0000072B
(1469305091.925614) can0 0BA#05FD00C0
(1469305091.925867) can0 024#020001FB420880F4
(1469305091.926122) can0 025#000000027000009F
(1469305091.926427) can0 224#0000000000000008
(1469305091.926619) can0 38E#2020000000000000
(1469305091.931597) can0 0AA#1A6F1A6F1A6F1A6F
(1469305091.931688) can0 1AA#0000000000B1
(1469305091.931963) can0 1C8#80
(1469305091.937424) can0 020#0000072B
(1469305091.937746) can0 0B4#00000000000000BC
(1469305091.937945) can0 024#020001FB420880F4
(1469305091.938247) can0 025#000000027000009F
(1469305091.938442) can0 223#000000000000002D
(1469305091.940351) can0 1D0#0CC8090000AC0062
(1469305091.941322) can0 2C1#0802AD0103D5005B
(1469305091.943597) can0 0AA#1A6F1A6F1A6F1A6F
(1469305091.945321) can0 260#08FFFE0000FFE553
(1469305091.946520) can0 263#00000000AB0017
(1469305091.947523) can0 1C4#065029080000FF53
(1469305091.948412) can0 1C8#80
(1469305091.949590) can0 020#0000072B
(1469305091.949617) can0 0BA#05FB00BE
(1469305091.949958) can0 224#0000000000000008
(1469305091.950154) can0 025#000000027000009F
(1469305091.950771) can0 024#020001FB420A80F6
(1469305091.955268) can0 262#000000016A
(1469305091.955625) can0 0AA#1A6F1A6F1A6F1A6F
(1469305091.956096) can0 38F#0300000000000000
(1469305091.956775) can0 361#001A000000000000
(1469305091.961593) can0 020#0000072B
(1469305091.961762) can0 0B4#00000000000000BC
(1469305091.962018) can0 025#000000027000009F
(1469305091.962259) can0 223#000000000000002D
(1469305091.962721) can0 024#020001FD420A80F8
(1469305091.964716) can0 1C8#80
(1469305091.965335) can0 260#08FFFE0000FFE553
(1469305091.967656) can0 0AA#1A6F1A6F1A6F1A6F
(1469305091.970116) can0 351#00000000
(1469305091.971095) can0 263#00000000AB0017
(1469305091.972122) can0 1C4#064529080000FF48
(1469305091.973173) can0 1D0#0CB3090000AC004D
(1469305091.973512) can0 020#0000072B
(1469305091.973683) can0 0BA#05FD00C0
(1469305091.973930) can0 224#0000000000000008
(1469305091.974215) can0 025#000000027000009F
(1469305091.974407) can0 2C1#0802BD010BD50073
(1469305091.974739) can0 024#020001FD420880F6
(1469305091.979704) can0 0AA#1A6F1A6F1A6F1A6F
(1469305091.979812) can0 1AA#0000000000B1
(1469305091.981236) can0 1C8#80
(1469305091.985276) can0 260#08FFFE0000FFE553
(1469305091.985643) can0 020#0000072B
(1469305091.985847) can0 0B4#00000000000000BC
(1469305091.986138) can0 025#000000027000009F
(1469305091.986347) can0 223#000000000000002D
(1469305091.986627) can0 3A5#0000000000007EFC
(1469305091.986831) can0 024#020001FD420880F6
(1469305091.987120) can0 6E1#A180000000100000
(1469305091.991723) can0 0AA#1A6F1A6F1A6F1A6F
(1469305091.995113) can0 262#000000016A
(1469305091.995722) can0 263#00000000AB0017
(1469305091.995927) can0 620#1000FFFFB0500040
(1469305091.996747) can0 1C4#064329080000FF46
(1469305091.997667) can0 020#0000072B
(1469305091.997752) can0 0BA#05FD00C0
(1469305091.998090) can0 025#000000027000009F
(1469305091.998109) can0 1C8#80
(1469305091.998452) can0 224#0000000000000008
(1469305091.998796) can0 024#020001FD420880F6
(1469305092.002275) can0 3A0#0099000007000066
(1469305092.003750) can0 0AA#1A6F1A6F1A6F1A6F
(1469305092.005165) can0 260#08FFFE0000FFE553
(1469305092.005959) can0 1D0#0C96090000AC0030
(1469305092.006891) can0 2C1#0802BF0117D50081
(1469305092.009666) can0 020#0000072B
(1469305092.009903) can0 0B4#00000000000000BC
(1469305092.010127) can0 025#000000027000009F
(1469305092.010434) can0 223#000000000000002D
(1469305092.010796) can0 024#020001FB420880F4
(1469305092.011109) can0 443#4002002F06000000
(1469305092.013998) can0 1C8#80
(1469305092.015779) can0 0AA#1A6F1A6F1A6F1A6F
(1469305092.016106) can0 413#0101010900000000
(1469305092.020349) can0 263#00000000AB0017
(1469305092.021374) can0 1C4#063829080000FF3B
(1469305092.021739) can0 020#0000072B
(1469305092.021822) can0 0BA#05FB00BE
(1469305092.022161) can0 025#000000027000009F
(1469305092.022360) can0 224#0000000000000008
(1469305092.022599) can0 361#001A000000000000
(1469305092.022844) can0 024#020001FB420880F4
(1469305092.025280) can0 260#08FFFE0000FFE553
(1469305092.027824) can0 0AA#1A6F1A6F1A6F1A6F
(1469305092.027965) can0 1AA#0000000000B1
(1469305092.029357) can0 354#01
(1469305092.030066) can0 351#00000000
(1469305092.030487) can0 1C8#80
(1469305092.033771) can0 020#0000072B
(1469305092.033998) can0 0B4#00000000000000BC
(1469305092.034250) can0 025#000000027000009F
(1469305092.034472) can0 223#000000000000002D
(1469305092.034756) can0 024#020001FB420A80F6
(1469305092.035152) can0 262#000000016A
(1469305092.038800) can0 1D0#0C81090000AC001B
