(1467827577.634882) can0 440#40008011010F0F0F
(1467827577.649015) can0 442#42008000010F0F0F
(1467827577.734803) can0 440#4001801101000000
(1467827577.735049) can0 620#1080FFFF80580080
(1467827577.747966) can0 442#4201800001000000
(1467827577.828760) can0 440#4212001101000000
(1467827577.924888) can0 442#4002000001000000
(1467827577.958688) can0 621#1100000000000000
(1467827577.966863) can0 610#2000006480FFFD60
(1467827577.967684) can0 622#1200000000000000
(1467827577.976657) can0 623#1900000000000000
(1467827577.978856) can0 611#2100002000006227
(1467827577.985652) can0 624#1A00414949400000
(1467827577.994703) can0 626#1C00300000000000
(1467827578.003697) can0 638#1300180100000000
(1467827578.012696) can0 63C#98005A5245172060
(1467827578.021625) can0 63D#9900444558534B00
(1467827578.023608) can0 440#4212001101000000
(1467827578.030630) can0 680#D800010000000000
(1467827578.039626) can0 620#1000FFFF80580080
(1467827578.125773) can0 442#4002000001000000
(1467827578.228483) can0 440#4212001101000000
(1467827578.326656) can0 442#4002000001000000
(1467827578.334421) can0 620#1000FFFF80580080
(1467827578.428335) can0 440#4212001101000000
(1467827578.464582) can0 610#2000006480FFFD60
(1467827578.524553) can0 442#4002000001000000
(1467827578.534277) can0 620#1080FFFF90580080
(1467827578.549639) can0 443#4300802F060F0F0F
(1467827578.557535) can0 618#2200007880000000
(1467827578.569530) can0 619#230000000C010A80
(1467827578.581524) can0 61A#2400000000015060
(1467827578.593517) can0 61C#260000000000000F
(1467827578.609209) can0 622#1280481000000000
(1467827578.623216) can0 440#4202001101000000
(1467827578.628200) can0 6E1#A100030000F00000
(1467827578.628540) can0 020#0000072B
(1467827578.635496) can0 640#A8000000013F0000
(1467827578.637192) can0 6E2#A200CCFEFEFEFEFE
(1467827578.640563) can0 020#0000072B
(1467827578.640815) can0 0B4#00000000020000BE
(1467827578.641064) can0 223#0008000000000035
(1467827578.641313) can0 420#0000000000008AB6
(1467827578.648590) can0 443#4301802F06000000
(1467827578.652617) can0 020#0000072B
(1467827578.652701) can0 0BA#06008044
(1467827578.653065) can0 224#0000000000000048
(1467827578.653209) can0 4C3#0300000100000000
(1467827578.658768) can0 0AA#1A6F1A6F1A6F1A6F
(1467827578.658852) can0 1AA#0000000000B1
(1467827578.664685) can0 020#0000072B
(1467827578.664896) can0 0B4#00000000020000BE
(1467827578.665186) can0 223#0008000000000035
(1467827578.670937) can0 0AA#1A6F1A6F1A6F1A6F
(1467827578.676880) can0 020#0000072B
(1467827578.676964) can0 0BA#06008044
(1467827578.677323) can0 224#0000000000000048
(1467827578.682981) can0 0AA#1A6F1A6F1A6F1A6F
(1467827578.688922) can0 020#0000072B
(1467827578.689129) can0 0B4#00000000020000BE
(1467827578.689426) can0 223#0008000000000035
(1467827578.695028) can0 0AA#1A6F1A6F1A6F1A6F
(1467827578.700222) can0 263#0000000001006D
(1467827578.700966) can0 020#0000072B
(1467827578.701048) can0 0BA#06008044
(1467827578.701381) can0 1C4#0000000000003E0B
(1467827578.701584) can0 224#0000000000000048
(1467827578.703222) can0 620#1080FFFFB0580090
(1467827578.707045) can0 0AA#1A6F1A6F1A6F1A6F
(1467827578.707187) can0 1AA#0000000000B1
(1467827578.709310) can0 354#00
(1467827578.710277) can0 1C8#00
(1467827578.712986) can0 020#0000072B
(1467827578.713218) can0 0B4#00000000020000BE
(1467827578.713447) can0 223#0008000000000035
(1467827578.718744) can0 1D0#00000900000000E2
(1467827578.719085) can0 0AA#1A6F1A6F1A6F1A6F
(1467827578.719739) can0 2C1#08FFB6129DBD00F4
(1467827578.719883) can0 3F9#5198260100000014
(1467827578.724810) can0 263#000000004700B3
(1467827578.724950) can0 020#0000072B
(1467827578.725112) can0 0BA#06008044
(1467827578.725389) can0 224#0000000000000048
(1467827578.725740) can0 442#4302000001000000
(1467827578.725884) can0 1C4#000026000000FFF2
(1467827578.726750) can0 1C8#00
(1467827578.729980) can0 4C1#0100000500000000
(1467827578.731108) can0 0AA#1A6F1A6F1A6F1A6F
(1467827578.735105) can0 361#00A0000700000000
(1467827578.737044) can0 020#0000072B
(1467827578.737246) can0 0B4#00000000020000BE
(1467827578.737548) can0 223#0008000000000035
(1467827578.737747) can0 3BC#0020000000000000
(1467827578.738023) can0 3BB#00004700
(1467827578.739181) can0 399#00000000000000
(1467827578.740040) can0 3D0#00
(1467827578.743154) can0 0AA#1A6F1A6F1A6F1A6F
(1467827578.743173) can0 1C8#00
(1467827578.744219) can0 38A#1C04000000
(1467827578.749095) can0 020#0000072B
(1467827578.749181) can0 0BA#06008044
(1467827578.749531) can0 224#0000000000000048
(1467827578.749692) can0 263#000000004700B3
(1467827578.750470) can0 1C4#000026000000FFF2
(1467827578.751493) can0 1D0#00000900009E0080
(1467827578.752468) can0 2C1#08FFA21289BD00CC
(1467827578.755169) can0 0AA#1A6F1A6F1A6F1A6F
(1467827578.755335) can0 1AA#0000000000B1
(1467827578.759533) can0 1C8#00
(1467827578.761082) can0 020#0000072B
(1467827578.761324) can0 0B4#00000000020000BE
(1467827578.761597) can0 223#0008000000000035
(1467827578.763864) can0 260#0E00000000000078
(1467827578.767189) can0 0AA#1A6F1A6F1A6F1A6F
(1467827578.768605) can0 351#00000000
(1467827578.773131) can0 020#0000072B
(1467827578.773227) can0 0BA#06008044
(1467827578.773569) can0 224#0000000000000048
(1467827578.773663) can0 262#000000016A
(1467827578.774009) can0 263#000000004700B3
(1467827578.775082) can0 1C4#000026000000FFF2
(1467827578.775924) can0 1C8#00
(1467827578.778707) can0 4C8#0900000000000000
(1467827578.779229) can0 0AA#1A6F1A6F1A6F1A6F
(1467827578.783755) can0 260#0E00000000000078
(1467827578.784301) can0 1D0#00000900009E0080
(1467827578.785169) can0 020#0000072B
(1467827578.785405) can0 0B4#00000000020000BE
(1467827578.785710) can0 223#0008000000000035
(1467827578.785875) can0 2C1#08FF9B1282BC00BD
(1467827578.786307) can0 025#0FFE0002B00000EC
(1467827578.788592) can0 394#4300
(1467827578.791274) can0 0AA#1A6F1A6F1A6F1A6F
(1467827578.792341) can0 1C8#00
(1467827578.797244) can0 020#0000072B
(1467827578.797314) can0 0BA#06008044
(1467827578.797695) can0 224#0000000000000048
(1467827578.797842) can0 4C6#0700030000000000
(1467827578.798217) can0 025#0FFE0002A00000DC
(1467827578.798618) can0 263#000000004700B3
(1467827578.799694) can0 1C4#000026000000FFF2
(1467827578.800693) can0 361#00A0000700000000
(1467827578.802258) can0 423#00
(1467827578.803318) can0 0AA#1A6F1A6F1A6F1A6F
(1467827578.803462) can0 1AA#0000000000B1
(1467827578.803793) can0 260#0E00000000000078
(1467827578.806473) can0 610#2080006480FFFD60
(1467827578.808730) can0 1C8#00
(1467827578.809252) can0 020#0000072B
(1467827578.809443) can0 0B4#00000000020000BE
(1467827578.809764) can0 223#0008000000000035
(1467827578.810265) can0 025#0FFE0002B00000EC
(1467827578.813712) can0 262#000000016A
(1467827578.815337) can0 0AA#1A6F1A6F1A6F1A6F
(1467827578.817086) can0 1D0#00000900009E0080
(1467827578.818060) can0 2C1#08FF9B1282BC00BD
(1467827578.818461) can0 611#2180002000006227
(1467827578.821246) can0 020#0000072B
(1467827578.821341) can0 0BA#06008044
(1467827578.821689) can0 224#0000000000000048
(1467827578.822161) can0 025#0FFE0002B00000EC
(1467827578.823209) can0 263#000000004700B3
(1467827578.823731) can0 260#0E00000000000078
(1467827578.824203) can0 1C4#000026000000FFF2
(1467827578.824474) can0 443#4202002F06000000
(1467827578.825121) can0 1C8#00
(1467827578.827359) can0 0AA#1A6F1A6F1A6F1A6F
(1467827578.828106) can0 440#4201001101000000
(1467827578.828575) can0 351#00000000
(1467827578.833241) can0 020#0000072B
(1467827578.833514) can0 0B4#00000000020000BE
(1467827578.833741) can0 223#0008000000000035
(1467827578.834165) can0 025#0FFE0002B00000EC
(1467827578.839408) can0 0AA#1A6F1A6F1A6F1A6F
(1467827578.841539) can0 1C8#00
(1467827578.843700) can0 260#0E00000000000078
(1467827578.845341) can0 020#0000072B
(1467827578.845434) can0 0BA#06008044
(1467827578.845771) can0 224#0000000000000048
(1467827578.846148) can0 025#0FFE0002A00000DC
(1467827578.847823) can0 263#000000004700B3
(1467827578.848873) can0 1C4#000026000000FFF2
(1467827578.849894) can0 1D0#00000900009E0080
(1467827578.850873) can0 2C1#08FF9B1282BC00BD
(1467827578.851443) can0 0AA#1A6F1A6F1A6F1A6F
(1467827578.851613) can0 1AA#0000000000B1
(1467827578.851875) can0 3B7#583B000000000008
(1467827578.853669) can0 262#000000016A
(1467827578.857364) can0 020#0000072B
(1467827578.857615) can0 0B4#00000000020000BE
(1467827578.857839) can0 223#0008000000000035
(1467827578.857898) can0 1C8#00
(1467827578.858228) can0 025#0FFE0002B00000EC
(1467827578.863465) can0 0AA#1A6F1A6F1A6F1A6F
(1467827578.863660) can0 260#0E00000000000078
(1467827578.866287) can0 361#00A0000700000000
(1467827578.869409) can0 020#0000072B
(1467827578.869485) can0 0BA#06008044
(1467827578.869814) can0 224#0000000000000048
(1467827578.870126) can0 025#0FFE0002B00000EC
(1467827578.872412) can0 263#000000004700B3
(1467827578.873458) can0 1C4#000026000000FFF2
(1467827578.874327) can0 1C8#00
(1467827578.875509) can0 0AA#1A6F1A6F1A6F1A6F
(1467827578.881451) can0 020#0000072B
(1467827578.881650) can0 0B4#00000000020000BE
(1467827578.881951) can0 223#0008000000000035
(1467827578.882151) can0 025#0FFE0002B00000EC
(1467827578.882679) can0 1D0#00000900009E0080
(1467827578.883677) can0 2C1#08FF9B1282BC00BD
(1467827578.883873) can0 260#0E00000000000078
(1467827578.884425) can0 610#2080006480FFFD60
(1467827578.887553) can0 0AA#1A6F1A6F1A6F1A6F
(1467827578.888495) can0 351#00000000
(1467827578.890743) can0 1C8#00
(1467827578.893493) can0 020#0000072B
(1467827578.893588) can0 0BA#06008044
(1467827578.893915) can0 224#0000000000000048
(1467827578.894111) can0 025#0FFE0002B00000EC
(1467827578.894279) can0 262#000000016A
(1467827578.896423) can0 611#2180002000006227
(1467827578.897020) can0 263#000000004700B3
(1467827578.898069) can0 1C4#000026000000FFF2
(1467827578.899647) can0 0AA#1A6F1A6F1A6F1A6F
(1467827578.899741) can0 1AA#0000000000B1
(1467827578.903646) can0 260#0E00000000000078
(1467827578.905536) can0 020#0000072B
(1467827578.905744) can0 0B4#00000000020000BE
(1467827578.906043) can0 223#0008000000000035
(1467827578.906236) can0 025#0FFE0002B00000EC
(1467827578.907137) can0 1C8#00
(1467827578.908416) can0 618#2280007880000000
(1467827578.911642) can0 0AA#1A6F1A6F1A6F1A6F
(1467827578.914302) can0 354#07
(1467827578.915491) can0 1D0#00000900009E0080
(1467827578.916461) can0 2C1#08FF9B1282BC00BD
(1467827578.917637) can0 020#0000072B
(1467827578.917667) can0 0BA#06008044
(1467827578.918001) can0 224#0000000000000048
(1467827578.918198) can0 025#0FFE0002B00000EC
(1467827578.920413) can0 619#238000000C010A80
(1467827578.921632) can0 263#000000004700B3
(1467827578.922663) can0 1C4#000026000000FFF2
(1467827578.923595) can0 260#0E00000000000078
(1467827578.923805) can0 0AA#1A6F1A6F1A6F1A6F
(1467827578.923871) can0 1C8#00
(1467827578.926412) can0 442#4302000001000000
(1467827578.929800) can0 020#0000072B
(1467827578.929995) can0 0B4#00000000020000BE
(1467827578.930297) can0 025#0FFE0002B00000EC
(1467827578.930527) can0 223#0008000000000035
(1467827578.931907) can0 361#00A0000700000000
(1467827578.932409) can0 61A#2480000000015060
(1467827578.933634) can0 262#000000016A
(1467827578.935884) can0 0AA#1A6F1A6F1A6F1A6F
(1467827578.939946) can0 1C8#00
(1467827578.941847) can0 020#0000072B
(1467827578.941932) can0 0BA#06008044
(1467827578.942273) can0 025#0FFE0002B00000EC
(1467827578.942481) can0 224#0000000000000048
(1467827578.943626) can0 260#0E00000000000078
(1467827578.944427) can0 61C#268000000000000F
(1467827578.946228) can0 263#000000004700B3
(1467827578.947282) can0 1C4#000026000000FFF2
(1467827578.947950) can0 0AA#1A6F1A6F1A6F1A6F
(1467827578.948083) can0 1AA#0000000000B1
(1467827578.948352) can0 1D0#00000900009E0080
(1467827578.948571) can0 351#00000000
(1467827578.949271) can0 2C1#08FF9B1282BC00BD
(1467827578.953894) can0 020#0000072B
(1467827578.954126) can0 0B4#00000000020000BE
(1467827578.954419) can0 223#0008000000000035
(1467827578.955046) can0 025#0FFE0002B00000EC
(1467827578.956364) can0 1C8#00
(1467827578.958046) can0 621#1100000000000000
(1467827578.959497) can0 387#0000000000003F3F
(1467827578.959993) can0 0AA#1A6F1A6F1A6F1A6F
(1467827578.963619) can0 260#0E00000000000078
(1467827578.965941) can0 020#0000072B
(1467827578.966028) can0 0BA#06008044
(1467827578.966362) can0 224#0000000000000048
(1467827578.966954) can0 025#0FFE0002A00000DC
(1467827578.968029) can0 623#1900000000000000
(1467827578.970830) can0 263#000000004700B3
(1467827578.971047) can0 4DC#1D00000200000000
(1467827578.971876) can0 1C4#000026000000FFF2
(1467827578.972055) can0 0AA#1A6F1A6F1A6F1A6F
(1467827578.972741) can0 1C8#00
(1467827578.973486) can0 262#000000016A
(1467827578.975954) can0 3F9#5198260100000014
(1467827578.977000) can0 624#1A00414949400000
(1467827578.977942) can0 020#0000072B
(1467827578.978225) can0 0B4#00000000020000BE
(1467827578.978430) can0 223#0008000000000035
(1467827578.978999) can0 025#0FFE0002B00000EC
(1467827578.981098) can0 1D0#00000900009E0080
(1467827578.982080) can0 2C1#08FF9B1282BC00BD
(1467827578.983598) can0 260#0E00000000000078
(1467827578.984069) can0 0AA#1A6F1A6F1A6F1A6F
(1467827578.985997) can0 626#1C00300000000000
(1467827578.989141) can0 1C8#00
(1467827578.989482) can0 389#0000000000000000
(1467827578.989987) can0 020#0000072B
(1467827578.990100) can0 0BA#06008044
(1467827578.990409) can0 224#0000000000000048
(1467827578.990918) can0 025#0FFE0002B00000EC
(1467827578.994992) can0 638#1300180100000000
(1467827578.995437) can0 263#000000004700B3
(1467827578.996093) can0 0AA#1A6F1A6F1A6F1A6F
(1467827578.996271) can0 1AA#0000000000B1
(1467827578.996553) can0 1C4#000026000000FFF2
(1467827578.996600) can0 3D0#00
(1467827578.997502) can0 361#00A0000700000000
(1467827579.002033) can0 020#0000072B
(1467827579.002259) can0 0B4#00000000020000BE
(1467827579.002587) can0 223#0008000000000035
(1467827579.002964) can0 025#0FFE0002A00000DC
(1467827579.003585) can0 260#0E00000000000078
(1467827579.003985) can0 63C#98005A5245172060
(1467827579.005538) can0 1C8#00
(1467827579.008137) can0 0AA#1A6F1A6F1A6F1A6F
(1467827579.008296) can0 351#00000000
(1467827579.012984) can0 63D#9900444558534B00
(1467827579.013400) can0 262#000000016A
(1467827579.013885) can0 1D0#00000900009E0080
(1467827579.014061) can0 020#0000072B
(1467827579.014222) can0 0BA#06008044
(1467827579.014583) can0 224#0000000000000048
(1467827579.014880) can0 2C1#08FF9B1282BC00BD
(1467827579.015057) can0 025#0FFE0002B00000EC
(1467827579.017629) can0 4DD#1E00000000000000
(1467827579.019419) can0 38E#2020000000000000
(1467827579.020026) can0 263#000000004700B3
(1467827579.020217) can0 0AA#1A6F1A6F1A6F1A6F
(1467827579.021493) can0 1C4#000026000000FFF2
(1467827579.021940) can0 680#D800010000000000
(1467827579.022025) can0 1C8#00
(1467827579.023500) can0 260#0E00000000000078
(1467827579.024449) can0 443#4002002F06000000
(1467827579.026084) can0 020#0000072B
(1467827579.026401) can0 0B4#00000000020000BE
(1467827579.026634) can0 223#0008000000000035
(1467827579.026922) can0 025#0FFE0002A00000DC
(1467827579.030947) can0 620#1000FFFFB0580090
(1467827579.032235) can0 0AA#1A6F1A6F1A6F1A6F
(1467827579.037595) can0 024#5E0009F34A0F805F
(1467827579.038186) can0 020#0000072B
(1467827579.038294) can0 0BA#06008044
(1467827579.038415) can0 1C8#00
(1467827579.038743) can0 224#0000000000000048
(1467827579.038922) can0 025#0FFE0002B00000EC
(1467827579.043493) can0 260#0E00000000000078
(1467827579.044291) can0 0AA#1A6F1A6F1A6F1A6F
(1467827579.044451) can0 1AA#0000000000B1
(1467827579.044669) can0 263#000000004700B3
(1467827579.045670) can0 1C4#000026000000FFF2
(1467827579.046691) can0 1D0#00000900009E0080
(1467827579.047663) can0 2C1#08FF9B1282BC00BD
(1467827579.049438) can0 38F#0100000000000000
(1467827579.049660) can0 024#5E0009F34A0F805F
(1467827579.050230) can0 020#0000072B
(1467827579.050452) can0 0B4#00000000020000BE
(1467827579.050736) can0 223#0008000000000035
(1467827579.050955) can0 025#0FFE0002B00000EC
(1467827579.053431) can0 262#000000016A
(1467827579.054753) can0 1C8#00
(1467827579.056335) can0 0AA#1A6F1A6F1A6F1A6F
(1467827579.061589) can0 024#5E0009F34A0F805F
(1467827579.062283) can0 020#0000072B
(1467827579.062392) can0 0BA#060000C4
(1467827579.062662) can0 224#0000000000000048
(1467827579.062916) can0 025#0FFE0002B00000EC
(1467827579.063202) can0 361#00A0000700000000
(1467827579.063481) can0 260#0E00000000000078
(1467827579.068252) can0 351#00000000
(1467827579.068430) can0 0AA#1A6F1A6F1A6F1A6F
(1467827579.069226) can0 263#000000004700B3
(1467827579.070276) can0 1C4#000026000000FFF2
(1467827579.071144) can0 1C8#00
(1467827579.073001) can0 381#0000000000000000
(1467827579.073600) can0 024#5E0009F34A0F805F
(1467827579.074343) can0 020#0000072B
(1467827579.074576) can0 0B4#00000000020000BE
(1467827579.074855) can0 025#0FFE0002B00000EC
(1467827579.075062) can0 223#0008000000000035
(1467827579.079428) can0 3A5#0000000000007EFC
(1467827579.079635) can0 1D0#00000900009E0080
(1467827579.080422) can0 0AA#1A6F1A6F1A6F1A6F
(1467827579.080644) can0 2C1#08FF9B1282BC00BD
(1467827579.083447) can0 260#0E00000000000078
(1467827579.085595) can0 024#5E0009F34A0F805F
(1467827579.086364) can0 020#0000072B
(1467827579.086489) can0 0BA#060000C4
(1467827579.086754) can0 025#0FFE0002B00000EC
(1467827579.087057) can0 224#0000000000000008
(1467827579.087540) can0 1C8#00
(1467827579.088231) can0 394#4300
(1467827579.092478) can0 0AA#1A6F1A6F1A6F1A6F
(1467827579.092619) can0 1AA#0000000000B1
(1467827579.093316) can0 262#000000016A
(1467827579.093825) can0 263#000000004700B3
(1467827579.094876) can0 1C4#000026000000FFF2
(1467827579.097596) can0 024#5E0009F34A0F805F
(1467827579.098428) can0 020#0000072B
(1467827579.098633) can0 0B4#00000000020000BE
(1467827579.098853) can0 025#0FFE0002B00000EC
(1467827579.099100) can0 223#0008000000000035
(1467827579.103448) can0 260#0E00000000000078
(1467827579.103963) can0 1C8#00
(1467827579.104545) can0 0AA#1A6F1A6F1A6F1A6F
(1467827579.109422) can0 413#0101010900000000
(1467827579.109624) can0 024#5E0009F34A0F805F
(1467827579.110442) can0 020#0000072B
(1467827579.110526) can0 0BA#060000C4
(1467827579.110866) can0 025#0FFE0002B00000EC
(1467827579.111068) can0 224#0000000000000008
(1467827579.112292) can0 1D0#00000900009E0080
(1467827579.113268) can0 2C1#08FF9B1282BC00BD
(1467827579.116542) can0 0AA#1A6F1A6F1A6F1A6F
(1467827579.118442) can0 263#000000004700B3
(1467827579.119543) can0 1C4#000026000000FFF2
(1467827579.119561) can0 354#07
(1467827579.120342) can0 1C8#00
(1467827579.120989) can0 382#3838380000000000
(1467827579.121586) can0 024#5E0009F34A0F805F
(1467827579.122536) can0 020#0000072B
(1467827579.122672) can0 0B4#00000000020000BE
(1467827579.122942) can0 025#0FFE0002B00000EC
(1467827579.123185) can0 223#0008000000000035
(1467827579.123537) can0 260#0E00000000000078
(1467827579.123673) can0 440#4202001101000000
(1467827579.128179) can0 351#00000000
(1467827579.128558) can0 0AA#1A6F1A6F1A6F1A6F
(1467827579.128761) can0 361#00A0000700000000
(1467827579.133280) can0 262#000000016A
(1467827579.133586) can0 024#5E0009F34A0F805F
(1467827579.134525) can0 020#0000072B
(1467827579.134595) can0 0BA#060000C4
(1467827579.134921) can0 224#0000000000000008
(1467827579.135124) can0 025#0FFE0002B00000EC
(1467827579.136770) can0 1C8#00
(1467827579.139405) can0 434#3F00000000000000
(1467827579.140577) can0 0AA#1A6F1A6F1A6F1A6F
(1467827579.140775) can0 1AA#0000000000B1
(1467827579.143052) can0 263#000000004700B3
(1467827579.143289) can0 260#0E00000000000078
(1467827579.144075) can0 1C4#000026000000FFF2
(1467827579.145100) can0 1D0#00000900009E0080
(1467827579.145574) can0 024#5E0009F34A0F805F
(1467827579.146076) can0 2C1#08FF9B1282BC00BD
(1467827579.146521) can0 020#0000072B
(1467827579.146758) can0 0B4#00000000020000BE
(1467827579.147033) can0 025#0FFE0002B00000EC
(1467827579.147257) can0 223#0008000000000035
(1467827579.152713) can0 0AA#1A6F1A6F1A6F1A6F
(1467827579.153043) can0 3B7#583B000000000008
(1467827579.153067) can0 1C8#00
(1467827579.157577) can0 024#5E0009F34A0F805F
(1467827579.157898) can0 6E1#A180000000100000
(1467827579.158717) can0 020#0000072B
(1467827579.158805) can0 0BA#060000C4
(1467827579.159162) can0 224#0000000000000008
(1467827579.159696) can0 025#0FFE0002B00000EC
(1467827579.163343) can0 260#0E00000000000078
(1467827579.164815) can0 0AA#1A6F1A6F1A6F1A6F
(1467827579.167640) can0 263#000000004700B3
(1467827579.168688) can0 1C4#000026000000FFF2
(1467827579.169391) can0 435#0F0505FFE00FE003
(1467827579.169595) can0 024#5E0009F34A0F805F
(1467827579.169654) can0 1C8#00
(1467827579.170761) can0 020#0000072B
(1467827579.170992) can0 0B4#00000000020000BE
(1467827579.171291) can0 223#0008000000000035
(1467827579.171736) can0 025#0FFE0002B00000EC
(1467827579.173306) can0 262#000000016A
(1467827579.176887) can0 0AA#1A6F1A6F1A6F1A6F
(1467827579.177908) can0 1D0#00000900009E0080
(1467827579.178884) can0 2C1#08FF9B1282BC00BD
(1467827579.181583) can0 024#5E0009F34A0F805F
(1467827579.182803) can0 020#0000072B
(1467827579.182887) can0 0BA#060000C4
(1467827579.183242) can0 224#0000000000000008
(1467827579.183466) can0 260#0E00000000000078
(1467827579.183698) can0 025#0FFE0002B00000EC
(1467827579.185973) can0 1C8#00
(1467827579.188152) can0 351#00000000
(1467827579.188934) can0 0AA#1A6F1A6F1A6F1A6F
(1467827579.189064) can0 1AA#0000000000B1
(1467827579.192256) can0 263#000000004700B3
(1467827579.193300) can0 1C4#000026000000FFF2
(1467827579.193607) can0 024#5E0009F34A0F805F
(1467827579.194323) can0 361#00A0000700000000
(1467827579.194869) can0 020#0000072B
(1467827579.195074) can0 0B4#00000000020000BE
(1467827579.195329) can0 223#0008000000000035
(1467827579.195724) can0 025#0FFE0002B00000EC
(1467827579.199374) can0 436#0000000000000000
(1467827579.200971) can0 0AA#1A6F1A6F1A6F1A6F
(1467827579.202361) can0 1C8#00
(1467827579.203268) can0 260#0E00000000000078
(1467827579.205573) can0 024#5E0009F34A0F805F
(1467827579.206887) can0 020#0000072B
(1467827579.206979) can0 0BA#060000C4
(1467827579.207301) can0 224#0000000000000008
(1467827579.207616) can0 025#0FFE0002B00000EC
(1467827579.208867) can0 6E2#A28000FEFEFEFEFE
(1467827579.210584) can0 3D3#0000
(1467827579.210809) can0 1D0#00000900009E0080
(1467827579.211687) can0 2C1#08FF9B1282BC00BD
(1467827579.213012) can0 0AA#1A6F1A6F1A6F1A6F
(1467827579.213103) can0 262#000000016A
(1467827579.216840) can0 263#000000004700B3
(1467827579.217584) can0 024#5E0009F34A0F805F
(1467827579.217757) can0 3B1#00000E0A00080000
(1467827579.218057) can0 1C4#000026000000FFF2
(1467827579.218255) can0 4AC#0802200500000004
(1467827579.218751) can0 1C8#00
(1467827579.218892) can0 020#0000072B
(1467827579.219195) can0 0B4#00000000020000BE
(1467827579.219462) can0 223#0008000000000035
(1467827579.219631) can0 025#0FFE0002B00000EC
(1467827579.223311) can0 260#0E00000000000078
(1467827579.225031) can0 0AA#1A6F1A6F1A6F1A6F
(1467827579.226232) can0 442#4302000001000000
(1467827579.229361) can0 437#FCFFFFFFFFFFFFFF
(1467827579.229555) can0 024#5E0009F34A0F805F
(1467827579.230972) can0 020#0000072B
(1467827579.231067) can0 0BA#060000C4
(1467827579.231394) can0 224#0000000000000008
(1467827579.231601) can0 025#0FFE0002B00000EC
(1467827579.232180) can0 3F9#5198260100000014
(1467827579.235170) can0 1C8#00
(1467827579.237050) can0 0AA#1A6F1A6F1A6F1A6F
(1467827579.237194) can0 1AA#0000000000B1
(1467827579.241475) can0 263#000000004700B3
(1467827579.241645) can0 024#5E0001F3420F804F
(1467827579.242475) can0 1C4#000026000000FFF2
(1467827579.242965) can0 020#0000072B
(1467827579.243199) can0 0B4#00000000020000BE
(1467827579.243444) can0 223#000000000000002D
(1467827579.243681) can0 025#0FFE0002B00000EC
(1467827579.243985) can0 1D0#00000900009E0080
(1467827579.244167) can0 260#0E00000000000078
(1467827579.244425) can0 2C1#08FF9B1282BC00BD
(1467827579.248047) can0 351#00000000
(1467827579.249069) can0 0AA#1A6F1A6F1A6F1A6F
(1467827579.251562) can0 1C8#00
(1467827579.252535) can0 3D0#00
(1467827579.253126) can0 262#000000016A
(1467827579.253547) can0 024#5E0001F3420F804F
(1467827579.255014) can0 020#0000072B
(1467827579.255110) can0 0BA#060000C4
(1467827579.255469) can0 224#0000000000000008
(1467827579.255638) can0 025#0FFE0002B00000EC
(1467827579.259314) can0 384#F0F000000000
(1467827579.259914) can0 361#00A0000700000000
(1467827579.261117) can0 0AA#1A6F1A6F1A6F1A6F
(1467827579.263190) can0 260#0E00000000000078
(1467827579.265540) can0 024#5E0001F3420F804F
(1467827579.266032) can0 263#000000004700B3
(1467827579.267087) can0 1C4#000026000000FFF2
(1467827579.267159) can0 020#0000072B
(1467827579.267511) can0 0B4#00000000020000BE
(1467827579.267682) can0 025#0FFE0002B00000EC
(1467827579.267985) can0 223#000000000000002D
(1467827579.268002) can0 1C8#00
(1467827579.268348) can0 3B0#00E2000000000000
(1467827579.273096) can0 0AA#1A6F1A6F1A6F1A6F
(1467827579.276306) can0 1D0#00000900009E0080
(1467827579.277280) can0 2C1#08FF9B1282BC00BD
(1467827579.277514) can0 024#5E0001F3420F804F
(1467827579.279052) can0 020#0000072B
(1467827579.279150) can0 0BA#060000C4
(1467827579.279478) can0 224#0000000000000008
(1467827579.279676) can0 025#0FFE0002B00000EC
(1467827579.283206) can0 260#0E00000000000078
(1467827579.284367) can0 1C8#00
(1467827579.285153) can0 0AA#1A6F1A6F1A6F1A6F
(1467827579.285322) can0 1AA#0000000000B1
(1467827579.289275) can0 386#000000070003
(1467827579.289506) can0 024#5E0001F3420F804F
(1467827579.290648) can0 263#000000004700B3
(1467827579.291090) can0 020#0000072B
(1467827579.291287) can0 0B4#00000000020000BE
(1467827579.291560) can0 025#0FFE0002A00000DC
(1467827579.291782) can0 1C4#000026000000FFF2
(1467827579.292000) can0 223#000000000000002D
(1467827579.293092) can0 262#000000016A
(1467827579.297174) can0 0AA#1A6F1A6F1A6F1A6F
(1467827579.300765) can0 1C8#00
(1467827579.301521) can0 024#5E0001F3420F804F
(1467827579.302755) can0 620#1000FFFFB0580090
(1467827579.303141) can0 260#0E00000000000078
(1467827579.303215) can0 020#0000072B
(1467827579.303464) can0 0BA#060000C4
(1467827579.303692) can0 224#0000000000000008
(1467827579.303915) can0 025#0FFE0002B00000EC
(1467827579.308008) can0 351#00000000
(1467827579.309074) can0 1D0#00000900009E0080
(1467827579.309284) can0 0AA#1A6F1A6F1A6F1A6F
(1467827579.310018) can0 2C1#08FF9B1282BC00BD
(1467827579.313477) can0 024#5E0001F3420F804F
(1467827579.315107) can0 020#0000072B
(1467827579.315285) can0 0B4#00000000020000BE
(1467827579.315558) can0 025#0FFE0002A00000DC
(1467827579.315808) can0 223#000000000000002D
(1467827579.316005) can0 263#000000004700B3
(1467827579.316336) can0 1C4#000026000000FFF2
(1467827579.317149) can0 1C8#00
(1467827579.318887) can0 380#0000000000008001
(1467827579.319254) can0 3E6#0000000000
(1467827579.321166) can0 0AA#1A6F1A6F1A6F1A6F
(1467827579.323136) can0 260#0E00000000000078
(1467827579.324306) can0 443#4002002F06000000
(1467827579.324335) can0 354#07
(1467827579.325510) can0 361#00A0000700000000
(1467827579.325702) can0 024#5E0001F3420F804F
(1467827579.327126) can0 020#0000072B
(1467827579.327218) can0 0BA#060000C4
(1467827579.327554) can0 224#0000000000000008
(1467827579.327751) can0 025#0FFE0002B00000EC
(1467827579.332991) can0 262#000000016A
(1467827579.333236) can0 0AA#1A6F1A6F1A6F1A6F
(1467827579.333428) can0 1AA#0000000000B1
(1467827579.333494) can0 1C8#00
(1467827579.337528) can0 024#5E0001F342118051
(1467827579.339146) can0 020#0000072B
(1467827579.339390) can0 0B4#00000000020000BE
(1467827579.339595) can0 025#0FFE0002B00000EC
(1467827579.339896) can0 223#000000000000002D
(1467827579.340048) can0 263#000000004700B3
(1467827579.340347) can0 3A0#00C500000000003C
(1467827579.340873) can0 1C4#000026000000FFF2
(1467827579.341899) can0 1D0#00000900009E0080
(1467827579.342875) can0 2C1#08FF9B1282BC00BD
(1467827579.343186) can0 260#0E00000000000078
(1467827579.345246) can0 0AA#1A6F1A6F1A6F1A6F
(1467827579.349271) can0 3E7#00000000000000
(1467827579.349471) can0 024#560001F342118049
(1467827579.349962) can0 1C8#00
(1467827579.351190) can0 020#0000072B
(1467827579.351361) can0 0BA#060000C4
(1467827579.351569) can0 224#0000000000000008
(1467827579.351868) can0 025#0FFE0002B00000EC
(1467827579.357293) can0 0AA#1A6F1A6F1A6F1A6F
(1467827579.361515) can0 024#560001F3420F8047
(1467827579.363088) can0 260#0E00000000000078
(1467827579.363161) can0 020#0000072B
(1467827579.363486) can0 0B4#00000000020000BE
(1467827579.363683) can0 025#0FFE0002B00000EC
(1467827579.363984) can0 223#000000000000002D
(1467827579.364435) can0 263#000000004700B3
(1467827579.365493) can0 1C4#000026000000FFF2
(1467827579.366403) can0 1C8#00
(1467827579.367978) can0 351#00000000
(1467827579.369339) can0 0AA#1A6F1A6F1A6F1A6F
(1467827579.369833) can0 383#0100000000000000
(1467827579.372980) can0 262#000000016A
(1467827579.373509) can0 024#560001F3420F8047
(1467827579.374732) can0 1D0#00000900009E0080
(1467827579.375279) can0 020#0000072B
(1467827579.375359) can0 0BA#060000C4
(1467827579.375705) can0 224#0000000000000008
(1467827579.375882) can0 2C1#08FF9B1282BC00BD
(1467827579.376405) can0 025#0FFE0002B00000EC
(1467827579.379310) can0 3E8#0000000000000000
(1467827579.381407) can0 0AA#1A6F1A6F1A6F1A6F
(1467827579.381499) can0 1AA#0000000000B1
(1467827579.382771) can0 1C8#00
(1467827579.383001) can0 260#0E00000000000078
(1467827579.385150) can0 610#2000006480FFFD60
(1467827579.385525) can0 024#560001F3420F8047
(1467827579.387321) can0 020#0000072B
(1467827579.387570) can0 0B4#00000000020000BE
(1467827579.387819) can0 223#000000000000002D
(1467827579.387844) can0 394#4300
(1467827579.388424) can0 025#0FFE0002B00000EC
(1467827579.389051) can0 263#000000004700B3
(1467827579.390099) can0 1C4#000026000000FFF2
(1467827579.391126) can0 361#00A0000700000000
(1467827579.393421) can0 0AA#1A6F1A6F1A6F1A6F
(1467827579.397503) can0 024#560001F3420F8047
(1467827579.399162) can0 1C8#00
(1467827579.399335) can0 020#0000072B
(1467827579.399483) can0 0BA#060000C4
(1467827579.399758) can0 224#0000000000000008
(1467827579.400393) can0 025#0FFE0002B00000EC
(1467827579.403070) can0 260#0E00000000000078
(1467827579.405468) can0 0AA#1A6F1A6F1A6F1A6F
(1467827579.407518) can0 1D0#00000900009E0080
(1467827579.408490) can0 2C1#08FF9B1282BC00BD
(1467827579.409263) can0 3E9#0000000000000000
(1467827579.409462) can0 024#560001F3420F8047
(1467827579.411410) can0 020#0000072B
(1467827579.411605) can0 0B4#00000000020000BE
(1467827579.411905) can0 223#000000000000002D
(1467827579.412391) can0 025#0FFE0002B00000EC
(1467827579.413032) can0 262#000000016A
(1467827579.413595) can0 263#000000004700B3
(1467827579.414648) can0 1C4#000026000000FFF2
(1467827579.415530) can0 1C8#00
(1467827579.417443) can0 0AA#1A6F1A6F1A6F1A6F
(1467827579.421510) can0 024#560001F3420F8047
(1467827579.422707) can0 440#4202001101000000
(1467827579.423020) can0 260#0E00000000000078
(1467827579.423575) can0 020#0000072B
(1467827579.423667) can0 0BA#060000C4
(1467827579.424022) can0 224#0000000000000008
(1467827579.424252) can0 025#0FFE0002B00000EC
(1467827579.424557) can0 024#520001F3420F8043
(1467827579.427878) can0 351#00000000
(1467827579.429684) can0 0AA#1A6F1A6F1A6F1A6F
(1467827579.429827) can0 1AA#0000000000B1
(1467827579.431930) can0 1C8#00
(1467827579.435620) can0 020#0000072B
(1467827579.435850) can0 0B4#00000000020000BE
(1467827579.436079) can0 223#000000000000002D
(1467827579.436386) can0 025#0FFE0002B00000EC
(1467827579.436572) can0 024#520001F4420F8044
(1467827579.438250) can0 263#000000004700B3
(1467827579.438831) can0 3A0#00C500000000003C
(1467827579.439298) can0 1C4#000026000000FFF2
(1467827579.440374) can0 1D0#00000900009E0080
(1467827579.441301) can0 2C1#08FF9B1282BC00BD
(1467827579.441723) can0 0AA#1A6F1A6F1A6F1A6F
(1467827579.443011) can0 260#0E00000000000078
(1467827579.447577) can0 020#0000072B
(1467827579.447735) can0 0BA#060000C4
(1467827579.448062) can0 224#0000000000000008
(1467827579.448374) can0 025#0FFE0002B00000EC
(1467827579.448471) can0 024#520001F3420F8043
(1467827579.448544) can0 1C8#00
(1467827579.452941) can0 262#000000016A
(1467827579.453637) can0 0AA#1A6F1A6F1A6F1A6F
(1467827579.453960) can0 3B7#583B000000000008
(1467827579.456715) can0 361#00A0000700000000
(1467827579.459635) can0 020#0000072B
(1467827579.459864) can0 0B4#00000000020000BE
(1467827579.460167) can0 223#000000000000002D
(1467827579.460337) can0 025#0FFE0002B00000EC
(1467827579.460639) can0 024#520001F3420F8043
(1467827579.462864) can0 263#000000004700B3
(1467827579.463058) can0 260#0E00000000000078
(1467827579.463887) can0 1C4#000026000000FFF2
(1467827579.464776) can0 1C8#00
(1467827579.465761) can0 0AA#1A6F1A6F1A6F1A6F
(1467827579.471680) can0 020#0000072B
(1467827579.471774) can0 0BA#060000C4
(1467827579.472122) can0 224#0000000000000008
(1467827579.472306) can0 025#0FFE0002A00000DC
(1467827579.472605) can0 024#520001F3420F8043
(1467827579.472802) can0 380#0000000000008000
(1467827579.473130) can0 1D0#00000900009E0080
(1467827579.473329) can0 383#0100010000000000
(1467827579.474067) can0 2C1#08FF9B1282BC00BD
(1467827579.477719) can0 0AA#1A6F1A6F1A6F1A6F
(1467827579.477962) can0 1AA#0000000000B1
(1467827579.481170) can0 1C8#00
(1467827579.482929) can0 260#0E00000000000078
(1467827579.483692) can0 020#0000072B
(1467827579.483940) can0 0B4#00000000020000BE
(1467827579.484174) can0 223#000000000000002D
(1467827579.484371) can0 025#0FFE0002B00000EC
(1467827579.484618) can0 024#520001F3420F8043
(1467827579.487448) can0 263#000000004700B3
(1467827579.487816) can0 351#00000000
(1467827579.488499) can0 1C4#000026000000FFF2
(1467827579.488697) can0 3F9#5198260100000014
(1467827579.489823) can0 0AA#1A6F1A6F1A6F1A6F
(1467827579.492873) can0 262#000000016A
(1467827579.495745) can0 020#0000072B
(1467827579.495841) can0 0BA#060000C4
(1467827579.496160) can0 224#0000000000000008
(1467827579.496381) can0 025#0FFE0002B00000EC
(1467827579.496601) can0 024#520001F3420F8043
(1467827579.497584) can0 1C8#00
(1467827579.501846) can0 0AA#1A6F1A6F1A6F1A6F
(1467827579.502917) can0 260#0E00000000000078
(1467827579.505915) can0 1D0#00000900009E0080
(1467827579.506894) can0 2C1#08FF9B1282BC00BD
(1467827579.507784) can0 020#0000072B
(1467827579.508015) can0 0B4#00000000020000BE
(1467827579.508338) can0 025#0FFE0002B00000EC
(1467827579.508487) can0 024#520001F3420F8043
(1467827579.508793) can0 223#000000000000002D
(1467827579.508811) can0 3D0#00
(1467827579.512064) can0 263#000000004700B3
(1467827579.513087) can0 1C4#000026000000FFF2
(1467827579.513917) can0 0AA#1A6F1A6F1A6F1A6F
(1467827579.513934) can0 1C8#00
(1467827579.519833) can0 020#0000072B
(1467827579.519927) can0 0BA#060000C4
(1467827579.520249) can0 224#0000000000000008
(1467827579.520455) can0 024#520001F3420F8043
(1467827579.520757) can0 025#0FFE0002B00000EC
(1467827579.522333) can0 361#00A0000700000000
(1467827579.522956) can0 260#0E00000000000078
(1467827579.525959) can0 0AA#1A6F1A6F1A6F1A6F
(1467827579.526105) can0 1AA#0000000000B1
(1467827579.526408) can0 442#4302000001000000
(1467827579.529343) can0 354#07
(1467827579.530368) can0 1C8#00
(1467827579.531902) can0 020#0000072B
(1467827579.532098) can0 0B4#00000000020000BE
(1467827579.532402) can0 025#0FFE0002A00000DC
(1467827579.532598) can0 024#520001F3420F8043
(1467827579.532900) can0 223#000000000000002D
(1467827579.532992) can0 262#000000016A
(1467827579.536651) can0 263#000000004700B3
(1467827579.537678) can0 1C4#000026000000FFF2
(1467827579.537999) can0 0AA#1A6F1A6F1A6F1A6F
(1467827579.538728) can0 1D0#00000900009E0080
(1467827579.539699) can0 2C1#08FF9B1282BC00BD
(1467827579.542900) can0 260#0E00000000000078
(1467827579.543745) can0 3A0#00C500000000003C
(1467827579.543836) can0 020#0000072B
(1467827579.544083) can0 0BA#060000C4
(1467827579.544306) can0 025#0FFE0002B00000EC
(1467827579.544603) can0 024#520001F3420F8043
(1467827579.544791) can0 224#0000000000000008
(1467827579.546749) can0 1C8#00
(1467827579.547738) can0 351#00000000
(1467827579.550019) can0 0AA#1A6F1A6F1A6F1A6F
(1467827579.555964) can0 020#0000072B
(1467827579.556190) can0 0B4#00000000020000BE
(1467827579.556442) can0 223#000000000000002D
(1467827579.556672) can0 024#520001F3420F8043
(1467827579.557320) can0 025#0FFE0002A00000DC
(1467827579.561314) can0 263#000000004700B3
(1467827579.562060) can0 0AA#1A6F1A6F1A6F1A6F
(1467827579.562260) can0 1C4#000026000000FFF2
(1467827579.562889) can0 260#0E00000000000078
(1467827579.563151) can0 1C8#00
(1467827579.568008) can0 020#0000072B
(1467827579.568100) can0 0BA#060000C4
(1467827579.568433) can0 224#0000000000000008
(1467827579.568631) can0 024#520001F3420F8043
(1467827579.569187) can0 025#0FFE0002B00000EC
(1467827579.571537) can0 1D0#00000900009E0080
(1467827579.572482) can0 2C1#08FF9B1282BC00BD
(1467827579.572792) can0 262#000000016A
(1467827579.574111) can0 0AA#1A6F1A6F1A6F1A6F
(1467827579.574275) can0 1AA#0000000000B1
(1467827579.579571) can0 1C8#00
(1467827579.580063) can0 020#0000072B
(1467827579.580284) can0 0B4#00000000020000BE
(1467827579.580526) can0 024#520001F342118045
(1467827579.580764) can0 223#000000000000002D
(1467827579.581302) can0 025#0FFE0002B00000EC
(1467827579.582879) can0 260#0E00000000000078
(1467827579.585852) can0 263#000000004700B3
(1467827579.586173) can0 0AA#1A6F1A6F1A6F1A6F
(1467827579.586400) can0 4C3#0300000100000000
(1467827579.586901) can0 1C4#000026000000FFF2
(1467827579.587924) can0 361#00A0000700000000
(1467827579.592098) can0 020#0000072B
(1467827579.592240) can0 0BA#060000C4
(1467827579.592467) can0 024#520001F3420F8043
(1467827579.592712) can0 224#0000000000000008
(1467827579.593139) can0 025#0FFE0002B00000EC
(1467827579.595966) can0 1C8#00
(1467827579.598219) can0 0AA#1A6F1A6F1A6F1A6F
(1467827579.602599) can0 620#1000FFFFB0580090
(1467827579.602788) can0 260#0E00000000000078
(1467827579.604136) can0 020#0000072B
(1467827579.604341) can0 0B4#00000000020000BE
(1467827579.604641) can0 024#520001F3420F8043
(1467827579.604837) can0 1D0#00000900009E0080
(1467827579.605100) can0 223#000000000000002D
(1467827579.605329) can0 025#0FFE0002A00000DC
(1467827579.605552) can0 2C1#08FF9B1282BC00BD
(1467827579.607712) can0 351#00000000
(1467827579.610289) can0 0AA#1A6F1A6F1A6F1A6F
(1467827579.610415) can0 263#000000004700B3
(1467827579.611492) can0 1C4#000026000000FFF2
(1467827579.611691) can0 622#1200481000000000
(1467827579.612385) can0 1C8#00
(1467827579.612725) can0 262#000000016A
(1467827579.616162) can0 020#0000072B
(1467827579.616244) can0 0BA#060000C4
(1467827579.616586) can0 224#0000000000000008
(1467827579.617037) can0 025#0FFE0002B00000EC
(1467827579.617487) can0 024#520001F3420F8043
(1467827579.622292) can0 0AA#1A6F1A6F1A6F1A6F
(1467827579.622432) can0 1AA#0000000000B1
(1467827579.622798) can0 260#0E00000000000078
(1467827579.623147) can0 443#4002002F06000000
(1467827579.628195) can0 020#0000072B
(1467827579.628421) can0 0B4#00000000020000BE
(1467827579.628699) can0 223#000000000000002D
(1467827579.628712) can0 1C8#00
(1467827579.629086) can0 025#0FFE0002B00000EC
(1467827579.629471) can0 024#520001F3420F8043
(1467827579.634022) can0 640#A8000057013F0000
(1467827579.634298) can0 0AA#1A6F1A6F1A6F1A6F
(1467827579.635043) can0 263#000000004700B3
(1467827579.636094) can0 1C4#000026000000FFF2
(1467827579.637117) can0 1D0#00000900009E0080
(1467827579.638074) can0 2C1#08FF9B1282BC00BD
(1467827579.639694) can0 3A0#00C500000000003C
(1467827579.640260) can0 020#0000072B
(1467827579.640308) can0 0BA#060000C4
(1467827579.640656) can0 224#0000000000000008
(1467827579.641007) can0 025#0FFE0002A00000DC
(1467827579.641441) can0 024#520001F3420F8043
(1467827579.642819) can0 260#0E00000000000078
(1467827579.645155) can0 1C8#00
(1467827579.646313) can0 0AA#1A6F1A6F1A6F1A6F
(1467827579.646512) can0 420#00000000FB0182AA
(1467827579.652254) can0 020#0000072B
(1467827579.652532) can0 0B4#00000000020000BE
(1467827579.652765) can0 223#000000000000002D
(1467827579.652914) can0 262#000000016A
(1467827579.653233) can0 025#0FFE0002B00000EC
(1467827579.653395) can0 024#520001F3420F8043
(1467827579.653643) can0 361#00A0000700000000
(1467827579.658405) can0 0AA#1A6F1A6F1A6F1A6F
(1467827579.659626) can0 263#000000004700B3
(1467827579.660680) can0 1C4#000026000000FFF2
(1467827579.661566) can0 1C8#00
(1467827579.662704) can0 4C1#0100000500000000
(1467827579.662936) can0 260#0E00000000000078
(1467827579.664494) can0 020#0000072B
(1467827579.664603) can0 0BA#060000C4
(1467827579.664868) can0 224#0000000000000008
(1467827579.665178) can0 025#0FFE0002B00000EC
(1467827579.665401) can0 024#520001F3420F8043
(1467827579.667559) can0 351#00000000
(1467827579.669902) can0 1D0#00000900009E0080
(1467827579.670599) can0 0AA#1A6F1A6F1A6F1A6F
(1467827579.670762) can0 1AA#0000000000B1
(1467827579.671007) can0 2C1#08FF9B1282BC00BD
(1467827579.676544) can0 020#0000072B
(1467827579.676776) can0 0B4#00000000020000BE
(1467827579.677043) can0 025#0FFE0002B00000EC
(1467827579.677231) can0 223#000000000000002D
(1467827579.677521) can0 024#520001F342118045
(1467827579.677957) can0 1C8#00
(1467827579.682644) can0 0AA#1A6F1A6F1A6F1A6F
(1467827579.682874) can0 260#0E00000000000078
(1467827579.684239) can0 263#000000004700B3
(1467827579.685295) can0 1C4#000026000000FFF2
(1467827579.687507) can0 394#4300
(1467827579.688559) can0 020#0000072B
(1467827579.688668) can0 0BA#060000C4
(1467827579.688956) can0 224#0000000000000008
(1467827579.689246) can0 025#0FFE0002B00000EC
(1467827579.689450) can0 024#520001F3420F8043
(1467827579.692659) can0 262#000000016A
(1467827579.694351) can0 1C8#00
(1467827579.694674) can0 0AA#1A6F1A6F1A6F1A6F
(1467827579.700580) can0 020#0000072B
(1467827579.700854) can0 0B4#00000000020000BE
(1467827579.701041) can0 025#0FFE0002A00000DC
(1467827579.701337) can0 223#000000000000002D
(1467827579.701602) can0 024#520001F3420F8043
(1467827579.702707) can0 1D0#00000900009E0080
(1467827579.702940) can0 260#0E00000000000078
(1467827579.703680) can0 2C1#08FF9B1282BC00BD
(1467827579.706682) can0 0AA#1A6F1A6F1A6F1A6F
(1467827579.708831) can0 263#000000004700B3
(1467827579.709879) can0 1C4#000026000000FFF2
(1467827579.710744) can0 1C8#00
(1467827579.712595) can0 020#0000072B
(1467827579.712743) can0 0BA#060000C4
(1467827579.712998) can0 025#0FFE0002B00000EC
(1467827579.713237) can0 224#0000000000000008
(1467827579.713529) can0 024#520001F342118045
(1467827579.717406) can0 4AC#1802400500000324
(1467827579.718723) can0 0AA#1A6F1A6F1A6F1A6F
(1467827579.718886) can0 1AA#0000000000B1
(1467827579.719182) can0 361#00A0000700000000
(1467827579.722444) can0 440#4202001101000000
(1467827579.722745) can0 260#0E00000000000078
(1467827579.724638) can0 020#0000072B
(1467827579.724917) can0 0B4#00000000020000BE
(1467827579.725104) can0 025#0FFE0002A00000DC
(1467827579.725399) can0 223#000000000000002D
(1467827579.725619) can0 024#520001F342118045
(1467827579.727211) can0 1C8#00
(1467827579.727529) can0 351#00000000
(1467827579.730745) can0 0AA#1A6F1A6F1A6F1A6F
(1467827579.732541) can0 262#000000016A
(1467827579.733446) can0 263#000000004700B3
(1467827579.734495) can0 1C4#000026000000FFF2
(1467827579.734508) can0 354#07
(1467827579.735381) can0 3D3#0000
(1467827579.735659) can0 1D0#00000900009E0080
(1467827579.736489) can0 2C1#08FF9B1282BC00BD
(1467827579.736673) can0 020#0000072B
(1467827579.736844) can0 0BA#060000C4
(1467827579.737132) can0 025#0FFE0002B00000EC
(1467827579.737329) can0 224#0000000000000008
(1467827579.737612) can0 024#520001F3420F8043
(1467827579.742636) can0 260#0E00000000000078
(1467827579.742821) can0 0AA#1A6F1A6F1A6F1A6F
(1467827579.743553) can0 1C8#00
(1467827579.744610) can0 3A0#00C500000000003C
(1467827579.744877) can0 3F9#5198260100000014
(1467827579.748732) can0 020#0000072B
(1467827579.748998) can0 0B4#00000000020000BE
(1467827579.749214) can0 223#000000000000002D
(1467827579.749488) can0 024#520001F3420F8043
(1467827579.749962) can0 025#0FFE0002B00000EC
(1467827579.754834) can0 0AA#1A6F1A6F1A6F1A6F
(1467827579.755019) can0 3B7#583B000000000008
(1467827579.756033) can0 4C6#0700030000000000
(1467827579.757528) can0 4C8#0900000000000000
(1467827579.758026) can0 263#000000004700B3
(1467827579.759082) can0 1C4#000026000000FFF2
(1467827579.759943) can0 1C8#00
(1467827579.760748) can0 020#0000072B
(1467827579.760895) can0 0BA#060000C4
(1467827579.761159) can0 224#0000000000000008
(1467827579.761387) can0 024#520001F3420F8043
(1467827579.761840) can0 025#0FFE0002B00000EC
(1467827579.762642) can0 260#0E00000000000078
(1467827579.765014) can0 3D0#00
(1467827579.766851) can0 0AA#1A6F1A6F1A6F1A6F
(1467827579.767036) can0 1AA#0000000000B1
(1467827579.768323) can0 1D0#00000900009E0080
(1467827579.769299) can0 2C1#08FF9B1282BC00BD
(1467827579.772495) can0 262#000000016A
(1467827579.772788) can0 020#0000072B
(1467827579.773055) can0 0B4#00000000020000BE
(1467827579.773267) can0 223#000000000000002D
(1467827579.773533) can0 024#520001F3420F8043
(1467827579.773833) can0 025#0FFE0002A00000DC
(1467827579.776305) can0 1C8#00
(1467827579.778874) can0 0AA#1A6F1A6F1A6F1A6F
(1467827579.782570) can0 260#0E00000000000078
(1467827579.782755) can0 263#000000004700B3
(1467827579.783690) can0 1C4#000026000000FFF2
(1467827579.784715) can0 361#00A0000700000000
(1467827579.784782) can0 020#0000072B
(1467827579.785026) can0 0BA#060000C4
(1467827579.785291) can0 224#0000000000000008
(1467827579.785525) can0 024#520001F3420F8043
(1467827579.785796) can0 025#0FFE0002B00000EC
(1467827579.786731) can0 3BC#0020000000000000
(1467827579.787415) can0 351#00000000
(1467827579.787617) can0 3BB#00004700
(1467827579.788725) can0 399#00000000000000
(1467827579.790851) can0 0AA#1A6F1A6F1A6F1A6F
(1467827579.792776) can0 1C8#00
(1467827579.796809) can0 020#0000072B
(1467827579.797079) can0 0B4#00000000020000BE
(1467827579.797284) can0 223#000000000000002D
(1467827579.797563) can0 024#520001F3420F8043
(1467827579.797837) can0 025#0FFE0002B00000EC
(1467827579.801109) can0 1D0#00000900009E0080
(1467827579.802082) can0 2C1#08FF9B1282BC00BD
(1467827579.802639) can0 260#0E00000000000078
(1467827579.802907) can0 0AA#1A6F1A6F1A6F1A6F
(1467827579.807256) can0 263#000000004700B3
(1467827579.808280) can0 1C4#000026000000FFF2
(1467827579.808846) can0 020#0000072B
(1467827579.808957) can0 0BA#060000C4
(1467827579.809278) can0 224#0000000000000008
(1467827579.809545) can0 024#520001F3420F8043
(1467827579.809739) can0 025#0FFE0002B00000EC
(1467827579.809794) can0 1C8#00
(1467827579.809941) can0 423#00
(1467827579.812491) can0 262#000000016A
(1467827579.814954) can0 0AA#1A6F1A6F1A6F1A6F
(1467827579.815138) can0 1AA#0000000000B1
(1467827579.820876) can0 020#0000072B
(1467827579.821156) can0 0B4#00000000020000BE
(1467827579.821380) can0 024#520001F3420F8043
(1467827579.821605) can0 223#000000000000002D
(1467827579.821859) can0 025#0FFE0002B00000EC
(1467827579.822583) can0 260#0E00000000000078
(1467827579.825543) can0 1C8#00
(1467827579.825892) can0 442#4302000001000000
(1467827579.826980) can0 0AA#1A6F1A6F1A6F1A6F
(1467827579.831827) can0 263#000000004700B3
(1467827579.832842) can0 1C4#000026000000FFF2
(1467827579.832967) can0 020#0000072B
(1467827579.833146) can0 0BA#060000C4
(1467827579.833398) can0 024#520001F3420F8043
(1467827579.833718) can0 224#0000000000000008
(1467827579.833917) can0 025#0FFE0002A00000DC
(1467827579.834165) can0 1D0#00000900009E0080
(1467827579.834877) can0 2C1#08FF9B1282BC00BD
(1467827579.838999) can0 0AA#1A6F1A6F1A6F1A6F
(1467827579.840572) can0 3A0#00C500000000003C
(1467827579.841964) can0 1C8#00
(1467827579.842496) can0 260#0E00000000000078
(1467827579.844907) can0 020#0000072B
(1467827579.845198) can0 0B4#00000000020000BE
(1467827579.845401) can0 024#520001F3420F8043
(1467827579.845674) can0 223#000000000000002D
(1467827579.845920) can0 025#0FFE0002A00000DC
(1467827579.847390) can0 351#00000000
(1467827579.850291) can0 361#00A0000700000000
(1467827579.851016) can0 0AA#1A6F1A6F1A6F1A6F
(1467827579.852388) can0 262#000000016A
(1467827579.856438) can0 263#000000004700B3
(1467827579.856956) can0 020#0000072B
(1467827579.857097) can0 0BA#060000C4
(1467827579.857346) can0 024#520001F3420F8043
(1467827579.857629) can0 1C4#000026000000FFF2
(1467827579.857881) can0 025#0FFE0002B00000EC
(1467827579.858137) can0 224#0000000000000008
(1467827579.858359) can0 1C8#00
(1467827579.862537) can0 260#0E00000000000078
(1467827579.863059) can0 0AA#1A6F1A6F1A6F1A6F
(1467827579.863233) can0 1AA#0000000000B1
(1467827579.866709) can0 1D0#00000900009E0080
(1467827579.867682) can0 2C1#08FF9B1282BC00BD
(1467827579.868980) can0 020#0000072B
(1467827579.869256) can0 0B4#00000000020000BE
(1467827579.869480) can0 024#520101F342118046
(1467827579.869731) can0 025#0FFE0002A00000DC
(1467827579.869980) can0 223#000000000000002D
(1467827579.874745) can0 1C8#00
(1467827579.875131) can0 0AA#1A6F1A6F1A6F1A6F
(1467827579.881026) can0 263#000000004700B3
(1467827579.881161) can0 020#0000072B
(1467827579.881323) can0 0BA#060000C4
(1467827579.881631) can0 224#0000000000000008
(1467827579.881863) can0 025#0FFE0002B00000EC
(1467827579.882125) can0 1C4#000026000000FFF2
(1467827579.882351) can0 024#520001F3420F8043
(1467827579.882612) can0 260#0E00000000000078
(1467827579.885844) can0 610#2000006480FFFD60
(1467827579.887125) can0 0AA#1A6F1A6F1A6F1A6F
(1467827579.891138) can0 1C8#00
(1467827579.892341) can0 262#000000016A
(1467827579.893119) can0 020#0000072B
(1467827579.893273) can0 0B4#00000000020000BE
(1467827579.893544) can0 223#000000000000002D
(1467827579.893819) can0 025#0FFE0002B00000EC
(1467827579.894285) can0 024#520001F3420F8043
(1467827579.897837) can0 611#2100002000006227
(1467827579.899142) can0 0AA#1A6F1A6F1A6F1A6F
(1467827579.899490) can0 1D0#00000900009E0080
(1467827579.900466) can0 2C1#08FF9B1282BC00BD
(1467827579.902343) can0 620#1000FFFFB0580090
(1467827579.902571) can0 260#0E00000000000078
(1467827579.905104) can0 020#0000072B
(1467827579.905215) can0 0BA#060000C4
(1467827579.905523) can0 224#0000000000000008
(1467827579.905708) can0 025#0FFE0002A00000DC
(1467827579.905921) can0 263#000000004700B3
(1467827579.906238) can0 024#520001F3420F8043
(1467827579.906618) can0 1C4#000026000000FFF2
(1467827579.907256) can0 351#00000000
(1467827579.907500) can0 1C8#00
(1467827579.911131) can0 0AA#1A6F1A6F1A6F1A6F
(1467827579.911327) can0 1AA#0000000000B1
(1467827579.915865) can0 361#00A0000700000000
(1467827579.917122) can0 020#0000072B
(1467827579.917331) can0 0B4#00000000020000BE
(1467827579.917619) can0 025#0FFE0002B00000EC
(1467827579.917829) can0 223#000000000000002D
(1467827579.918264) can0 024#520001F3420F8043
(1467827579.922415) can0 260#0E00000000000078
(1467827579.923223) can0 0AA#1A6F1A6F1A6F1A6F
(1467827579.923972) can0 443#4002002F06000000
(1467827579.924050) can0 1C8#00
(1467827579.925010) can0 38A#1C04000000
(1467827579.927299) can0 3B1#00000D0A00080000
(1467827579.929141) can0 020#0000072B
(1467827579.929263) can0 0BA#060000C4
(1467827579.929539) can0 224#0000000000000008
(1467827579.929763) can0 025#0FFE0002A00000DC
(1467827579.930177) can0 263#000000004700B3
(1467827579.930431) can0 024#520001F3420F8043
(1467827579.931270) can0 1C4#000026000000FFF2
(1467827579.932294) can0 1D0#00000900009E0080
(1467827579.932419) can0 262#000000016A
(1467827579.933268) can0 2C1#08FF9B1282BC00BD
(1467827579.933454) can0 620#1080FFFFB0580050
(1467827579.935184) can0 0AA#1A6F1A6F1A6F1A6F
(1467827579.939308) can0 354#07
(1467827579.940330) can0 1C8#00
(1467827579.941138) can0 020#0000072B
(1467827579.941378) can0 0B4#00000000020000BE
(1467827579.941640) can0 025#0FFE0002B00000EC
(1467827579.941849) can0 223#000000000000002D
(1467827579.942289) can0 024#520001F3420F8043
(1467827579.942525) can0 260#0E00000000000078
(1467827579.942750) can0 3A0#00C600000000003C
(1467827579.947394) can0 0AA#1A6F1A6F1A6F1A6F
(1467827579.953180) can0 020#0000072B
(1467827579.953338) can0 0BA#060000C4
(1467827579.953590) can0 025#0FFE0002B00000EC
(1467827579.953845) can0 224#0000000000000008
(1467827579.954246) can0 024#520001F342118045
(1467827579.954811) can0 263#000000004700B3
(1467827579.955857) can0 1C4#000026000000FFF2
(1467827579.956724) can0 1C8#00
(1467827579.957311) can0 621#1100000000000000
(1467827579.958958) can0 387#0000000000003F3F
(1467827579.959431) can0 0AA#1A6F1A6F1A6F1A6F
(1467827579.959614) can0 1AA#0000000000B1
(1467827579.962332) can0 260#0E00000000000078
(1467827579.965105) can0 1D0#00000900009E0080
(1467827579.965371) can0 020#0000072B
(1467827579.965609) can0 0B4#00000000020000BE
(1467827579.965893) can0 223#000000000000002D
(1467827579.966089) can0 2C1#08FF9B1282BC00BD
(1467827579.966391) can0 024#520001F3420F8043
(1467827579.966588) can0 025#0FFE0002A00000DC
(1467827579.967303) can0 623#1900000000000000
(1467827579.967409) can0 351#00000000
(1467827579.971440) can0 0AA#1A6F1A6F1A6F1A6F
(1467827579.972245) can0 262#000000016A
(1467827579.972458) can0 4DC#1D00000200000000
(1467827579.973144) can0 1C8#00
(1467827579.976298) can0 624#1A00414949400000
(1467827579.977391) can0 020#0000072B
(1467827579.977518) can0 0BA#060000C4
(1467827579.977837) can0 224#0000000000000008
(1467827579.978270) can0 024#520001F3420F8043
(1467827579.978483) can0 025#0FFE0002A00000DC
(1467827579.979419) can0 263#000000004700B3
(1467827579.980470) can0 1C4#000026000000FFF2
(1467827579.981496) can0 361#00A0000700000000
(1467827579.982373) can0 260#0E00000000000078
(1467827579.983493) can0 0AA#1A6F1A6F1A6F1A6F
(1467827579.985317) can0 626#1C00300000000000
(1467827579.987110) can0 394#4300
(1467827579.988941) can0 389#0000000000000000
(1467827579.989414) can0 020#0000072B
(1467827579.989624) can0 0B4#00000000020000BE
(1467827579.989718) can0 1C8#00
(1467827579.990064) can0 223#000000000000002D
(1467827579.990250) can0 024#520001F3420F8043
(1467827579.990540) can0 025#0FFE0002B00000EC
(1467827579.994254) can0 638#1300180100000000
(1467827579.995516) can0 0AA#1A6F1A6F1A6F1A6F
(1467827579.997886) can0 1D0#00000900009E0080
(1467827579.998862) can0 2C1#08FF9B1282BC00BD
(1467827580.000961) can0 3F9#5198260100000014
(1467827580.001430) can0 020#0000072B
(1467827580.001557) can0 0BA#060000C4
(1467827580.001857) can0 224#0000000000000008
(1467827580.002261) can0 024#520001F3420F8043
(1467827580.002471) can0 025#0FFE0002A00000DC
(1467827580.002757) can0 260#0E00000000000078
(1467827580.003259) can0 63C#98005A5245172060
(1467827580.004056) can0 263#000000004700B3
(1467827580.005065) can0 1C4#000026000000FFF2
(1467827580.005927) can0 1C8#00
(1467827580.007534) can0 0AA#1A6F1A6F1A6F1A6F
(1467827580.007690) can0 1AA#0000000000B1
(1467827580.012204) can0 262#000000016A
(1467827580.012388) can0 63D#9900444558534B00
(1467827580.013448) can0 020#0000072B
(1467827580.013664) can0 0B4#00000000020000BE
(1467827580.013952) can0 223#000000000000002D
(1467827580.014277) can0 024#520001F3420F8043
(1467827580.014528) can0 025#0FFE0002B00000EC
(1467827580.018930) can0 38E#2020000000000000
(1467827580.019551) can0 0AA#1A6F1A6F1A6F1A6F
(1467827580.021280) can0 680#D800010000000000
(1467827580.021302) can0 3D0#00
(1467827580.022249) can0 260#0E00000000000078
(1467827580.022461) can0 440#4202001101000000
(1467827580.022555) can0 1C8#00
(1467827580.025467) can0 020#0000072B
(1467827580.025594) can0 0BA#060000C4
(1467827580.025892) can0 224#0000000000000008
(1467827580.026272) can0 024#520001F3420F8043
(1467827580.026485) can0 025#0FFE0002B00000EC
(1467827580.027142) can0 351#00000000
(1467827580.027355) can0 4DD#1E00000000000000
(1467827580.028583) can0 263#000000004700B3
(1467827580.029671) can0 1C4#000026000000FFF2
(1467827580.030698) can0 1D0#00000900009E0080
(1467827580.031546) can0 0AA#1A6F1A6F1A6F1A6F
(1467827580.031755) can0 2C1#08FF9B1282BC00BD
(1467827580.037468) can0 020#0000072B
(1467827580.037703) can0 0B4#00000000020000BE
(1467827580.038041) can0 223#000000000000002D
(1467827580.038226) can0 024#520001F3420F8043
(1467827580.038516) can0 025#0FFE0002B00000EC
(1467827580.038692) can0 1C8#00
(1467827580.041440) can0 3A0#00C600000000003C
(1467827580.042314) can0 260#0E00000000000078
(1467827580.043564) can0 0AA#1A6F1A6F1A6F1A6F
(1467827580.047088) can0 361#00A0000700000000
(1467827580.048912) can0 38F#0100000000000000
(1467827580.049470) can0 020#0000072B
(1467827580.049638) can0 0BA#060000C4
(1467827580.049928) can0 224#0000000000000008
(1467827580.050264) can0 024#520001F342118045
(1467827580.050472) can0 025#0FFE0002B00000EC
(1467827580.052208) can0 262#000000016A
(1467827580.053213) can0 263#000000004700B3
(1467827580.054258) can0 1C4#000026000000FFF2
(1467827580.055127) can0 1C8#00
(1467827580.055597) can0 0AA#1A6F1A6F1A6F1A6F
(1467827580.055756) can0 1AA#0000000000B1
(1467827580.056060) can0 3B7#583B000000000008
(1467827580.061492) can0 020#0000072B
(1467827580.061804) can0 0B4#00000000020000BE
(1467827580.062019) can0 223#000000000000002D
(1467827580.062282) can0 024#520001F3420F8043
(1467827580.062491) can0 025#0FFE0002B00000EC
(1467827580.062777) can0 260#0E00000000000078
(1467827580.063444) can0 1D0#00000900009E0080
(1467827580.064417) can0 2C1#08FF9B1282BC00BD
(1467827580.067591) can0 0AA#1A6F1A6F1A6F1A6F
(1467827580.071543) can0 1C8#00
(1467827580.073544) can0 020#0000072B
(1467827580.073670) can0 0BA#060000C4
(1467827580.074023) can0 224#0000000000000008
(1467827580.074208) can0 024#520001F3420F8043
(1467827580.074497) can0 025#0FFE0002A00000DC
(1467827580.077785) can0 263#000000004700B3
(1467827580.078850) can0 1C4#000026000000FFF2
(1467827580.079057) can0 3A5#0000000000007EFC
(1467827580.079644) can0 0AA#1A6F1A6F1A6F1A6F
(1467827580.082220) can0 260#0E00000000000078
(1467827580.085569) can0 020#0000072B
(1467827580.085801) can0 0B4#00000000020000BE
(1467827580.086056) can0 223#000000000000002D
(1467827580.086284) can0 024#520001F3420F8043
(1467827580.086515) can0 025#0FFE0002A00000DC
(1467827580.087026) can0 351#00000000
(1467827580.087930) can0 1C8#00
(1467827580.091666) can0 0AA#1A6F1A6F1A6F1A6F
(1467827580.092110) can0 262#000000016A
(1467827580.096288) can0 1D0#00000900009E0080
(1467827580.097263) can0 2C1#08FF9B1282BC00BD
(1467827580.097580) can0 020#0000072B
(1467827580.097704) can0 0BA#060000C4
(1467827580.098012) can0 224#0000000000000008
(1467827580.098221) can0 024#520001F3420F8043
(1467827580.098514) can0 025#0FFE0002B00000EC
(1467827580.102237) can0 260#0E00000000000078
(1467827580.102420) can0 263#000000004700B3
(1467827580.103459) can0 1C4#000026000000FFF2
(1467827580.103644) can0 0AA#1A6F1A6F1A6F1A6F
(1467827580.103851) can0 1AA#0000000000B1
(1467827580.104324) can0 1C8#00
(1467827580.108883) can0 413#0101010900000000
(1467827580.109601) can0 020#0000072B
(1467827580.109815) can0 0B4#00000000020000BE
(1467827580.110105) can0 223#000000000000002D
(1467827580.110315) can0 024#520001F3420F8043
(1467827580.110563) can0 025#0FFE0002B00000EC
(1467827580.112667) can0 361#00A0000700000000
(1467827580.115704) can0 0AA#1A6F1A6F1A6F1A6F
(1467827580.120742) can0 1C8#00
(1467827580.121671) can0 020#0000072B
(1467827580.121797) can0 0BA#060000C4
(1467827580.122050) can0 224#0000000000000008
(1467827580.122298) can0 024#520001F3420F8043
(1467827580.122536) can0 025#0FFE0002A00000DC
(1467827580.122779) can0 260#0E00000000000078
(1467827580.123029) can0 6E1#A180000000100000
(1467827580.125747) can0 442#4302000001000000
(1467827580.127022) can0 263#000000004700B3
(1467827580.127770) can0 0AA#1A6F1A6F1A6F1A6F
(1467827580.128086) can0 1C4#000026000000FFF2
(1467827580.129073) can0 1D0#00000900009E0080
(1467827580.130045) can0 2C1#08FF9B1282BC00BD
(1467827580.132117) can0 262#000000016A
(1467827580.133719) can0 020#0000072B
(1467827580.133956) can0 0B4#00000000020000BE
(1467827580.134243) can0 024#520001F3420F8043
(1467827580.134455) can0 025#0FFE0002A00000DC
(1467827580.134716) can0 223#000000000000002D
(1467827580.137133) can0 1C8#00
(1467827580.138868) can0 434#3F00000000000000
(1467827580.139819) can0 0AA#1A6F1A6F1A6F1A6F
(1467827580.142114) can0 260#0E00000000000078
(1467827580.143390) can0 3A0#00C600000000003C
(1467827580.144304) can0 354#07
(1467827580.145757) can0 020#0000072B
(1467827580.145945) can0 0BA#060000C4
(1467827580.146156) can0 224#0000000000000008
(1467827580.146396) can0 024#520001F3420F8043
(1467827580.146679) can0 025#0FFE0002A00000DC
(1467827580.147008) can0 351#00000000
(1467827580.151610) can0 263#000000004800B4
(1467827580.151794) can0 0AA#1A6F1A6F1A6F1A6F
(1467827580.152066) can0 1AA#0000000000B1
(1467827580.152657) can0 1C4#000026000000FFF2
(1467827580.153524) can0 1C8#00
(1467827580.157776) can0 020#0000072B
(1467827580.157994) can0 0B4#00000000020000BE
(1467827580.158282) can0 024#520001F3420F8043
(1467827580.158492) can0 025#0FFE0002A00000DC
(1467827580.158754) can0 223#000000000000002D
(1467827580.161839) can0 1D0#00000900009E0080
(1467827580.162180) can0 260#0E00000000000078
(1467827580.162854) can0 2C1#08FF9B1282BC00BD
(1467827580.163853) can0 0AA#1A6F1A6F1A6F1A6F
(1467827580.168788) can0 435#0F0505FFE00FE003
(1467827580.169694) can0 020#0000072B
(1467827580.169899) can0 0BA#060000C4
(1467827580.170889) can0 1C8#00
(1467827580.170897) can0 024#520001F3420F8043
(1467827580.170899) can0 025#0FFE0002A00000DC
(1467827580.170902) can0 224#0000000000000008
(1467827580.172014) can0 262#000000016A
(1467827580.175858) can0 0AA#1A6F1A6F1A6F1A6F
(1467827580.176209) can0 263#000000004700B3
(1467827580.177286) can0 1C4#000026000000FFF2
(1467827580.178312) can0 361#00A0000700000000
(1467827580.181833) can0 020#0000072B
(1467827580.182108) can0 0B4#00000000020000BE
(1467827580.182357) can0 024#520001F3420F8043
(1467827580.182567) can0 025#0FFE0002A00000DC
(1467827580.182833) can0 223#000000000000002D
(1467827580.183084) can0 260#0E00000000000078
(1467827580.186313) can0 1C8#00
(1467827580.187913) can0 0AA#1A6F1A6F1A6F1A6F
(1467827580.193960) can0 020#0000072B
(1467827580.193983) can0 0BA#060000C4
(1467827580.194301) can0 024#520001F3420F8043
(1467827580.194512) can0 025#0FFE0002A00000DC
(1467827580.194773) can0 1D0#00000900009E0080
(1467827580.195000) can0 224#0000000000000008
(1467827580.195663) can0 2C1#08FF9B1282BC00BD
(1467827580.198837) can0 436#0000000000000000
(1467827580.199987) can0 0AA#1A6F1A6F1A6F1A6F
(1467827580.200144) can0 1AA#0000000000B1
(1467827580.200807) can0 263#000000004700B3
(1467827580.201861) can0 1C4#000026000000FFF2
(1467827580.202071) can0 260#0E00000000000078
(1467827580.202726) can0 1C8#00
(1467827580.205952) can0 020#0000072B
(1467827580.206142) can0 0B4#00000000020000BE
(1467827580.206408) can0 025#0FFE0002A00000DC
(1467827580.206618) can0 223#000000000000002D
(1467827580.206952) can0 351#00000000
(1467827580.207167) can0 024#520001F3420F8043
(1467827580.208090) can0 6E2#A28000FEFEFEFEFE
(1467827580.211971) can0 0AA#1A6F1A6F1A6F1A6F
(1467827580.212158) can0 262#000000016A
(1467827580.217203) can0 4AC#2800600100000324
(1467827580.217947) can0 020#0000072B
(1467827580.218032) can0 0BA#060000C4
(1467827580.218363) can0 224#0000000000000008
(1467827580.218574) can0 025#0FFE0002B00000EC
(1467827580.219201) can0 024#520001F3420F8043
(1467827580.219223) can0 1C8#00
(1467827580.222076) can0 260#0E00000000000078
(1467827580.223801) can0 443#4002002F06000000
(1467827580.223985) can0 0AA#1A6F1A6F1A6F1A6F
(1467827580.225422) can0 263#000000004700B3
(1467827580.226449) can0 1C4#000026000000FFF2
(1467827580.227172) can0 3B1#00000D0900080000
(1467827580.227498) can0 1D0#00000900009E0080
(1467827580.228446) can0 2C1#08FF9B1282BC00BD
(1467827580.228822) can0 437#FCFFFFFFFFFFFFFF
(1467827580.229966) can0 020#0000072B
(1467827580.230202) can0 0B4#00000000020000BE
(1467827580.230463) can0 025#0FFE0002B00000EC
(1467827580.230672) can0 223#000000000000002D
(1467827580.231121) can0 024#520001F3420F8043
(1467827580.233102) can0 620#1000FFFFB0580050
(1467827580.233349) can0 380#80A0400000003E00
(1467827580.233655) can0 3B0#00E2005700080000
(1467827580.235538) can0 1C8#00
(1467827580.236068) can0 0AA#1A6F1A6F1A6F1A6F
(1467827580.241992) can0 260#0E00000000000078
(1467827580.242118) can0 020#0000072B
(1467827580.242292) can0 0BA#060000C4
(1467827580.242581) can0 224#0000000000000008
(1467827580.242791) can0 3A0#00C600000000003C
(1467827580.243114) can0 025#0FFE0002B00000EC
(1467827580.243324) can0 024#520001F3420F8043
(1467827580.243939) can0 361#00A0000700000000
(1467827580.248115) can0 0AA#1A6F1A6F1A6F1A6F
(1467827580.248270) can0 1AA#0000000000B1
(1467827580.250011) can0 263#000000004700B3
(1467827580.251063) can0 1C4#000026000000FFF2
(1467827580.251933) can0 262#000000016A
(1467827580.252013) can0 1C8#00
(1467827580.254041) can0 020#0000072B
(1467827580.254244) can0 0B4#00000000020000BE
(1467827580.254535) can0 223#000000000000002D
(1467827580.255160) can0 025#0FFE0002B00000EC
(1467827580.255368) can0 024#520001F3420F8043
(1467827580.257157) can0 3F9#5198260100000014
(1467827580.260150) can0 3D3#0000
(1467827580.260358) can0 0AA#1A6F1A6F1A6F1A6F
(1467827580.260645) can0 1D0#00000900009E0080
(1467827580.261260) can0 2C1#08FF9B1282BC00BD
(1467827580.262007) can0 260#0E00000000000078
(1467827580.266249) can0 020#0000072B
(1467827580.266375) can0 0BA#060000C4
(1467827580.266685) can0 224#0000000000000008
(1467827580.266798) can0 351#00000000
(1467827580.267102) can0 025#0FFE0002B00000EC
(1467827580.267287) can0 024#520001F3420F8043
(1467827580.268305) can0 1C8#00
(1467827580.269301) can0 382#2738380000000000
(1467827580.269586) can0 381#00810E9000000000
(1467827580.272318) can0 0AA#1A6F1A6F1A6F1A6F
(1467827580.274622) can0 263#000000004800B4
(1467827580.275651) can0 1C4#000026000000FFF2
(1467827580.277517) can0 3D0#00
(1467827580.278316) can0 020#0000072B
(1467827580.278533) can0 0B4#00000000020000BE
(1467827580.278821) can0 223#000000000000002D
(1467827580.279141) can0 025#0FFE0002B00000EC
(1467827580.279331) can0 024#520001F3420F8043
(1467827580.282008) can0 260#0E00000000000078
(1467827580.284420) can0 0AA#1A6F1A6F1A6F1A6F
(1467827580.284736) can0 1C8#00
(1467827580.286760) can0 394#4300
(1467827580.290335) can0 020#0000072B
(1467827580.290467) can0 0BA#060000C4
(1467827580.290775) can0 224#0000000000000008
(1467827580.291001) can0 025#0FFE0002A00000DC
(1467827580.291289) can0 024#520001F3420F8043
(1467827580.291895) can0 262#000000016A
(1467827580.293032) can0 1D0#00000900009E0080
(1467827580.294063) can0 2C1#08FF9B1282BC00BD
(1467827580.296465) can0 0AA#1A6F1A6F1A6F1A6F
(1467827580.296622) can0 1AA#0000000000B1
(1467827580.299210) can0 263#000000004800B4
(1467827580.300257) can0 1C4#000026000000FFF2
(1467827580.301086) can0 1C8#00
(1467827580.301893) can0 260#0E00000000000078
(1467827580.302365) can0 020#0000072B
(1467827580.302623) can0 0B4#00000000020000BE
(1467827580.302926) can0 223#000000000000002D
(1467827580.303119) can0 025#0FFE0002B00000EC
(1467827580.303340) can0 024#520001F342118045
(1467827580.308471) can0 0AA#1A6F1A6F1A6F1A6F
(1467827580.309487) can0 361#00A0000700000000
(1467827580.314424) can0 020#0000072B
(1467827580.314549) can0 0BA#060000C4
(1467827580.314905) can0 224#0000000000000008
(1467827580.315062) can0 025#0FFE0002A00000DC
(1467827580.315351) can0 024#520001F3420F8043
(1467827580.317543) can0 1C8#00
(1467827580.320552) can0 0AA#1A6F1A6F1A6F1A6F
(1467827580.321950) can0 260#0E00000000000078
(1467827580.322159) can0 440#4202001101000000
(1467827580.323823) can0 263#000000004800B4
(1467827580.324904) can0 1C4#000026000000FFF2
(1467827580.325897) can0 1D0#00000900009E0080
(1467827580.326493) can0 020#0000072B
(1467827580.326700) can0 0B4#00000000000000BC
(1467827580.326997) can0 025#0FFE0002A00000DC
(1467827580.327207) can0 024#520001F3420F8043
(1467827580.327494) can0 223#000000000000002D
(1467827580.327683) can0 2C1#08FF9B1282BC00BD
(1467827580.327849) can0 351#00000000
(1467827580.331880) can0 262#000000016A
(1467827580.332595) can0 0AA#1A6F1A6F1A6F1A6F
(1467827580.333934) can0 1C8#00
(1467827580.338538) can0 020#0000072B
(1467827580.338664) can0 0BA#05F300B6
(1467827580.338965) can0 224#0000000000000008
(1467827580.339176) can0 024#520001F3420F8043
(1467827580.339439) can0 025#0FFE0002B00000EC
(1467827580.341940) can0 260#0E00000000000078
(1467827580.344265) can0 3A0#00C600000000003C
(1467827580.344661) can0 0AA#1A6F1A6F1A6F1A6F
(1467827580.344847) can0 1AA#0000000000B1
(1467827580.348412) can0 263#000000004800B4
(1467827580.349464) can0 1C4#000026000000FFF2
(1467827580.349474) can0 354#07
(1467827580.350326) can0 1C8#00
(1467827580.350556) can0 020#0000072B
(1467827580.350885) can0 0B4#00000000000000BC
(1467827580.351046) can0 025#0FFE0002B00000EC
(1467827580.351335) can0 024#020001F3420F80F3
(1467827580.351545) can0 223#000000000000002D
(1467827580.356702) can0 0AA#1A6F1A6F1A6F1A6F
(1467827580.356875) can0 3B7#583B000000000008
(1467827580.358682) can0 1D0#00000900009E0080
(1467827580.359658) can0 2C1#08FF9B1282BC00BD
(1467827580.361907) can0 260#0E00000000000078
(1467827580.362601) can0 020#0000072B
(1467827580.362727) can0 0BA#05F300B6
(1467827580.363029) can0 025#0FFE0002A00000DC
(1467827580.363243) can0 024#020001F3420F80F3
(1467827580.363528) can0 224#0000000000000008
(1467827580.366719) can0 1C8#00
(1467827580.368703) can0 0AA#1A6F1A6F1A6F1A6F
(1467827580.371774) can0 262#000000016A
(1467827580.373005) can0 263#000000004800B4
(1467827580.374049) can0 1C4#000026000000FFF2
(1467827580.374645) can0 020#0000072B
(1467827580.374862) can0 0B4#00000000000000BC
(1467827580.375148) can0 024#020001F3421180F5
(1467827580.375332) can0 025#0FFE0002B00000EC
(1467827580.375621) can0 223#000000000000002D
(1467827580.375835) can0 361#00A0000700000000
(1467827580.380711) can0 0AA#1A6F1A6F1A6F1A6F
(1467827580.381870) can0 260#0E00000000000078
(1467827580.383135) can0 1C8#00
(1467827580.383609) can0 610#2000006480FFFD60
(1467827580.386664) can0 020#0000072B
(1467827580.386823) can0 0BA#05F300B6
(1467827580.387064) can0 025#0FFE0002A00000DC
(1467827580.387307) can0 024#020001F3420F80F3
(1467827580.387590) can0 224#0000000000000008
(1467827580.387700) can0 351#00000000
(1467827580.391495) can0 1D0#00000900009E0080
(1467827580.392441) can0 2C1#08FF9B1282BC00BD
(1467827580.392764) can0 0AA#1A6F1A6F1A6F1A6F
(1467827580.392924) can0 1AA#0000000000B1
(1467827580.397612) can0 263#000000004800B4
(1467827580.398663) can0 1C4#000026000000FFF2
(1467827580.398818) can0 020#0000072B
(1467827580.399059) can0 0B4#00000000000000BC
(1467827580.399273) can0 024#020001F3420F80F3
(1467827580.399559) can0 223#000000000000002D
(1467827580.399583) can0 1C8#00
(1467827580.400037) can0 025#0FFE0002B00000EC
(1467827580.401937) can0 260#0E00000000000078
(1467827580.404866) can0 0AA#1A6F1A6F1A6F1A6F
(1467827580.410727) can0 020#0000072B
(1467827580.410839) can0 0BA#05F300B6
(1467827580.411148) can0 024#020001F3420F80F3
(1467827580.411359) can0 224#0000000000000008
(1467827580.411768) can0 262#000000016A
(1467827580.411992) can0 025#0FFE0002B00000EC
(1467827580.415920) can0 1C8#00
(1467827580.416852) can0 0AA#1A6F1A6F1A6F1A6F
(1467827580.421853) can0 260#0E00000000000078
(1467827580.422222) can0 263#000000004800B4
(1467827580.422743) can0 020#0000072B
(1467827580.422989) can0 0B4#00000000000000BC
(1467827580.423249) can0 024#020001F3420F80F3
(1467827580.423459) can0 1C4#000026000000FFF2
(1467827580.423748) can0 223#000000000000002D
(1467827580.423961) can0 025#0FFE0002B00000EC
(1467827580.424274) can0 1D0#00000900009E0080
(1467827580.425248) can0 2C1#08FF9B1282BC00BD
(1467827580.425597) can0 442#4302000001000000
(1467827580.428847) can0 0AA#1A6F1A6F1A6F1A6F
(1467827580.432337) can0 1C8#00
(1467827580.434838) can0 020#0000072B
(1467827580.434918) can0 0BA#05F300B6
(1467827580.435231) can0 024#020001F3420F80F3
(1467827580.435439) can0 224#0000000000000008
(1467827580.435918) can0 025#0FFE0002A00000DC
(1467827580.440692) can0 361#00A0000700000000
(1467827580.440881) can0 0AA#1A6F1A6F1A6F1A6F
(1467827580.441081) can0 1AA#0000000000B1
(1467827580.441840) can0 260#0E00000000000078
(1467827580.443192) can0 3A0#00C600000000003C
(1467827580.446608) can0 351#00000000
(1467827580.446797) can0 263#000000004800B4
(1467827580.446965) can0 020#0000072B
(1467827580.447254) can0 0B4#00000000000000BC
(1467827580.447464) can0 223#000000000000002D
(1467827580.447865) can0 1C4#000026000000FFF2
(1467827580.448073) can0 025#0FFE0002A00000DC
(1467827580.448336) can0 024#020001F3420F80F3
(1467827580.448685) can0 1C8#00
(1467827580.451797) can0 262#000000016A
(1467827580.452914) can0 0AA#1A6F1A6F1A6F1A6F
(1467827580.457083) can0 1D0#00000900009E0080
(1467827580.458058) can0 2C1#08FF9B1282BC00BD
(1467827580.458791) can0 020#0000072B
(1467827580.458961) can0 0BA#05F300B6
(1467827580.459274) can0 224#0000000000000008
(1467827580.459832) can0 025#0FFE0002A00000DC
(1467827580.460068) can0 024#020001F3420F80F3
(1467827580.461832) can0 260#0E00000000000078
(1467827580.464958) can0 0AA#1A6F1A6F1A6F1A6F
(1467827580.465107) can0 1C8#00
(1467827580.470896) can0 020#0000072B
(1467827580.471110) can0 0B4#00000000000000BC
(1467827580.471398) can0 223#000000000000002D
(1467827580.471588) can0 263#000000004800B4
(1467827580.471876) can0 025#0FFE0002A00000DC
(1467827580.472086) can0 024#020001F3420F80F3
(1467827580.472432) can0 1C4#000026000000FFF2
(1467827580.476962) can0 0AA#1A6F1A6F1A6F1A6F
(1467827580.481543) can0 1C8#00
(1467827580.481784) can0 260#0E00000000000078
(1467827580.482939) can0 020#0000072B
(1467827580.483066) can0 0BA#05F300B6
(1467827580.483364) can0 224#0000000000000008
(1467827580.483819) can0 025#0FFE0002B00000EC
(1467827580.484052) can0 024#020001F3420F80F3
(1467827580.489042) can0 0AA#1A6F1A6F1A6F1A6F
(1467827580.489198) can0 1AA#0000000000B1
(1467827580.489892) can0 1D0#00000900009E0080
(1467827580.490868) can0 2C1#08FF9B1282BC00BD
(1467827580.491662) can0 262#000000016A
(1467827580.494960) can0 020#0000072B
(1467827580.495173) can0 0B4#00000000000000BC
(1467827580.495461) can0 223#000000000000002D
(1467827580.495839) can0 025#0FFE0002A00000DC
(1467827580.495996) can0 263#000000004800B4
(1467827580.496287) can0 024#020001F3420F80F3
(1467827580.497023) can0 1C4#000026000000FFF2
(1467827580.497886) can0 1C8#00
(1467827580.501006) can0 0AA#1A6F1A6F1A6F1A6F
(1467827580.501812) can0 260#0E00000000000078
(1467827580.506285) can0 361#00A0000700000000
(1467827580.506489) can0 351#00000000
(1467827580.507153) can0 020#0000072B
(1467827580.507270) can0 0BA#05F300B6
(1467827580.507549) can0 224#0000000000000008
(1467827580.507788) can0 025#0FFE0002A00000DC
(1467827580.508090) can0 024#020001F3420F80F3
(1467827580.513234) can0 0AA#1A6F1A6F1A6F1A6F
(1467827580.513456) can0 3F9#5198260100000014
(1467827580.514296) can0 1C8#00
(1467827580.519214) can0 020#0000072B
(1467827580.519466) can0 0B4#00000000000000BC
(1467827580.519720) can0 223#000000000000002D
(1467827580.519972) can0 025#0FFE0002A00000DC
(1467827580.520162) can0 024#020001F3420F80F3
(1467827580.520440) can0 4C3#0300000100000000
(1467827580.520624) can0 263#000000004800B4
(1467827580.521614) can0 1C4#000026000000FFF2
(1467827580.521856) can0 260#0E00000000000078
(1467827580.522638) can0 1D0#00000900009E0080
(1467827580.523673) can0 443#4002002F06000000
(1467827580.523878) can0 2C1#08FF9B1282BC00BD
(1467827580.525275) can0 0AA#1A6F1A6F1A6F1A6F
(1467827580.530765) can0 1C8#00
(1467827580.531216) can0 020#0000072B
(1467827580.531384) can0 0BA#05F300B6
(1467827580.531633) can0 224#0000000000000008
(1467827580.531891) can0 025#0FFE0002B00000EC
(1467827580.532115) can0 024#020001F3420F80F3
(1467827580.532314) can0 262#000000016A
(1467827580.532871) can0 620#1000FFFFB0580050
(1467827580.533786) can0 3D0#00
(1467827580.537321) can0 0AA#1A6F1A6F1A6F1A6F
(1467827580.537516) can0 1AA#0000000000B1
(1467827580.541630) can0 260#0E00000000000078
(1467827580.542116) can0 3A0#00C900000000003C
(1467827580.543261) can0 020#0000072B
(1467827580.543508) can0 0B4#00000000000000BC
(1467827580.543760) can0 025#0FFE0002A00000DC
(1467827580.544009) can0 223#000000000000002D
(1467827580.544257) can0 024#020001F3420F80F3
(1467827580.545184) can0 263#000000004800B4
(1467827580.546239) can0 1C4#000026000000FFF2
(1467827580.547100) can0 1C8#00
(1467827580.549368) can0 0AA#1A6F1A6F1A6F1A6F
(1467827580.554277) can0 354#07
(1467827580.555280) can0 020#0000072B
(1467827580.555452) can0 0BA#05F300B6
(1467827580.555755) can0 1D0#00000900009E0080
(1467827580.555958) can0 025#0FFE0002A00000DC
(1467827580.556187) can0 024#020001F3420F80F3
(1467827580.556442) can0 224#0000000000000008
(1467827580.556671) can0 2C1#08FF9B1282BC00BD
(1467827580.561376) can0 0AA#1A6F1A6F1A6F1A6F
(1467827580.561651) can0 260#0E00000000000078
(1467827580.563486) can0 1C8#00
(1467827580.566432) can0 351#00000000
(1467827580.567363) can0 020#0000072B
(1467827580.567642) can0 0B4#00000000000000BC
(1467827580.567845) can0 025#0FFE0002A00000DC
(1467827580.568119) can0 024#020001F3420F80F3
(1467827580.568370) can0 223#000000000000002D
(1467827580.569788) can0 263#000000004800B4
(1467827580.570818) can0 1C4#000026000000FFF2
(1467827580.571672) can0 262#000000016A
(1467827580.571926) can0 361#00A0000700000000
(1467827580.573465) can0 0AA#1A6F1A6F1A6F1A6F
(1467827580.579384) can0 020#0000072B
(1467827580.579518) can0 0BA#05F300B6
(1467827580.579769) can0 224#0000000000000008
(1467827580.580063) can0 025#0FFE0002A00000DC
(1467827580.580320) can0 024#020001F3421180F5
(1467827580.580334) can0 1C8#00
(1467827580.581692) can0 260#0E00000000000078
(1467827580.585488) can0 0AA#1A6F1A6F1A6F1A6F
(1467827580.585639) can0 1AA#0000000000B1
(1467827580.586426) can0 394#4300
(1467827580.588311) can0 1D0#00000900009E0080
(1467827580.589283) can0 2C1#08FF9B1282BC00BD
(1467827580.591406) can0 020#0000072B
(1467827580.591677) can0 0B4#00000000000000BC
(1467827580.591884) can0 025#0FFE0002A00000DC
(1467827580.592156) can0 024#020001F3420F80F3
(1467827580.592409) can0 223#000000000000002D
(1467827580.594432) can0 263#000000004800B4
(1467827580.595480) can0 1C4#000026000000FFF2
(1467827580.595780) can0 4C1#0100000500000000
(1467827580.596344) can0 1C8#00
(1467827580.597509) can0 0AA#1A6F1A6F1A6F1A6F
(1467827580.601604) can0 260#0E00000000000078
(1467827580.603447) can0 020#0000072B
(1467827580.603583) can0 0BA#05F300B6
(1467827580.603833) can0 224#0000000000000008
(1467827580.604127) can0 024#020001F3421180F5
(1467827580.604379) can0 025#0FFE0002A00000DC
(1467827580.606901) can0 622#1200481000000000
(1467827580.609523) can0 0AA#1A6F1A6F1A6F1A6F
(1467827580.611520) can0 262#000000016A
(1467827580.612766) can0 1C8#00
(1467827580.615466) can0 020#0000072B
(1467827580.615770) can0 0B4#00000000000000BC
(1467827580.615968) can0 223#000000000000002D
(1467827580.616182) can0 024#020001F3420F80F3
(1467827580.616771) can0 025#0FFE0002B00000EC
(1467827580.619044) can0 263#000000004800B4
(1467827580.620068) can0 1C4#000026000000FFF2
(1467827580.621092) can0 1D0#00000900009E0080
(1467827580.621594) can0 0AA#1A6F1A6F1A6F1A6F
(1467827580.621856) can0 260#0E00000000000078
(1467827580.622055) can0 440#4202001101000000
(1467827580.622284) can0 2C1#08FF9B1282BC00BD
(1467827580.626401) can0 351#00000000
(1467827580.627508) can0 020#0000072B
(1467827580.627642) can0 0BA#05F300B6
(1467827580.627895) can0 224#0000000000000008
(1467827580.628182) can0 024#020001F3420F80F3
(1467827580.628639) can0 025#0FFE0002A00000DC
(1467827580.629159) can0 1C8#00
(1467827580.632488) can0 640#A8000057013F0000
(1467827580.633575) can0 0AA#1A6F1A6F1A6F1A6F
(1467827580.633771) can0 1AA#0000000000B1
(1467827580.637509) can0 361#00A0000700000000
(1467827580.639556) can0 020#0000072B
(1467827580.639810) can0 0B4#00000000000000BC
(1467827580.640063) can0 223#000000000000002D
(1467827580.640317) can0 024#020001F3420F80F3
(1467827580.640630) can0 025#0FFE0002A00000DC
(1467827580.641107) can0 3A0#00C900000000003C
(1467827580.641635) can0 260#0E00000000000078
(1467827580.643631) can0 263#000000004800B4
(1467827580.644680) can0 1C4#000026000000FFF2
(1467827580.645665) can0 0AA#1A6F1A6F1A6F1A6F
(1467827580.645680) can0 1C8#00
(1467827580.651451) can0 262#000000016A
(1467827580.651585) can0 020#0000072B
(1467827580.651747) can0 0BA#05F300B6
(1467827580.652005) can0 224#0000000000000008
(1467827580.652299) can0 024#020001F3420F80F3
(1467827580.652549) can0 025#0FFE0002B00000EC
(1467827580.652801) can0 420#00000000FB0180A8
(1467827580.653900) can0 1D0#00000900009E0080
(1467827580.654879) can0 2C1#08FF9B1282BC00BD
(1467827580.657748) can0 0AA#1A6F1A6F1A6F1A6F
(1467827580.657902) can0 3B7#583B000000000008
(1467827580.661529) can0 260#0E00000000000078
(1467827580.661963) can0 1C8#00
(1467827580.663603) can0 020#0000072B
(1467827580.663851) can0 0B4#00000000000000BC
(1467827580.664149) can0 024#020001F3421180F5
(1467827580.664402) can0 223#000000000000002D
(1467827580.664658) can0 025#0FFE0002A00000DC
(1467827580.668245) can0 263#000000004800B4
(1467827580.669267) can0 1C4#000026000000FFF2
(1467827580.669742) can0 0AA#1A6F1A6F1A6F1A6F
(1467827580.675660) can0 020#0000072B
(1467827580.675808) can0 0BA#05F300B6
(1467827580.676043) can0 024#020001F3420F80F3
(1467827580.676347) can0 224#0000000000000008
(1467827580.676599) can0 025#0FFE0002B00000EC
(1467827580.678356) can0 1C8#00
(1467827580.681562) can0 260#0E00000000000078
(1467827580.681762) can0 0AA#1A6F1A6F1A6F1A6F
(1467827580.681947) can0 1AA#0000000000B1
(1467827580.686355) can0 351#00000000
(1467827580.686733) can0 1D0#00000900009E0080
(1467827580.687736) can0 2C1#08FF9B1282BC00BD
(1467827580.687755) can0 020#0000072B
(1467827580.688104) can0 0B4#00000000000000BC
(1467827580.688359) can0 223#000000000000002D
(1467827580.688536) can0 025#0FFE0002A00000DC
(1467827580.689006) can0 024#020001F3420F80F3
(1467827580.691532) can0 262#000000016A
(1467827580.692834) can0 263#000000004800B4
(1467827580.693805) can0 0AA#1A6F1A6F1A6F1A6F
(1467827580.694056) can0 1C4#000026000000FFF2
(1467827580.694747) can0 1C8#00
(1467827580.699748) can0 020#0000072B
(1467827580.699881) can0 0BA#05F300B6
(1467827580.700119) can0 224#0000000000000008
(1467827580.700462) can0 025#0FFE0002A00000DC
(1467827580.701027) can0 024#020001F3420F80F3
(1467827580.701552) can0 260#0E00000000000078
(1467827580.703103) can0 361#00A0000700000000
(1467827580.705850) can0 0AA#1A6F1A6F1A6F1A6F
(1467827580.711163) can0 1C8#00
(1467827580.711767) can0 020#0000072B
(1467827580.712046) can0 0B4#00000000000000BC
(1467827580.712243) can0 223#000000000000002D
(1467827580.712519) can0 025#0FFE0002A00000DC
(1467827580.713024) can0 024#020001F3420F80F3
(1467827580.714723) can0 4C6#0700030000000000
(1467827580.717019) can0 4AC#4800A00100000324
(1467827580.717442) can0 263#000000004800B4
(1467827580.717869) can0 0AA#1A6F1A6F1A6F1A6F
(1467827580.718473) can0 1C4#000026000000FFF2
(1467827580.719491) can0 1D0#00000900009E0080
(1467827580.720467) can0 2C1#08FF9B1282BC00BD
(1467827580.721544) can0 260#0E00000000000078
(1467827580.723786) can0 020#0000072B
(1467827580.723921) can0 0BA#05F300B6
(1467827580.724187) can0 224#0000000000000008
(1467827580.724482) can0 025#0FFE0002A00000DC
(1467827580.724995) can0 024#020001F3420F80F3
(1467827580.725444) can0 442#4302000001000000
(1467827580.727015) can0 3B1#00000D0100080000
(1467827580.727553) can0 1C8#00
(1467827580.729887) can0 0AA#1A6F1A6F1A6F1A6F
(1467827580.730038) can0 1AA#0000000000B1
(1467827580.731387) can0 262#000000016A
(1467827580.735830) can0 020#0000072B
(1467827580.736109) can0 0B4#00000000000000BC
(1467827580.736360) can0 223#000000000000002D
(1467827580.736557) can0 025#0FFE0002A00000DC
(1467827580.736834) can0 4C8#0900000000000000
(1467827580.737086) can0 024#020001F3420F80F3
(1467827580.741516) can0 260#0E00000000000078
(1467827580.741931) can0 0AA#1A6F1A6F1A6F1A6F
(1467827580.742127) can0 263#000000004800B4
(1467827580.743056) can0 3A0#00C600000000003C
(1467827580.743307) can0 1C4#000026000000FFF2
(1467827580.743946) can0 1C8#00
(1467827580.746299) can0 351#00000000
(1467827580.747876) can0 020#0000072B
(1467827580.748029) can0 0BA#05F300B6
(1467827580.748305) can0 224#0000000000000008
(1467827580.748594) can0 025#0FFE0002A00000DC
(1467827580.749004) can0 024#020001F3420F80F3
(1467827580.752268) can0 1D0#00000900009E0080
(1467827580.753275) can0 2C1#08FF9B1282BC00BD
(1467827580.754150) can0 0AA#1A6F1A6F1A6F1A6F
(1467827580.759316) can0 354#07
(1467827580.760092) can0 020#0000072B
(1467827580.760345) can0 0B4#00000000000000BC
(1467827580.760601) can0 025#0FFE0002A00000DC
(1467827580.760615) can0 1C8#00
(1467827580.760960) can0 223#000000000000002D
(1467827580.761211) can0 024#020001F3420F80F3
(1467827580.761484) can0 260#0E00000000000078
(1467827580.766169) can0 0AA#1A6F1A6F1A6F1A6F
(1467827580.766692) can0 263#000000004800B4
(1467827580.767693) can0 1C4#000026000000FFF2
(1467827580.768720) can0 361#00A0000700000000
(1467827580.769692) can0 3F9#5198260100000014
(1467827580.771365) can0 262#000000016A
(1467827580.772110) can0 020#0000072B
(1467827580.772201) can0 0BA#05F300B6
(1467827580.772494) can0 224#0000000000000008
(1467827580.772731) can0 025#0FFE0002B00000EC
(1467827580.772979) can0 024#020001F3420F80F3
(1467827580.776704) can0 1C8#00
(1467827580.778213) can0 0AA#1A6F1A6F1A6F1A6F
(1467827580.778365) can0 1AA#0000000000B1
(1467827580.781390) can0 260#0E00000000000078
(1467827580.784156) can0 020#0000072B
(1467827580.784408) can0 0B4#00000000000000BC
(1467827580.784685) can0 025#0FFE0002A00000DC
(1467827580.784887) can0 223#000000000000002D
(1467827580.785143) can0 024#020001F3420F80F3
(1467827580.785161) can0 3D3#0000
(1467827580.785523) can0 1D0#00000900009E0080
(1467827580.786085) can0 2C1#08FF9B1282BC00BD
(1467827580.790016) can0 3D0#00
(1467827580.790220) can0 0AA#1A6F1A6F1A6F1A6F
(1467827580.791217) can0 263#000000004800B4
(1467827580.792265) can0 1C4#000026000000FFF2
(1467827580.793132) can0 1C8#00
(1467827580.796185) can0 020#0000072B
(1467827580.796317) can0 0BA#05F300B6
(1467827580.796663) can0 224#0000000000000008
(1467827580.796937) can0 024#020001F3420F80F3
(1467827580.797386) can0 025#0FFE0002A00000DC
(1467827580.801413) can0 260#0E00000000000078
(1467827580.802291) can0 0AA#1A6F1A6F1A6F1A6F
(1467827580.806203) can0 351#00000000
(1467827580.808256) can0 020#0000072B
(1467827580.808493) can0 0B4#00000000000000BC
(1467827580.808757) can0 223#000000000000002D
(1467827580.808968) can0 024#020001F3420F80F3
(1467827580.809381) can0 025#0FFE0002A00000DC
(1467827580.809512) can0 1C8#00
(1467827580.811353) can0 262#000000016A
(1467827580.814403) can0 0AA#1A6F1A6F1A6F1A6F
(1467827580.815369) can0 423#00
(1467827580.815827) can0 263#000000004800B4
(1467827580.816852) can0 1C4#000026000000FFF2
(1467827580.817881) can0 1D0#00000900009E0080
(1467827580.818852) can0 2C1#08FF9B1282BC00BD
(1467827580.820296) can0 020#0000072B
(1467827580.820408) can0 0BA#05F300B6
(1467827580.820730) can0 224#0000000000000008
(1467827580.820918) can0 024#020001F3420F80F3
(1467827580.821281) can0 025#0FFE0002A00000DC
(1467827580.821514) can0 260#0E00000000000078
(1467827580.824465) can0 443#4002002F06000000
(1467827580.825938) can0 1C8#00
(1467827580.826387) can0 0AA#1A6F1A6F1A6F1A6F
(1467827580.826607) can0 1AA#0000000000B1
(1467827580.832300) can0 020#0000072B
(1467827580.832595) can0 0B4#00000000000000BC
(1467827580.832793) can0 223#000000000000002D
(1467827580.833043) can0 024#020001F3420F80F3
(1467827580.833268) can0 620#1000FFFFB0580050
(1467827580.833518) can0 025#0FFE0002A00000DC
(1467827580.834245) can0 361#00A0000700000000
(1467827580.836308) can0 3BC#0020000000000000
(1467827580.837267) can0 3BB#00004800
(1467827580.838393) can0 399#00000000000000
(1467827580.838604) can0 0AA#1A6F1A6F1A6F1A6F
(1467827580.840415) can0 263#000000004800B4
(1467827580.841318) can0 260#0E00000000000078
(1467827580.841528) can0 1C4#000026000000FFF2
(1467827580.841989) can0 3A0#00C600000000003C
(1467827580.842329) can0 1C8#00
(1467827580.844359) can0 020#0000072B
(1467827580.844486) can0 0BA#05F300B6
(1467827580.844788) can0 224#0000000000000008
(1467827580.844998) can0 024#020001F3421180F5
(1467827580.845218) can0 025#0FFE0002A00000DC
(1467827580.850400) can0 0AA#1A6F1A6F1A6F1A6F
(1467827580.850710) can0 1D0#00000900009E0080
(1467827580.851231) can0 262#000000016A
(1467827580.851661) can0 2C1#08FF9B1282BC00BD
(1467827580.856353) can0 020#0000072B
(1467827580.856597) can0 0B4#00000000000000BC
(1467827580.856881) can0 223#000000000000002D
(1467827580.857065) can0 024#020001F3420F80F3
(1467827580.857356) can0 025#0FFE0002A00000DC
(1467827580.858747) can0 1C8#00
(1467827580.861354) can0 260#0E00000000000078
(1467827580.862456) can0 0AA#1A6F1A6F1A6F1A6F
(1467827580.865026) can0 263#000000004800B4
(1467827580.866053) can0 1C4#000026000000FFF2
(1467827580.866177) can0 351#00000000
(1467827580.868368) can0 020#0000072B
(1467827580.868494) can0 0BA#05F300B6
(1467827580.868806) can0 224#0000000000000008
(1467827580.869016) can0 024#020001F3420F80F3
(1467827580.869303) can0 025#0FFE0002B00000EC
(1467827580.874476) can0 0AA#1A6F1A6F1A6F1A6F
(1467827580.874632) can0 1AA#0000000000B1
(1467827580.875137) can0 1C8#00
(1467827580.880441) can0 020#0000072B
(1467827580.880656) can0 0B4#00000000000000BC
(1467827580.880946) can0 024#020001F3420F80F3
(1467827580.881153) can0 223#000000000000002D
(1467827580.881443) can0 025#0FFE0002A00000DC
(1467827580.881656) can0 260#0E00000000000078
(1467827580.883495) can0 1D0#00000900009E0080
(1467827580.884343) can0 610#2000006480FFFD60
(1467827580.884589) can0 2C1#08FF9B1282BC00BD
(1467827580.886112) can0 394#4300
(1467827580.886618) can0 0AA#1A6F1A6F1A6F1A6F
(1467827580.889614) can0 263#000000004800B4
(1467827580.890666) can0 1C4#000026000000FFF2
(1467827580.891210) can0 262#000000016A
(1467827580.891529) can0 1C8#00
(1467827580.892483) can0 020#0000072B
(1467827580.892612) can0 0BA#05F300B6
(1467827580.892911) can0 224#0000000000000008
(1467827580.893118) can0 024#020001F3420F80F3
(1467827580.893367) can0 025#0FFE0002B00000EC
(1467827580.896301) can0 611#2100002000006227
(1467827580.898612) can0 0AA#1A6F1A6F1A6F1A6F
(1467827580.899886) can0 361#00A0000700000000
(1467827580.901239) can0 260#0E00000000000078
(1467827580.903484) can0 38F#0300000000000000
(1467827580.904603) can0 020#0000072B
(1467827580.904762) can0 0B4#00000000000000BC
(1467827580.905001) can0 024#020001F3420F80F3
(1467827580.905239) can0 025#0FFE0002A00000DC
(1467827580.905522) can0 223#000000000000002D
(1467827580.907914) can0 1C8#00
(1467827580.910631) can0 0AA#1A6F1A6F1A6F1A6F
(1467827580.914227) can0 263#000000004800B4
(1467827580.915284) can0 1C4#000026000000FFF2
(1467827580.916278) can0 1D0#00000900009E0080
(1467827580.916602) can0 020#0000072B
(1467827580.916680) can0 0BA#05F300B6
(1467827580.916993) can0 024#020001F3420F80F3
(1467827580.917177) can0 025#0FFE0002A00000DC
(1467827580.917466) can0 224#0000000000000008
(1467827580.917662) can0 2C1#08FF9B1282BC00BD
(1467827580.921307) can0 260#0E00000000000078
(1467827580.922615) can0 0AA#1A6F1A6F1A6F1A6F
(1467827580.922808) can0 1AA#0000000000B1
(1467827580.924291) can0 1C8#00
(1467827580.926067) can0 351#00000000
(1467827580.926623) can0 440#4202001101000000
(1467827580.928591) can0 020#0000072B
(1467827580.928864) can0 0B4#00000000000000BC
(1467827580.929087) can0 024#020001F3420F80F3
(1467827580.929337) can0 025#0FFE0002A00000DC
(1467827580.929594) can0 223#000000000000002D
(1467827580.931219) can0 262#000000016A
(1467827580.934695) can0 0AA#1A6F1A6F1A6F1A6F
(1467827580.938815) can0 263#000000004800B4
(1467827580.939867) can0 1C4#000026000000FFF2
(1467827580.940634) can0 020#0000072B
(1467827580.940777) can0 0BA#05F300B6
(1467827580.940820) can0 1C8#00
(1467827580.941167) can0 025#0FFE0002A00000DC
(1467827580.941416) can0 224#0000000000000008
(1467827580.941664) can0 260#0E00000000000078
(1467827580.941913) can0 024#020001F3420F80F3
(1467827580.943915) can0 3A0#00C300000000003C
(1467827580.946737) can0 0AA#1A6F1A6F1A6F1A6F
(1467827580.949091) can0 1D0#00000900009E0080
(1467827580.950060) can0 2C1#08FF9B1282BC00BD
(1467827580.952680) can0 020#0000072B
(1467827580.952927) can0 0B4#00000000000000BC
(1467827580.953175) can0 025#0FFE0002B00000EC
(1467827580.953424) can0 223#000000000000002D
(1467827580.953883) can0 024#020001F3420F80F3
(1467827580.956632) can0 621#1100000000000000
(1467827580.957145) can0 1C8#00
(1467827580.958456) can0 387#0000000000003F3F
(1467827580.958781) can0 0AA#1A6F1A6F1A6F1A6F
(1467827580.959030) can0 3B7#583B000000000008
(1467827580.961180) can0 260#0E00000000000078
(1467827580.963429) can0 263#000000004800B4
(1467827580.964454) can0 1C4#000026000000FFF2
(1467827580.964501) can0 354#07
(1467827580.964763) can0 020#0000072B
(1467827580.964877) can0 0BA#05F300B6
(1467827580.965187) can0 224#0000000000000008
(1467827580.965411) can0 025#0FFE0002A00000DC
(1467827580.965639) can0 361#00A0000700000000
(1467827580.965868) can0 024#020001F3420F80F3
(1467827580.966567) can0 623#1900000000000000
(1467827580.970785) can0 0AA#1A6F1A6F1A6F1A6F
(1467827580.971055) can0 1AA#0000000000B1
(1467827580.971194) can0 262#000000016A
(1467827580.971475) can0 4DC#1D00000200000000
(1467827580.973501) can0 1C8#00
(1467827580.975598) can0 624#1A00414949400000
(1467827580.976792) can0 020#0000072B
(1467827580.977064) can0 0B4#00000000000000BC
(1467827580.977314) can0 025#0FFE0002A00000DC
(1467827580.977572) can0 223#000000000000002D
(1467827580.977896) can0 024#020001F3420F80F3
(1467827580.981195) can0 260#0E00000000000078
(1467827580.981894) can0 1D0#00000900009E0080
(1467827580.982846) can0 2C1#08FF9B1282BC00BD
(1467827580.983068) can0 0AA#1A6F1A6F1A6F1A6F
(1467827580.984618) can0 626#1C00300000000000
(1467827580.986012) can0 351#00000000
(1467827580.988019) can0 263#000000004800B4
(1467827580.988441) can0 389#0000000000000000
(1467827580.989068) can0 1C4#000026000000FFF2
(1467827580.989181) can0 020#0000072B
(1467827580.989379) can0 0BA#05F300B6
(1467827580.989608) can0 224#0000000000000008
(1467827580.989858) can0 024#020001F3420F80F3
(1467827580.990080) can0 025#0FFE0002B00000EC
(1467827580.990150) can0 1C8#00
(1467827580.993546) can0 638#1300180100000000
(1467827580.995052) can0 0AA#1A6F1A6F1A6F1A6F
(1467827581.001112) can0 260#0E00000000000078
(1467827581.001236) can0 020#0000072B
(1467827581.001561) can0 0B4#00000000000000BC
(1467827581.001744) can0 223#000000000000002D
(1467827581.002033) can0 024#020001F3420F80F3
(1467827581.002220) can0 025#0FFE0002A00000DC
(1467827581.002560) can0 63C#98005A5245172060
(1467827581.006323) can0 1C8#00
(1467827581.007109) can0 0AA#1A6F1A6F1A6F1A6F
(1467827581.011030) can0 262#000000016A
(1467827581.011559) can0 63D#9900444558534B00
(1467827581.012608) can0 263#000000004800B4
(1467827581.013019) can0 020#0000072B
(1467827581.013187) can0 0BA#05F300B6
(1467827581.013513) can0 224#0000000000000008
(1467827581.013691) can0 1C4#000026000000FFF2
(1467827581.013945) can0 024#020001F3420F80F3
(1467827581.014174) can0 025#0FFE0002B00000EC
(1467827581.014619) can0 1D0#00000900009E0080
(1467827581.015654) can0 2C1#08FF9B1282BC00BD
(1467827581.019177) can0 0AA#1A6F1A6F1A6F1A6F
(1467827581.019335) can0 1AA#0000000000B1
(1467827581.019639) can0 38E#2020000000000000
(1467827581.020576) can0 680#D800010000000000
(1467827581.021100) can0 260#0E00000000000078
(1467827581.022743) can0 1C8#00
(1467827581.025119) can0 020#0000072B
(1467827581.025330) can0 0B4#00000000000000BC
(1467827581.025623) can0 223#000000000000002D
(1467827581.025810) can0 442#4302000001000000
(1467827581.026096) can0 024#020001F3420F80F3
(1467827581.026309) can0 025#0FFE0002A00000DC
(1467827581.026574) can0 3F9#5198260100000014
(1467827581.031100) can0 361#00A0000700000000
(1467827581.031281) can0 0AA#1A6F1A6F1A6F1A6F
(1467827581.036869) can0 4DD#1E00000000000000
(1467827581.037099) can0 020#0000072B
(1467827581.037279) can0 0BA#05F300B6
(1467827581.037536) can0 224#0000000000000008
(1467827581.037793) can0 263#000000004800B4
(1467827581.038002) can0 024#020101F3420F80F4
(1467827581.038290) can0 025#0FFE0002A00000DC
(1467827581.038506) can0 1C4#000026000000FFF2
(1467827581.039094) can0 1C8#00
(1467827581.041105) can0 260#0E00000000000078
(1467827581.042892) can0 3A0#00C300000000003C
(1467827581.043238) can0 0AA#1A6F1A6F1A6F1A6F
(1467827581.045908) can0 351#00000000
(1467827581.046302) can0 3D0#00
(1467827581.047543) can0 1D0#00000900009E0080
(1467827581.048461) can0 2C1#08FF9B1282BC00BD
(1467827581.049156) can0 020#0000072B
(1467827581.049372) can0 0B4#00000000000000BC
(1467827581.049661) can0 223#000000000000002D
(1467827581.049874) can0 024#020001F3420F80F3
(1467827581.050092) can0 025#0FFE0002A00000DC
(1467827581.051049) can0 262#000000016A
(1467827581.055222) can0 618#2280007880000000
(1467827581.055536) can0 0AA#1A6F1A6F1A6F1A6F
(1467827581.055544) can0 1C8#00
(1467827581.061038) can0 260#0E00000000000078
(1467827581.061166) can0 020#0000072B
(1467827581.061307) can0 0BA#05F300B6
(1467827581.061633) can0 224#0000000000000008
(1467827581.061816) can0 263#000000004800B4
(1467827581.062078) can0 024#020001F3420F80F3
(1467827581.062291) can0 025#0FFE0002A00000DC
(1467827581.062855) can0 1C4#000026000000FFF2
(1467827581.067229) can0 619#238000000C010A80
(1467827581.067503) can0 0AA#1A6F1A6F1A6F1A6F
(1467827581.067635) can0 1AA#0000000000B1
(1467827581.071944) can0 1C8#00
(1467827581.073244) can0 020#0000072B
(1467827581.073490) can0 0B4#00000000000000BC
(1467827581.073748) can0 223#000000000000002D
(1467827581.073960) can0 024#020001F3420F80F3
(1467827581.074226) can0 025#0FFE0002A00000DC
(1467827581.078366) can0 3A5#0000000000007EFC
(1467827581.079246) can0 61A#2480000000015060
(1467827581.079483) can0 0AA#1A6F1A6F1A6F1A6F
(1467827581.080229) can0 1D0#00000900009E0080
(1467827581.081048) can0 260#0E00000000000078
(1467827581.081231) can0 2C1#08FF9B1282BC00BD
(1467827581.085265) can0 020#0000072B
(1467827581.085393) can0 0BA#05F300B6
(1467827581.085697) can0 224#0000000000000008
(1467827581.085880) can0 024#020001F3420F80F3
(1467827581.086165) can0 025#0FFE0002A00000DC
(1467827581.086403) can0 263#000000004800B4
(1467827581.087490) can0 1C4#000026000000FFF2
(1467827581.088310) can0 1C8#00
(1467827581.090987) can0 262#000000016A
(1467827581.091281) can0 61C#268000000000000F
(1467827581.091530) can0 0AA#1A6F1A6F1A6F1A6F
(1467827581.096669) can0 361#00A0000700000000
(1467827581.097299) can0 020#0000072B
(1467827581.097578) can0 0B4#00000000000000BC
(1467827581.097828) can0 223#000000000000002D
(1467827581.098010) can0 024#020001F3420F80F3
(1467827581.098259) can0 025#0FFE0002A00000DC
(1467827581.101051) can0 260#0E00000000000078
(1467827581.103424) can0 0AA#1A6F1A6F1A6F1A6F
(1467827581.104740) can0 1C8#00
(1467827581.105817) can0 38A#1C04000000
(1467827581.105959) can0 351#00000000
(1467827581.108398) can0 413#0101010900000000
(1467827581.109292) can0 020#0000072B
(1467827581.109456) can0 0BA#05F300B6
(1467827581.109711) can0 224#0000000000000008
(1467827581.109941) can0 024#020001F3420F80F3
(1467827581.110207) can0 025#0FFE0002A00000DC
(1467827581.111004) can0 263#000000004800B4
(1467827581.112007) can0 1C4#000026000000FFF2
(1467827581.113036) can0 1D0#00000900009E0080
(1467827581.114004) can0 2C1#08FF9B1282BC00BD
(1467827581.115518) can0 0AA#1A6F1A6F1A6F1A6F
(1467827581.115583) can0 1AA#0000000000B1
(1467827581.120992) can0 260#0E00000000000078
(1467827581.121084) can0 1C8#00
(1467827581.121375) can0 020#0000072B
(1467827581.121639) can0 0B4#00000000000000BC
(1467827581.121888) can0 024#020001F3420F80F3
(1467827581.122116) can0 025#0FFE0002A00000DC
(1467827581.122362) can0 223#000000000000002D
(1467827581.122617) can0 6E1#A180000000100000
(1467827581.123363) can0 443#4002002F06000000
(1467827581.127513) can0 0AA#1A6F1A6F1A6F1A6F
(1467827581.130862) can0 262#000000016A
(1467827581.132509) can0 620#1000FFFFB0580050
(1467827581.133402) can0 020#0000072B
(1467827581.133544) can0 0BA#05F300B6
(1467827581.133810) can0 224#0000000000000008
(1467827581.134076) can0 024#020001F3420F80F3
(1467827581.134324) can0 025#0FFE0002A00000DC
(1467827581.135649) can0 263#000000004800B4
(1467827581.136702) can0 1C4#000026000000FFF2
(1467827581.137565) can0 1C8#00
(1467827581.138421) can0 434#3F00000000000000
(1467827581.139496) can0 0AA#1A6F1A6F1A6F1A6F
(1467827581.141002) can0 260#0E00000000000078
(1467827581.141822) can0 3A0#00C600000000003C
(1467827581.145489) can0 020#0000072B
(1467827581.145686) can0 0B4#00000000000000BC
(1467827581.145936) can0 024#020001F3420F80F3
(1467827581.146190) can0 025#0FFE0002A00000DC
(1467827581.146493) can0 1D0#00000900009E0080
(1467827581.146632) can0 223#000000000000002D
(1467827581.146880) can0 2C1#08FF9B1282BC00BD
(1467827581.151569) can0 0AA#1A6F1A6F1A6F1A6F
(1467827581.153931) can0 1C8#00
(1467827581.157508) can0 020#0000072B
(1467827581.157636) can0 0BA#05F300B6
(1467827581.157902) can0 024#020001F3420F80F3
(1467827581.158177) can0 025#0FFE0002A00000DC
(1467827581.158487) can0 224#0000000000000008
(1467827581.160235) can0 263#000000004800B4
